!Keysight Technologies,N5234A,MY55441357,A.10.47.05
!Date: Sunday, November 19, 2017 16:09:16
!Correction: S11(Full 2 Port(1,2)) 
!S21(Full 2 Port(1,2)) 
!S12(Full 2 Port(1,2)) 
!S22(Full 2 Port(1,2)) 
!S2P File: Measurements: S11, S21, S12, S22:
# Hz S  dB   R 50
27500000000 -25.056454 -99.522949 -76.669548 175.70219 -71.216042 -0.61544776 -0.023699988 -122.30858
27501000000 -25.398357 -99.944389 -73.242538 -88.620735 -77.857292 -9.6029186 -0.019682325 -122.38136
27502000000 -25.687738 -100.87198 -75.321999 22.366098 -83.8713 -59.247276 -0.01226244 -122.52885
27503000000 -26.054655 -100.75135 -72.387299 133.73434 -82.684082 -0.1541393 -0.022631705 -122.59971
27504000000 -26.421829 -101.37969 -76.153671 59.373409 -82.286079 170.13771 -0.019518569 -122.6651
27505000000 -26.8097 -101.97121 -69.730682 176.90694 -74.881744 83.586632 -0.01723345 -122.69264
27506000000 -27.286413 -101.36811 -70.757545 -119.61433 -71.437813 61.876564 -0.016973682 -122.77478
27507000000 -27.696405 -102.17712 -76.946388 -93.191124 -78.220184 166.57051 -0.024062958 -122.90257
27508000000 -28.108408 -102.45627 -76.699875 -29.262987 -79.789841 -151.95836 -0.016323449 -122.99428
27509000000 -28.594072 -102.98952 -70.287804 -63.529339 -74.073067 -26.387194 -0.018076599 -123.11565
27510000000 -29.110407 -102.25331 -65.674545 -96.494255 -75.871254 25.19977 -0.014151342 -123.14701
27511000000 -29.53565 -102.24346 -66.750183 -168.90314 -80.204178 157.57568 -0.014988883 -123.19872
27512000000 -30.087669 -102.17435 -76.366608 -168.81065 -74.589645 -100.98976 -0.023713129 -123.24886
27513000000 -30.62804 -101.64964 -75.057953 -52.746647 -82.1689 107.96278 -0.023813503 -123.39089
27514000000 -31.232252 -101.60019 -89.572327 95.44191 -77.65361 -123.19643 -0.014480807 -123.46403
27515000000 -31.943829 -101.249 -75.581085 -132.85609 -70.551727 -71.310692 -0.016950887 -123.55789
27516000000 -32.740452 -100.41442 -76.371933 -92.682205 -81.194107 149.43941 -0.023362666 -123.67316
27517000000 -33.526211 -99.035294 -94.512054 74.362328 -77.721176 136.68707 -0.022194179 -123.69104
27518000000 -34.225685 -97.039909 -77.327713 -73.042549 -91.212372 34.610779 -0.024189962 -123.81821
27519000000 -35.164917 -93.809196 -72.388214 -5.7839108 -75.039276 102.09148 -0.024070919 -123.90555
27520000000 -36.123241 -91.667877 -86.293892 -94.609634 -84.814529 131.21976 -0.032602884 -123.95143
27521000000 -37.256271 -87.159172 -76.718246 105.31745 -91.598343 -43.487305 -0.026139453 -124.09797
27522000000 -38.701042 -81.026215 -79.958015 -106.12981 -90.201004 -49.844646 -0.019049847 -124.15755
27523000000 -39.591755 -72.140472 -79.714806 -132.67709 -82.963135 37.992874 -0.023797913 -124.25637
27524000000 -40.549911 -65.045891 -77.120766 136.093 -75.245468 -144.94911 -0.022339739 -124.33925
27525000000 -41.062641 -50.535149 -82.773216 94.898445 -85.406204 -14.940342 -0.016073979 -124.42736
27526000000 -41.429001 -38.314793 -71.484512 -26.723934 -76.719742 -4.1263571 -0.022338124 -124.51675
27527000000 -40.604748 -26.443775 -84.70533 129.94406 -79.106346 169.75385 -0.024725523 -124.59568
27528000000 -40.200901 -17.806438 -71.714478 45.736122 -78.490921 -134.21237 -0.025747916 -124.61467
27529000000 -39.061543 -6.2451787 -78.061157 -174.98764 -82.560471 -103.49454 -0.023713419 -124.78765
27530000000 -38.049194 -0.83897644 -77.561798 -176.41594 -82.11499 1.3338963 -0.021161282 -124.88399
27531000000 -36.702045 3.6729445 -73.684433 162.59898 -73.42115 -12.411896 -0.019236701 -124.92313
27532000000 -35.808697 7.940855 -71.166161 132.36078 -76.292511 -80.496147 -0.022915477 -124.98158
27533000000 -34.866798 11.449586 -85.913002 20.814875 -80.132401 98.813988 -0.029925361 -125.12054
27534000000 -34.141777 13.988048 -77.340363 -153.29538 -74.895317 102.01545 -0.018712381 -125.205
27535000000 -33.370174 14.838698 -73.049919 -169.00618 -90.013687 8.4922104 -0.019077076 -125.3299
27536000000 -32.411575 15.354923 -72.509209 -88.062012 -85.683502 -163.51274 -0.025341948 -125.41316
27537000000 -31.767424 17.843939 -82.183517 -150.71396 -75.197861 -57.069542 -0.026183546 -125.44421
27538000000 -31.027609 17.372831 -84.374207 121.8834 -77.626076 -89.838844 -0.020973688 -125.50922
27539000000 -30.472185 17.996811 -75.910492 82.658073 -79.440422 -152.45004 -0.020308966 -125.64561
27540000000 -29.790634 17.636486 -73.48909 66.34597 -76.257591 118.46593 -0.021957003 -125.75511
27541000000 -29.343719 17.654305 -70.594833 -149.39687 -75.73584 118.33147 -0.026778027 -125.80946
27542000000 -28.755146 17.63275 -68.661415 -30.223133 -73.758858 166.29895 -0.024815395 -125.88042
27543000000 -28.204313 17.826822 -88.447372 -53.889572 -81.276138 -124.52536 -0.02085755 -125.96369
27544000000 -27.67683 17.292023 -77.178284 130.77979 -74.289688 -110.3951 -0.020981343 -126.00792
27545000000 -27.289038 16.597429 -74.762062 -104.01662 -70.595413 -107.71974 -0.027819488 -126.11855
27546000000 -26.771673 16.106403 -78.026802 -175.24275 -76.859673 -140.85318 -0.020789217 -126.26187
27547000000 -26.452042 15.789653 -82.283592 32.011627 -74.783546 -126.51772 -0.018221598 -126.30595
27548000000 -26.078995 15.263325 -88.430565 5.681355 -72.397255 -144.12428 -0.020204637 -126.37669
27549000000 -25.668238 14.668773 -80.709267 105.64645 -73.364891 -127.54581 -0.020109437 -126.4806
27550000000 -25.369068 14.183076 -81.326019 -164.40897 -79.421013 151.22966 -0.022003269 -126.57317
27551000000 -25.039694 13.849603 -74.666084 -130.77785 -72.841431 114.14001 -0.014649339 -126.63821
27552000000 -24.646145 12.268755 -73.50663 -84.486969 -74.388939 106.66163 -0.018673275 -126.67048
27553000000 -24.348795 11.636521 -83.306068 -10.893233 -70.699615 -41.665859 -0.016412135 -126.79347
27554000000 -24.024136 10.873421 -80.665131 -125.24448 -87.927826 -5.1594901 -0.014936498 -126.8918
27555000000 -23.79001 10.02534 -72.984734 -96.296997 -75.644699 -17.682869 -0.014289925 -126.96812
27556000000 -23.478945 8.8883419 -76.286491 -140.63333 -76.198593 -163.43872 -0.017973773 -127.02965
27557000000 -23.209734 8.1860132 -78.854118 -68.882713 -77.91674 10.157048 -0.017936887 -127.14429
27558000000 -22.869514 7.3544497 -83.249596 124.3597 -75.471298 -104.10983 -0.017542947 -127.1783
27559000000 -22.630629 6.1991138 -82.716988 170.33032 -76.289925 -151.58043 -0.016012616 -127.2914
27560000000 -22.459787 5.3668871 -82.462006 66.077255 -76.095108 -77.290237 -0.015714886 -127.39272
27561000000 -22.167257 4.3420148 -82.996857 32.150505 -74.690605 -136.94061 -0.016169582 -127.47131
27562000000 -21.990461 2.8998003 -91.758614 163.42088 -75.926506 -109.96906 -0.0087511465 -127.49286
27563000000 -21.715715 2.2218547 -87.400894 -117.80885 -75.023766 -26.253668 -0.011660395 -127.61288
27564000000 -21.524086 0.99640167 -69.121017 96.623634 -85.189613 133.72145 -0.0074979612 -127.71402
27565000000 -21.24514 -0.12915257 -80.503929 -124.42487 -74.870926 134.08426 -0.022349881 -127.73965
27566000000 -21.030922 -1.4472287 -78.421928 175.45186 -81.756958 111.94939 -0.016237654 -127.8681
27567000000 -20.896755 -2.6111255 -86.300659 108.1302 -76.937912 117.60631 -0.0090732034 -127.87974
27568000000 -20.710958 -4.0080833 -81.223206 165.84727 -70.279175 -127.1982 -0.0092327101 -127.98888
27569000000 -20.523722 -5.0648022 -85.286751 -176.30194 -82.99099 117.09205 -0.0078139408 -128.09464
27570000000 -20.305958 -6.1233234 -76.712326 179.1346 -75.89875 -160.80823 -0.01160303 -128.2133
27571000000 -20.15147 -7.6137357 -75.784134 87.687141 -74.886116 141.61798 -0.0097718434 -128.24223
27572000000 -19.992174 -8.9391012 -78.709694 131.91632 -80.579315 -114.52233 -0.0069293333 -128.34688
27573000000 -19.81864 -10.296949 -77.234665 -107.14383 -74.413712 -83.355621 -0.012185021 -128.42728
27574000000 -19.637383 -11.505921 -73.71711 121.71194 -75.409058 24.719868 -0.012068792 -128.51772
27575000000 -19.47489 -12.963652 -80.879662 -143.77788 -89.276161 90.316544 -0.011611097 -128.58771
27576000000 -19.338913 -14.601013 -86.231125 -138.83144 -79.295204 21.757256 -0.0073124808 -128.694
27577000000 -19.199127 -15.812216 -72.674828 99.537308 -78.643036 -140.39771 -0.0078811506 -128.79573
27578000000 -19.071089 -17.073196 -76.719826 103.70785 -75.400673 -99.233032 -0.0064222966 -128.89973
27579000000 -18.978994 -18.570295 -71.300476 130.11284 -73.28009 -77.888229 -0.018904427 -128.99394
27580000000 -18.84532 -20.338469 -79.569489 165.67184 -86.000748 -99.796082 -0.017353915 -129.08904
27581000000 -18.720139 -21.892199 -76.299652 -87.099609 -85.106125 -9.7795687 -0.011919391 -129.13187
27582000000 -18.617062 -23.335369 -81.578293 -66.760231 -94.614822 11.924623 -0.016852202 -129.15826
27583000000 -18.561728 -25.058846 -75.772858 -43.572849 -78.631828 -2.5128937 -0.011604324 -129.31216
27584000000 -18.457457 -26.63129 -86.03009 -1.0056719 -80.969139 17.638586 -0.01430875 -129.36261
27585000000 -18.397903 -28.553265 -81.128639 23.181215 -84.388069 42.941189 -0.018269254 -129.451
27586000000 -18.337984 -30.37854 -76.856796 87.793396 -76.120621 12.134421 -0.01411605 -129.5266
27587000000 -18.265697 -32.062469 -71.779678 -100.63361 -84.271225 93.948212 -0.0061823577 -129.60382
27588000000 -18.246038 -34.036808 -77.963448 -8.969142 -75.393448 -57.200619 -0.018600132 -129.73236
27589000000 -18.271975 -36.145466 -80.716652 16.40424 -81.22673 153.19705 -0.014851736 -129.81206
27590000000 -18.262819 -37.833366 -73.553284 154.19337 -88.098625 -55.134857 -0.018827895 -129.88548
27591000000 -18.286545 -39.801434 -84.84024 59.523243 -79.379974 55.602665 -0.01035999 -129.94041
27592000000 -18.351866 -41.929043 -86.449615 -179.04364 -77.872581 -165.59854 -0.012432107 -130.0177
27593000000 -18.456238 -43.722885 -69.511681 -58.140968 -70.645294 -110.49242 -0.020566054 -130.11179
27594000000 -18.567835 -45.335999 -78.527412 103.88443 -70.954742 -121.20772 -0.011560294 -130.20692
27595000000 -18.67753 -46.986313 -81.084 104.18683 -83.558868 -123.06796 -0.011289304 -130.30824
27596000000 -18.777517 -48.571083 -75.690048 7.5884042 -84.049843 62.249306 -0.014126333 -130.33543
27597000000 -18.979485 -50.0327 -85.787003 48.115105 -69.067276 -99.271721 -0.012983661 -130.42836
27598000000 -19.175791 -51.171253 -85.632095 139.67287 -90.813911 -72.532928 -0.01720185 -130.51921
27599000000 -19.342167 -52.214172 -69.631203 -37.080143 -77.237389 154.52087 -0.0098038008 -130.60439
27600000000 -19.513971 -52.88694 -74.764626 145.73897 -79.523239 -173.10265 -0.011809946 -130.72589
27601000000 -19.709225 -53.261871 -74.642433 112.58092 -72.167091 -140.95773 -0.0058640582 -130.81891
27602000000 -19.810392 -53.512333 -73.105911 -84.835899 -99.169968 24.149807 -0.014552356 -130.87349
27603000000 -19.880917 -54.040211 -75.012329 -126.34283 -78.571701 125.48585 -0.01116474 -130.94711
27604000000 -19.988659 -54.055462 -73.78215 -59.668385 -72.898819 119.65669 -0.0088598002 -131.04407
27605000000 -20.030615 -54.618095 -75.676537 -49.381153 -77.051132 -165.75073 -0.013056637 -131.19354
27606000000 -20.086039 -54.897385 -73.873444 -67.789284 -81.308678 128.08888 -0.013375579 -131.22472
27607000000 -20.14463 -55.532394 -88.040092 78.064445 -83.530243 -175.14671 -0.007782476 -131.38039
27608000000 -20.149113 -55.980812 -78.808014 105.12128 -78.405273 -153.70328 -0.012273446 -131.40794
27609000000 -20.176624 -56.925694 -79.222328 -38.709373 -97.920418 177.81119 -0.010528021 -131.49426
27610000000 -20.242989 -57.680252 -70.815918 174.98953 -73.640343 91.180191 -0.0023920196 -131.5583
27611000000 -20.294962 -58.353546 -72.980827 -139.52148 -71.118919 37.413715 -0.010576248 -131.63867
27612000000 -20.342642 -59.394562 -74.500809 -98.917267 -83.522736 -51.679901 -0.0092147002 -131.75914
27613000000 -20.370163 -60.377048 -84.920258 -37.259205 -85.792488 -177.13063 0.0050603966 -131.82538
27614000000 -20.514278 -61.4958 -75.0317 94.110435 -74.33419 -92.898994 -0.0044805901 -131.93204
27615000000 -20.585155 -62.097084 -73.722443 -58.394756 -87.038277 -39.884464 -0.003087685 -132.06506
27616000000 -20.705561 -63.050453 -77.15564 130.39243 -88.099754 136.42174 0.0095149362 -132.15137
27617000000 -20.804976 -63.941296 -77.412903 -144.4493 -74.931961 33.843128 -0.0021426112 -132.21298
27618000000 -20.970966 -64.617477 -77.31131 -108.41879 -84.213936 69.134621 -0.005023269 -132.29097
27619000000 -21.086843 -65.609924 -71.153183 -73.071976 -76.709908 -85.140144 0.0024345976 -132.38557
27620000000 -21.229729 -66.232048 -67.140053 -103.97268 -71.626656 -48.072758 -0.0073304693 -132.49008
27621000000 -21.374052 -66.59594 -85.441216 103.21526 -94.974487 36.012669 -0.0096104341 -132.54951
27622000000 -21.559402 -67.271118 -76.205139 -126.55109 -81.135185 163.96498 -0.0054793363 -132.64612
27623000000 -21.749815 -67.544762 -78.83313 -148.54199 -80.033684 120.23483 -0.003811568 -132.77939
27624000000 -21.902262 -67.704185 -67.466866 -144.39616 -79.597801 110.24845 -0.0042508286 -132.87227
27625000000 -22.044151 -68.251045 -70.429062 -149.27193 -85.953888 -32.636543 -0.010479836 -132.92235
27626000000 -22.288431 -68.009438 -79.663422 131.19098 -81.11187 7.8920627 -0.0096038878 -133.04646
27627000000 -22.444298 -68.460274 -76.52832 -164.5383 -74.022476 25.389206 0.0058157383 -133.11156
27628000000 -22.625895 -68.16861 -76.52887 179.68132 -76.294823 122.329 -0.00085718179 -133.22708
27629000000 -22.793945 -67.960739 -79.529663 -40.42276 -77.954155 -179.95123 -0.011138372 -133.31981
27630000000 -22.910463 -68.101906 -75.148682 171.39888 -82.186447 89.208473 -0.0083503937 -133.41083
27631000000 -23.121908 -67.60202 -67.249519 -161.34286 -77.33783 111.72516 -0.00036222147 -133.52119
27632000000 -23.236868 -66.905701 -74.186111 -169.80714 -85.592606 -77.359779 -0.0057701739 -133.58496
27633000000 -23.33041 -66.668427 -77.485405 -168.73053 -76.980469 -103.06404 -0.0096114716 -133.66553
27634000000 -23.50094 -65.951233 -76.126495 52.531456 -76.113358 -123.45448 -0.0010449579 -133.76498
27635000000 -23.573973 -65.294632 -79.041092 175.47243 -76.718056 140.32074 -0.0091609536 -133.89856
27636000000 -23.672379 -64.980408 -76.929489 104.85046 -80.51046 -102.84282 -0.010547075 -133.91649
27637000000 -23.725832 -64.073936 -72.558418 153.86526 -78.490479 -106.14896 -0.0091583831 -134.00536
27638000000 -23.687487 -63.698483 -71.208817 178.80896 -77.967705 -16.216505 -0.0054159388 -134.05183
27639000000 -23.781128 -62.792717 -68.540741 145.15619 -84.978775 -145.37373 -0.013953375 -134.17802
27640000000 -23.802357 -62.160351 -75.119308 167.20761 -79.51722 68.895897 -0.0074608079 -134.31079
27641000000 -23.795588 -61.261826 -75.407761 -150.29945 -90.802422 133.89571 -0.014845365 -134.39645
27642000000 -23.750845 -60.643085 -88.184761 -82.153236 -78.078003 -106.26207 -0.019083679 -134.46289
27643000000 -23.762783 -60.056904 -72.9869 138.32217 -75.547478 -15.5045 -0.010943898 -134.58598
27644000000 -23.715874 -59.888897 -78.707214 -174.58734 -83.790939 -116.78619 -0.010080183 -134.68855
27645000000 -23.683771 -59.369495 -77.241104 -140.41237 -76.924316 -86.414566 -0.0080722319 -134.76326
27646000000 -23.601242 -58.584297 -70.754929 -151.99405 -82.481728 116.8276 -0.01249506 -134.84459
27647000000 -23.573074 -58.720768 -83.928406 -141.13547 -84.115128 42.937698 -0.012763063 -134.95248
27648000000 -23.531923 -58.153522 -77.79512 140.75861 -74.545334 -168.50583 -0.015144497 -135.09624
27649000000 -23.454227 -57.887699 -70.120789 122.893 -78.208405 -32.432636 -0.013815066 -135.18303
27650000000 -23.346071 -57.845032 -78.293701 149.98618 -81.456825 78.146904 -0.013964356 -135.2724
27651000000 -23.272375 -57.525963 -83.900688 159.86592 -74.274986 98.44062 -0.020330859 -135.35335
27652000000 -23.181805 -57.796749 -76.109001 135.68398 -80.273682 -71.663506 -0.016720228 -135.41528
27653000000 -23.14271 -57.866879 -73.997322 173.82635 -75.01825 156.28883 -0.012936137 -135.53143
27654000000 -23.006437 -58.028141 -71.560127 139.42877 -72.773041 -114.06835 -0.012488223 -135.60568
27655000000 -23.000834 -57.995293 -72.836472 163.02898 -82.24855 107.28912 -0.013202499 -135.71149
27656000000 -22.854408 -58.287952 -72.746147 158.22792 -106.03647 167.0519 -0.015187734 -135.74617
27657000000 -22.778788 -58.689732 -72.551842 103.05254 -88.546379 159.21333 -0.019047141 -135.86595
27658000000 -22.749897 -58.756287 -75.191872 -141.53011 -89.52755 -154.7081 -0.019714318 -136.00621
27659000000 -22.644459 -58.953728 -72.665413 144.85301 -89.917908 -175.21036 -0.022253335 -136.0191
27660000000 -22.58445 -59.260456 -69.850922 162.08218 -73.633369 -68.351036 -0.016635749 -136.10693
27661000000 -22.522579 -59.718395 -76.000809 122.46666 -74.14772 -36.811295 -0.01682335 -136.25525
27662000000 -22.437796 -60.059795 -71.90271 93.412788 -76.926559 20.202686 -0.02630483 -136.24065
27663000000 -22.371933 -60.547256 -70.416153 120.70255 -78.242653 29.396374 -0.0098325089 -136.3786
27664000000 -22.299047 -61.011471 -69.360115 153.83371 -89.767349 81.159317 -0.019407885 -136.44098
27665000000 -22.255377 -61.462517 -72.141144 173.53592 -79.480858 -61.482414 -0.016777497 -136.52922
27666000000 -22.203655 -61.921238 -71.619858 128.4239 -75.411064 55.474365 -0.014352239 -136.61659
27667000000 -22.157766 -62.435333 -70.791763 117.45087 -79.915466 6.2726712 -0.014090831 -136.7034
27668000000 -22.089323 -62.844776 -70.513214 114.64793 -79.071121 38.935364 -0.016919604 -136.84253
27669000000 -22.035122 -63.015167 -75.548737 137.59755 -84.889297 145.09047 -0.017353481 -136.93587
27670000000 -21.99395 -63.789009 -71.981987 107.76254 -71.125748 -176.67773 -0.022587605 -137.01408
27671000000 -21.945047 -64.504204 -74.357208 84.187759 -82.347107 145.01888 -0.020255089 -137.10507
27672000000 -21.882166 -65.066017 -73.140648 67.910805 -79.902901 7.5931511 -0.018653803 -137.14839
27673000000 -21.888538 -65.487106 -76.000427 50.051334 -74.285423 -68.974594 -0.024819043 -137.23532
27674000000 -21.8459 -66.010948 -69.90712 90.708992 -90.126671 -139.82375 -0.018989151 -137.384
27675000000 -21.810585 -66.354301 -77.191063 112.80113 -72.916168 170.60205 -0.014905014 -137.45155
27676000000 -21.78182 -67.018326 -73.483841 39.490108 -78.173782 106.81628 -0.021768712 -137.55235
27677000000 -21.739988 -67.629059 -72.339424 61.286926 -88.078957 140.9301 -0.018411476 -137.62508
27678000000 -21.653732 -68.170052 -79.175285 63.642666 -81.10701 -95.116432 -0.024566967 -137.73546
27679000000 -21.647261 -68.741348 -71.424225 106.36161 -73.984978 -131.27225 -0.017937457 -137.81458
27680000000 -21.576952 -69.145363 -77.639923 106.64783 -76.275665 -68.220009 -0.016861582 -137.84639
27681000000 -21.576092 -69.681839 -70.603569 75.061134 -80.223122 -116.90179 -0.024993464 -137.97066
27682000000 -21.570482 -70.291008 -72.767342 50.256474 -77.047333 149.74243 -0.015117063 -138.06087
27683000000 -21.546331 -70.928062 -78.251411 -160.2847 -72.550316 104.96131 -0.021191854 -138.13551
27684000000 -21.48933 -71.526276 -71.850441 -137.02365 -79.970779 150.04486 -0.015461258 -138.20844
27685000000 -21.431608 -71.975029 -71.281059 124.77562 -81.037201 67.80526 -0.0061353203 -138.31398
27686000000 -21.385809 -72.522026 -75.174896 69.935379 -84.471878 118.65233 -0.019815959 -138.38982
27687000000 -21.348251 -73.159851 -67.758148 68.860214 -78.04332 -34.727554 -0.018773044 -138.46144
27688000000 -21.328487 -73.879776 -74.999924 -96.581909 -76.990417 -25.78829 -0.020277176 -138.54686
27689000000 -21.303904 -74.255875 -84.386711 -4.6673875 -94.653183 77.312263 -0.023075242 -138.6179
27690000000 -21.250856 -74.67778 -70.508469 134.56186 -78.006622 137.16707 -0.013804813 -138.71025
27691000000 -21.215145 -75.511581 -79.244713 89.846558 -85.430496 -5.2223768 -0.019411761 -138.78642
27692000000 -21.20145 -76.311478 -79.847023 78.030174 -75.201759 84.020798 -0.020053688 -138.89096
27693000000 -21.141886 -76.832535 -75.29245 108.06393 -77.331261 -93.127678 -0.021893887 -138.98869
27694000000 -21.119936 -77.51635 -80.808952 36.269714 -73.603394 -49.667755 -0.013314675 -139.10136
27695000000 -21.053677 -78.17057 -72.670029 106.09859 -88.260826 105.1582 -0.016023472 -139.18115
