!Keysight Technologies,N5234A,MY55441357,A.10.47.05
!Date: Sunday, November 19, 2017 16:08:13
!Correction: S11(Full 2 Port(1,2)) 
!S21(Full 2 Port(1,2)) 
!S12(Full 2 Port(1,2)) 
!S22(Full 2 Port(1,2)) 
!S2P File: Measurements: S11, S21, S12, S22:
# Hz S  dB   R 50
27500000000 -24.386822 -104.69554 -83.123329 61.634781 -78.438896 81.89328 -0.015639404 -106.63686
27501000000 -24.697178 -105.45694 -72.804115 34.893837 -76.119774 -72.364845 -0.013736387 -106.66805
27502000000 -24.959681 -106.32188 -79.924126 136.942 -80.204224 81.774918 -0.0078204935 -106.81062
27503000000 -25.327021 -106.74967 -72.837128 -104.0888 -79.920181 108.74223 -0.017896827 -106.8499
27504000000 -25.620344 -107.87549 -80.818764 134.12242 -76.179306 168.57458 -0.014974183 -106.95344
27505000000 -25.909784 -108.43451 -73.415428 76.572578 -73.773659 102.0362 -0.012084941 -107.01131
27506000000 -26.353125 -108.42738 -69.977989 -70.535057 -74.693413 115.35757 -0.015903596 -107.0354
27507000000 -26.721758 -109.54224 -71.786423 -28.838856 -80.06485 11.6102 -0.020926218 -107.13951
27508000000 -27.052254 -109.70682 -80.001556 -37.141399 -75.154335 173.76164 -0.013742823 -107.20055
27509000000 -27.496197 -110.97144 -76.670853 121.5576 -84.58799 -145.00398 -0.015302145 -107.30297
27510000000 -27.862387 -111.27596 -72.802872 8.770998 -84.052452 -18.208439 -0.012708495 -107.3376
27511000000 -28.301359 -111.611 -68.381104 35.433136 -80.599548 -158.33769 -0.0076400773 -107.37817
27512000000 -28.752663 -112.23765 -70.304199 -9.2926092 -88.562645 -81.432976 -0.014840422 -107.41246
27513000000 -29.249826 -112.65559 -78.695847 -85.899567 -75.533897 86.285278 -0.017948814 -107.54086
27514000000 -29.78406 -113.53169 -74.575073 -116.11609 -77.262421 158.98874 -0.011115656 -107.58356
27515000000 -30.306822 -114.28464 -82.582092 -43.10976 -75.465546 -39.885822 -0.011561429 -107.66813
27516000000 -30.978329 -114.62239 -82.541298 -124.12963 -80.843521 16.08374 -0.015554315 -107.76984
27517000000 -31.526762 -114.52589 -83.366905 28.765322 -71.713966 -137.63531 -0.0099015599 -107.75163
27518000000 -32.232792 -115.25819 -74.634392 -9.3002243 -72.842766 -144.90739 -0.021358438 -107.8712
27519000000 -33.131207 -114.78746 -80.133698 -178.92508 -80.072395 -160.30742 -0.024503374 -107.92403
27520000000 -33.764503 -115.06229 -77.739258 111.61338 -75.297752 -52.436337 -0.02929775 -107.95709
27521000000 -34.67519 -114.20671 -74.419518 11.696137 -90.120216 12.933393 -0.01748959 -108.14461
27522000000 -35.91024 -115.60828 -108.69907 -88.853409 -87.208611 54.928398 -0.019509472 -108.1726
27523000000 -37.042225 -112.57436 -73.205978 -91.358025 -78.864609 113.78531 -0.026787905 -108.23929
27524000000 -38.134766 -112.65553 -79.114319 -166.23302 -84.799911 21.26828 -0.02148081 -108.30496
27525000000 -39.883667 -109.17595 -73.135757 93.601791 -74.274445 95.035713 -0.012383367 -108.36498
27526000000 -41.718239 -103.23158 -69.471008 170.15193 -81.730202 74.383881 -0.016575681 -108.43858
27527000000 -43.273853 -92.062111 -83.154907 53.308857 -93.331848 -147.86615 -0.025259269 -108.55074
27528000000 -44.773144 -85.421356 -73.078888 48.418007 -72.462769 -155.67146 -0.026568023 -108.52042
27529000000 -46.52845 -60.792515 -76.598198 128.81277 -80.677971 -174.88747 -0.025422702 -108.64886
27530000000 -47.458809 -36.897388 -74.753677 103.59403 -72.597702 101.04237 -0.017383911 -108.71032
27531000000 -45.246552 -16.13163 -77.187279 -87.639862 -73.294151 132.87756 -0.022197396 -108.78864
27532000000 -43.370712 1.2399492 -76.845253 -131.93152 -77.512306 63.162796 -0.025758337 -108.87209
27533000000 -41.526215 9.337985 -81.448166 -99.507187 -79.808594 70.631332 -0.027288007 -108.9766
27534000000 -39.908958 11.914354 -73.592232 -139.73041 -85.328865 -130.7086 -0.018247819 -109.03315
27535000000 -38.456348 16.213015 -81.267166 -68.398331 -85.691383 164.98141 -0.025991648 -109.11069
27536000000 -36.996807 16.281874 -80.128578 -28.370729 -77.800476 46.851784 -0.022011727 -109.19588
27537000000 -35.674297 19.813023 -77.034195 107.27103 -76.954849 142.51624 -0.02313027 -109.20445
27538000000 -34.792805 20.515339 -76.196693 -32.557205 -77.194458 119.55997 -0.019688601 -109.22492
27539000000 -33.887943 21.285587 -76.039131 101.36634 -80.141182 -11.382273 -0.032581046 -109.34851
27540000000 -32.878159 20.317749 -72.583839 8.8893042 -87.068359 -65.569992 -0.030021843 -109.46301
27541000000 -32.292221 20.942165 -75.724678 55.162022 -75.802856 -123.86047 -0.028040107 -109.49261
27542000000 -31.452553 21.092304 -74.989052 177.6226 -80.283737 105.28928 -0.030662851 -109.55978
27543000000 -30.733309 20.562881 -75.40966 -165.23239 -83.533722 -33.347473 -0.024684923 -109.64155
27544000000 -30.084711 20.837021 -97.841049 54.604935 -85.53167 168.66452 -0.020593382 -109.67848
27545000000 -29.592224 19.470081 -85.06884 102.51521 -75.265945 42.405407 -0.02658413 -109.76548
27546000000 -29.00107 18.449286 -71.154877 162.10736 -73.487526 -84.938438 -0.0216785 -109.84308
27547000000 -28.531042 17.589371 -79.441429 156.18784 -74.138741 -85.278435 -0.015605886 -109.90035
27548000000 -28.012362 17.137444 -86.482796 143.13135 -73.258934 -20.927494 -0.022379158 -109.95061
27549000000 -27.595045 16.98176 -76.416824 -134.45822 -82.164017 61.390923 -0.026152804 -110.04019
27550000000 -27.19861 16.641376 -77.333481 9.227953 -81.146309 -57.655643 -0.020596988 -110.12498
27551000000 -26.735245 15.817331 -92.261696 107.75217 -81.156509 144.05489 -0.013131313 -110.19804
27552000000 -26.30875 13.89283 -78.02607 -178.34782 -73.887085 102.81892 -0.021732014 -110.21844
27553000000 -25.88702 13.254261 -80.036636 -138.40718 -79.726944 -73.719788 -0.021104909 -110.2791
27554000000 -25.557974 12.480165 -77.372017 116.88429 -71.82428 -167.04961 -0.020813221 -110.35639
27555000000 -25.253815 11.357715 -73.935791 94.936562 -81.541321 -14.650672 -0.011773016 -110.40697
27556000000 -24.924397 10.297647 -89.519577 35.350906 -76.024467 -159.45259 -0.010496372 -110.43572
27557000000 -24.602718 9.5663671 -79.226524 167.29655 -84.341362 175.21358 -0.021182934 -110.51624
27558000000 -24.186569 8.3419838 -70.384598 99.408913 -78.15168 81.900795 -0.022683918 -110.57331
27559000000 -23.944138 7.2262235 -73.777931 77.441849 -77.959305 41.992615 -0.017117836 -110.65577
27560000000 -23.738319 6.1826663 -76.502548 42.848724 -74.914581 -83.537292 -0.013900033 -110.76829
27561000000 -23.389935 5.1329532 -78.290138 154.41447 -78.151833 2.9605768 -0.015047717 -110.82517
27562000000 -23.207115 3.6710808 -71.389351 -135.4227 -79.287376 48.912727 -0.012074515 -110.80212
27563000000 -22.845213 2.8833029 -74.218475 59.134113 -80.23716 61.223911 -0.006978164 -110.89777
27564000000 -22.661697 1.5122335 -78.54583 79.885826 -89.114807 -110.6519 -0.0094187399 -110.99385
27565000000 -22.322475 0.24996571 -80.759468 -30.057997 -79.297943 -95.11113 -0.017599886 -110.9816
27566000000 -22.114704 -1.1893911 -83.894371 32.002171 -77.979446 -153.08803 -0.015832234 -111.09657
27567000000 -21.968792 -2.5531023 -74.415833 -39.884064 -74.076233 150.83514 0.0006591311 -111.12995
27568000000 -21.719267 -3.852246 -73.682854 29.364145 -75.400696 165.983 -0.0080322381 -111.20423
27569000000 -21.495781 -4.7137294 -78.25045 79.934067 -73.127731 76.352066 -0.01008465 -111.29273
27570000000 -21.249304 -5.8627338 -82.308617 167.96373 -75.498573 60.974289 -0.010027898 -111.36739
27571000000 -21.088728 -7.5142627 -79.284119 -34.78862 -83.901901 138.48463 -0.0085002854 -111.3828
27572000000 -20.90169 -9.0009003 -71.399742 -46.78894 -73.459427 86.669067 -0.013948172 -111.49824
27573000000 -20.694197 -10.279658 -74.189865 177.83449 -80.12735 -151.34056 -0.014733764 -111.53259
27574000000 -20.531061 -11.773685 -73.989845 -95.103851 -81.799294 -97.980583 -0.012104417 -111.59521
27575000000 -20.337976 -13.190229 -79.319099 116.18171 -80.286354 -151.70743 -0.011253493 -111.67052
27576000000 -20.162041 -14.762735 -81.33017 6.4294491 -71.026978 132.01944 -0.0099953236 -111.71052
27577000000 -19.987703 -16.121147 -86.307152 41.594738 -72.560211 -4.282578 -0.016986577 -111.79575
27578000000 -19.874958 -17.563335 -70.052498 163.65367 -77.163223 25.661898 -0.0064968425 -111.89412
27579000000 -19.746986 -19.091934 -70.43869 139.04044 -73.369423 125.66483 -0.019574655 -111.99538
27580000000 -19.597771 -20.86475 -83.423607 92.371521 -77.949799 -139.18311 -0.023216724 -112.05204
27581000000 -19.443762 -22.613379 -75.859055 -87.503571 -68.353691 -150.47307 -0.018849863 -112.02977
27582000000 -19.323526 -24.161114 -76.565552 -24.837219 -75.244301 -129.63324 -0.0195446 -112.07578
27583000000 -19.236847 -25.710966 -84.419777 -27.424332 -95.178627 100.84807 -0.014480979 -112.19153
27584000000 -19.137569 -27.672606 -70.454926 -1.2721603 -70.558571 177.91714 -0.015112173 -112.23399
27585000000 -19.03834 -29.58462 -77.958122 84.487892 -71.044411 -179.05325 -0.019342665 -112.31171
27586000000 -18.956074 -31.45019 -72.625443 86.18663 -75.168823 42.811825 -0.018984787 -112.35866
27587000000 -18.880833 -33.373089 -75.305573 -30.519444 -83.482735 -80.005013 -0.010292649 -112.42633
27588000000 -18.851595 -35.360107 -80.246078 -4.5285425 -73.559021 138.9649 -0.021896563 -112.51208
27589000000 -18.861391 -37.52766 -73.074814 -134.9037 -78.397804 5.7881141 -0.019271571 -112.61153
27590000000 -18.821686 -39.310364 -69.40229 -109.68108 -78.656921 -55.811047 -0.018846579 -112.67255
27591000000 -18.825459 -41.357101 -80.973526 168.56178 -79.714447 155.6787 -0.015077575 -112.69646
27592000000 -18.857689 -43.551754 -82.174812 167.63272 -72.926765 160.85632 -0.01431185 -112.75709
27593000000 -18.947611 -45.565422 -78.990479 17.065174 -88.678627 110.88914 -0.022350453 -112.84867
27594000000 -19.031054 -47.37418 -80.437637 162.69971 -81.338379 -147.38074 -0.018359834 -112.92153
27595000000 -19.118837 -49.069641 -75.974815 -90.013039 -85.645088 70.559242 -0.026433671 -112.94823
27596000000 -19.230125 -50.8381 -78.531609 -50.783821 -78.817924 -31.463041 -0.020933086 -113.00748
27597000000 -19.420269 -52.513142 -72.292419 -95.809219 -77.738853 -87.082253 -0.01570463 -113.08529
27598000000 -19.586758 -54.010391 -79.897018 105.73247 -83.855728 120.95765 -0.019889219 -113.18328
27599000000 -19.781761 -55.374271 -83.407799 -112.22439 -74.567696 -0.97671312 -0.014025518 -113.21652
27600000000 -19.953379 -56.029922 -71.943558 161.03369 -80.542221 -26.667528 -0.01618094 -113.30848
27601000000 -20.177423 -56.569569 -88.890366 47.30793 -73.590256 -6.3761311 -0.014903804 -113.36304
27602000000 -20.293926 -57.010712 -76.716118 -14.809252 -85.557297 58.522884 -0.022661392 -113.41684
27603000000 -20.329741 -57.623821 -71.153374 15.812494 -81.741928 45.360844 -0.013296424 -113.49079
27604000000 -20.44899 -57.670082 -76.457794 92.81916 -71.921227 -36.712761 -0.011865214 -113.57858
27605000000 -20.515049 -58.19664 -71.436996 157.8483 -68.688362 20.81566 -0.015672408 -113.69558
27606000000 -20.567789 -58.543949 -77.670425 113.43816 -73.787079 -35.002617 -0.021544697 -113.67409
27607000000 -20.626978 -59.046364 -81.634773 -52.145386 -82.955368 40.411732 -0.012785661 -113.79369
27608000000 -20.653147 -59.71019 -68.990013 -107.35207 -83.406364 126.84984 -0.015645631 -113.81409
27609000000 -20.643351 -60.498512 -74.935341 -25.993374 -69.563255 -177.38655 -0.020520117 -113.85464
27610000000 -20.703171 -61.372303 -74.141998 85.612946 -77.179115 117.73891 -0.014180657 -114.00772
27611000000 -20.75304 -62.083817 -79.356888 -179.23328 -78.891663 -6.7837119 -0.020019932 -114.06775
27612000000 -20.813986 -62.79583 -80.615356 92.551529 -78.907219 122.20377 -0.01558129 -114.08961
27613000000 -20.850695 -64.19532 -72.204018 8.1439495 -79.731674 114.4531 -0.0083946967 -114.16419
27614000000 -20.937035 -65.140266 -87.26001 6.2616601 -70.457016 39.423954 -0.013041421 -114.24361
27615000000 -20.996103 -65.759331 -85.405891 -86.14489 -76.828011 56.463436 -0.017324686 -114.34077
27616000000 -21.154644 -66.832779 -74.087646 136.58835 -74.335541 45.38055 -0.004208053 -114.40439
27617000000 -21.197567 -67.783798 -74.116035 -125.82352 -77.656555 -159.25549 -0.0096601872 -114.47932
27618000000 -21.31669 -68.581062 -82.442429 -126.27399 -69.845428 135.74307 -0.012011494 -114.51082
27619000000 -21.454844 -69.685043 -74.161636 -13.730797 -77.201027 128.98799 -0.0068487572 -114.56045
27620000000 -21.605646 -70.211441 -70.216553 79.196594 -77.714561 147.21535 -0.015455529 -114.67123
27621000000 -21.719124 -70.683342 -78.000633 69.324509 -80.257553 161.79376 -0.013330688 -114.74301
27622000000 -21.87956 -71.314262 -76.63002 123.82599 -87.180191 -63.438061 -0.016637873 -114.82729
27623000000 -22.058531 -71.90609 -73.162796 55.265747 -82.056602 167.3846 -0.017108271 -114.88803
27624000000 -22.231728 -72.409569 -75.049118 176.80247 -75.752251 23.712408 -0.012882033 -114.93058
27625000000 -22.370508 -73.102638 -75.231766 173.71062 -81.68911 -20.807798 -0.020919107 -114.98822
27626000000 -22.61261 -73.037842 -76.621223 117.89754 -80.748329 179.95601 -0.025700416 -115.06739
27627000000 -22.775181 -73.412399 -71.221245 9.1596384 -90.684685 -31.085554 -0.0071167354 -115.11914
27628000000 -22.936853 -73.086479 -91.968338 78.058525 -73.438828 -55.875034 -0.019363608 -115.18651
27629000000 -23.077826 -72.930428 -72.910309 -5.5553846 -76.512062 -59.818039 -0.016308449 -115.27744
27630000000 -23.188593 -73.090897 -75.268143 -157.0665 -87.5494 24.03738 -0.019404134 -115.32481
27631000000 -23.431311 -72.760674 -78.24234 -64.50946 -88.598869 -107.55407 -0.012241275 -115.39144
27632000000 -23.570946 -72.465187 -83.471329 163.368 -74.993156 31.894535 -0.012648515 -115.4743
27633000000 -23.653521 -72.405739 -82.99379 -171.30904 -70.910065 50.782124 -0.012561379 -115.4994
27634000000 -23.796175 -71.820091 -73.185966 -151.34563 -76.829597 73.843735 -0.018196588 -115.56483
27635000000 -23.948154 -71.095924 -69.308769 154.05586 -79.726891 134.10783 -0.019626647 -115.70808
27636000000 -24.014317 -70.760117 -76.296898 44.161236 -80.768723 22.354927 -0.022424895 -115.74078
27637000000 -24.088249 -69.99704 -83.603363 43.986298 -75.859673 12.501591 -0.029663675 -115.78461
27638000000 -24.082596 -69.295135 -72.795456 -83.447746 -75.38028 125.91876 -0.020414969 -115.79443
27639000000 -24.178356 -68.493889 -74.962494 167.8837 -73.503464 143.63678 -0.027418604 -115.93317
27640000000 -24.203245 -68.404274 -76.782455 107.56959 -89.035645 143.48346 -0.020553537 -115.99496
27641000000 -24.228449 -67.297806 -81.030434 63.255482 -97.289101 -151.11816 -0.025633624 -116.04359
27642000000 -24.185556 -66.528938 -101.88109 137.39275 -74.177132 -63.90506 -0.035123926 -116.10461
27643000000 -24.219028 -65.834877 -77.249542 -115.63409 -77.832863 85.846497 -0.028197065 -116.18533
27644000000 -24.18973 -65.458336 -81.924171 97.188194 -81.016014 176.95609 -0.026973266 -116.28503
27645000000 -24.175318 -65.308998 -71.822075 -75.927559 -76.482491 107.5619 -0.024827316 -116.36022
27646000000 -24.050211 -64.52832 -75.404648 -44.634804 -81.714325 -128.75789 -0.024149233 -116.36634
27647000000 -24.046539 -64.415588 -95.716507 -64.944862 -99.700981 160.09268 -0.029867163 -116.50728
27648000000 -24.026039 -63.671474 -81.727081 51.212334 -79.536743 105.34908 -0.033437517 -116.5743
27649000000 -23.945267 -63.513241 -75.240158 -115.96571 -68.358528 -66.667213 -0.027885785 -116.60091
27650000000 -23.845108 -63.133774 -75.208458 -114.74386 -72.715149 -25.045773 -0.028794345 -116.7114
27651000000 -23.792479 -62.719147 -82.708305 -156.57411 -76.698357 -54.354828 -0.032007176 -116.77335
27652000000 -23.714203 -63.034893 -80.450607 -140.57135 -81.108719 26.742647 -0.02451965 -116.79436
27653000000 -23.636362 -63.025551 -84.096497 -134.76523 -75.943497 -157.99159 -0.026186183 -116.84773
27654000000 -23.529091 -63.128044 -78.038803 152.75679 -76.943504 137.47435 -0.029681915 -116.97701
27655000000 -23.500528 -62.925297 -86.402008 110.36551 -82.293564 139.444 -0.029252991 -117.06445
27656000000 -23.355698 -62.908058 -73.041862 -97.005699 -77.134552 -42.394424 -0.030815639 -117.10391
27657000000 -23.269447 -63.023319 -76.908112 -6.7668095 -78.271088 -105.50922 -0.027424645 -117.15176
27658000000 -23.22134 -63.399612 -74.692368 178.49298 -78.499489 -145.13676 -0.030977268 -117.28891
27659000000 -23.12772 -63.425232 -73.106956 39.565384 -87.169563 -65.119308 -0.03012247 -117.31992
27660000000 -23.068813 -63.590317 -74.938347 -2.2800512 -87.174721 68.159767 -0.02728053 -117.40606
27661000000 -22.943602 -64.233131 -74.623444 -106.36718 -74.041901 30.537626 -0.024436992 -117.55894
27662000000 -22.870195 -64.393234 -72.708786 171.63269 -74.368202 -114.69148 -0.02930131 -117.53349
27663000000 -22.80776 -64.899696 -73.449921 -131.47743 -84.29348 -67.735619 -0.021128457 -117.62594
27664000000 -22.727221 -65.296043 -81.021912 -88.545166 -76.045204 134.70456 -0.028850157 -117.6757
27665000000 -22.674402 -65.396339 -80.260315 -55.172054 -78.787384 -1.4754879 -0.027052376 -117.74405
27666000000 -22.623877 -65.880714 -71.343819 3.3215787 -79.739891 173.40196 -0.026225874 -117.82024
27667000000 -22.515911 -66.398376 -80.714066 -17.056572 -87.197929 -168.45305 -0.02211106 -117.87863
27668000000 -22.481174 -66.663826 -75.718575 150.9227 -75.904602 -169.99393 -0.031569473 -117.98636
27669000000 -22.415218 -66.67112 -80.489098 173.17676 -71.98175 158.26918 -0.032320816 -118.06037
27670000000 -22.343552 -67.346619 -74.084579 23.455397 -84.319206 144.45325 -0.036853679 -118.13487
27671000000 -22.321482 -68.010185 -80.451233 12.296306 -76.642532 37.067825 -0.034257993 -118.17998
27672000000 -22.239273 -68.452644 -77.302345 118.97191 -80.249924 53.123234 -0.026304949 -118.21117
27673000000 -22.210657 -68.786926 -73.546364 110.60733 -85.674133 23.921257 -0.035990026 -118.28506
27674000000 -22.143229 -69.25354 -67.645073 -67.196167 -76.073448 -155.04666 -0.03470828 -118.36797
27675000000 -22.096815 -69.509598 -76.096146 43.347652 -78.378891 -157.49918 -0.034354858 -118.44109
27676000000 -22.05751 -70.091965 -79.878151 2.0402408 -72.878387 150.61635 -0.028351421 -118.4944
27677000000 -22.030649 -70.664139 -75.578957 68.903946 -73.748596 -77.255554 -0.033761092 -118.58411
27678000000 -21.931667 -71.272018 -74.058762 121.41493 -84.067924 35.505806 -0.038118377 -118.65105
27679000000 -21.915714 -71.478043 -76.900543 -177.34161 -75.990494 101.08815 -0.025867464 -118.73611
27680000000 -21.808685 -72.056801 -78.347168 35.131531 -73.202293 -84.093422 -0.027515791 -118.73246
27681000000 -21.790579 -72.488426 -73.626869 -151.63725 -74.172897 -169.51836 -0.035258863 -118.81959
27682000000 -21.792522 -73.072151 -74.296577 -33.928719 -80.866859 -127.94009 -0.024555311 -118.90002
27683000000 -21.695454 -73.78994 -79.170273 169.15727 -81.818336 -108.98046 -0.03305456 -118.92046
27684000000 -21.643015 -74.057655 -85.083046 131.66878 -77.993958 -47.457874 -0.033998132 -119.00591
27685000000 -21.594906 -74.710861 -73.755409 -126.74292 -71.406914 -18.747381 -0.031978756 -119.07573
27686000000 -21.541431 -75.26149 -83.373795 -148.11917 -81.938225 -170.21507 -0.039814565 -119.13338
27687000000 -21.462891 -75.929321 -73.30323 -28.913223 -75.88163 127.82758 -0.033381693 -119.13782
27688000000 -21.44305 -76.460587 -78.22374 -9.5875788 -80.769203 61.408352 -0.030716423 -119.22382
27689000000 -21.386934 -76.542274 -85.096252 138.16313 -84.235199 74.774155 -0.037316229 -119.26368
27690000000 -21.347206 -77.067986 -70.856979 86.616684 -80.624977 158.87924 -0.033001322 -119.31771
27691000000 -21.276558 -78.021935 -73.316582 -64.348511 -77.204155 116.6538 -0.032322578 -119.38063
27692000000 -21.279408 -78.714615 -83.763557 -117.46741 -81.316513 168.27823 -0.033243541 -119.44292
27693000000 -21.202539 -79.235153 -77.498734 70.629128 -82.076492 123.90192 -0.024423111 -119.51144
27694000000 -21.15004 -79.742256 -75.331322 -155.54005 -80.701096 115.75097 -0.025280939 -119.59361
27695000000 -21.069134 -80.455055 -75.625 152.17332 -81.667984 154.84026 -0.024499211 -119.65004
27696000000 -21.032551 -81.214088 -73.593773 90.164566 -76.024452 -128.35818 -0.026181675 -119.63889
