!Keysight Technologies,N5234A,MY55441357,A.10.47.05
!Date: Sunday, November 19, 2017 16:08:45
!Correction: S11(Full 2 Port(1,2)) 
!S21(Full 2 Port(1,2)) 
!S12(Full 2 Port(1,2)) 
!S22(Full 2 Port(1,2)) 
!S2P File: Measurements: S11, S21, S12, S22:
# Hz S  dB   R 50
27500000000 -22.666119 -83.187981 -78.348175 116.29424 -79.88446 21.698383 -0.088213719 -111.5075
27501000000 -22.954674 -82.480682 -76.145996 127.3604 -80.459091 -166.79013 -0.090240985 -111.5799
27502000000 -23.184837 -82.229393 -75.337952 133.32741 -76.525536 -27.211325 -0.082786545 -111.69186
27503000000 -23.424198 -81.288498 -80.032036 89.212914 -79.884697 -89.762306 -0.093054526 -111.74882
27504000000 -23.709797 -81.06337 -82.085632 33.827198 -85.323776 -159.79231 -0.090931632 -111.83081
27505000000 -23.890907 -80.458984 -81.301987 88.238754 -75.600845 56.276363 -0.090975195 -111.87123
27506000000 -24.191868 -78.923904 -81.34845 60.031265 -69.605919 -67.503212 -0.089706786 -111.93837
27507000000 -24.532393 -77.824486 -85.701958 122.73045 -72.093857 -105.32877 -0.099905118 -112.02033
27508000000 -24.77013 -76.864395 -76.306808 179.53564 -80.386307 -103.11633 -0.09453252 -112.1113
27509000000 -25.019255 -75.885796 -77.408829 -31.83877 -92.284439 90.173485 -0.089559115 -112.17782
27510000000 -25.281803 -74.429314 -76.449593 117.84397 -87.740456 -49.05484 -0.094438851 -112.22165
27511000000 -25.501888 -72.931854 -76.941925 154.81377 -73.670578 -11.043699 -0.088987231 -112.26525
27512000000 -25.795033 -71.444267 -90.005959 -93.965012 -83.884201 -137.58719 -0.096865356 -112.38241
27513000000 -25.967087 -69.624123 -74.718048 -159.42784 -78.990784 38.666195 -0.096094027 -112.47626
27514000000 -26.26067 -67.954918 -77.828003 143.1261 -79.445854 -102.62818 -0.095518529 -112.51144
27515000000 -26.531284 -66.331421 -74.187813 -10.706063 -80.805672 171.1398 -0.09503486 -112.60657
27516000000 -26.753538 -63.704151 -77.432159 118.75474 -72.725006 157.93044 -0.10154852 -112.68867
27517000000 -26.890526 -61.634567 -82.6017 -140.53424 -74.26236 -178.29358 -0.09302637 -112.7151
27518000000 -26.999088 -59.213234 -76.505447 -137.34364 -74.793228 -8.4517212 -0.10517269 -112.79641
27519000000 -27.225555 -56.099709 -80.621986 143.57822 -78.276917 -101.08839 -0.10118323 -112.83152
27520000000 -27.276922 -53.785744 -79.437866 -21.289846 -80.125549 175.00819 -0.10426908 -112.89921
27521000000 -27.422426 -50.958904 -82.424072 -112.29418 -73.088524 -142.01999 -0.099391118 -113.05296
27522000000 -27.507181 -48.131954 -77.240341 -85.70668 -81.139191 71.687027 -0.097800709 -113.14477
27523000000 -27.500607 -45.254005 -74.555214 -73.044716 -78.155846 23.265095 -0.10775326 -113.21205
27524000000 -27.47538 -42.876225 -77.002487 174.66287 -74.09346 -102.96664 -0.099795483 -113.27509
27525000000 -27.406719 -39.557434 -79.241089 8.9952068 -75.06974 -13.039066 -0.09563458 -113.33755
27526000000 -27.338202 -36.723858 -75.837189 42.615921 -78.500122 -18.245834 -0.10504852 -113.42785
27527000000 -27.119696 -34.281586 -76.893021 69.540703 -77.423401 6.9466367 -0.10216556 -113.53586
27528000000 -27.015238 -32.419125 -70.752235 48.480465 -79.216278 -44.32465 -0.10148512 -113.48947
27529000000 -26.870811 -30.008699 -80.50351 69.197243 -83.065269 177.80319 -0.10796487 -113.63757
27530000000 -26.681614 -27.688868 -83.551567 -152.79257 -85.153854 109.5717 -0.10077971 -113.74143
27531000000 -26.440023 -25.481899 -75.557213 -53.927544 -84.32225 -51.448986 -0.10076796 -113.79538
27532000000 -26.215893 -23.555382 -78.279099 -123.92325 -72.062943 162.24902 -0.099845894 -113.88126
27533000000 -25.964638 -21.829166 -87.968544 160.28308 -84.611221 -131.8215 -0.10299256 -113.95828
27534000000 -25.727276 -20.119551 -73.574608 77.305588 -82.399788 -24.641447 -0.10277326 -114.04807
27535000000 -25.459909 -18.725475 -75.992233 20.147844 -75.056465 -34.505623 -0.10491148 -114.12541
27536000000 -25.154333 -17.347036 -71.062691 -77.765457 -79.05864 -139.80562 -0.1028 -114.21954
27537000000 -24.923996 -16.016556 -82.192093 -132.79858 -74.090813 -170.84564 -0.10176612 -114.238
27538000000 -24.642538 -15.06002 -91.372963 -132.9196 -87.981819 175.6096 -0.1002432 -114.29932
27539000000 -24.352367 -13.876736 -77.831902 53.701008 -74.519447 -43.897331 -0.10787967 -114.4232
27540000000 -24.087627 -13.325434 -70.329597 -25.0263 -85.593506 -90.975174 -0.10389472 -114.52044
27541000000 -23.805355 -12.591382 -79.799545 -61.818699 -87.658333 175.59935 -0.10806315 -114.53724
27542000000 -23.498953 -11.729785 -78.895966 -168.81241 -86.176712 133.29932 -0.095791765 -114.63587
27543000000 -23.232456 -11.183083 -75.646881 -63.309456 -83.333054 137.63028 -0.10447764 -114.70523
27544000000 -22.966131 -10.437022 -78.050453 -140.5974 -85.003677 -165.49985 -0.099957734 -114.78383
27545000000 -22.701017 -10.50252 -76.376968 114.39526 -82.742744 -110.13541 -0.10621758 -114.84738
27546000000 -22.393312 -10.046 -80.611351 -125.17021 -79.828362 -33.271137 -0.10012072 -114.93939
27547000000 -22.201031 -10.045641 -92.117783 -112.02568 -73.160469 -42.238869 -0.095467612 -114.97569
27548000000 -21.977438 -9.8085356 -84.61982 162.22841 -76.002533 -179.53398 -0.09707129 -115.06798
27549000000 -21.719854 -9.6130428 -76.773422 -146.77667 -77.418877 165.81912 -0.10067207 -115.15303
27550000000 -21.512053 -9.4567881 -83.527122 -22.92322 -73.208145 97.946648 -0.094165191 -115.24742
27551000000 -21.292679 -9.4942398 -72.240562 -57.330265 -79.446594 -137.57327 -0.089820981 -115.29532
27552000000 -21.016737 -10.101681 -74.422966 43.835571 -71.933853 -2.2731915 -0.098717466 -115.33925
27553000000 -20.804018 -10.131572 -74.98391 -168.47911 -85.9795 13.994201 -0.095405668 -115.4248
27554000000 -20.550688 -10.237644 -76.293221 149.12265 -84.511299 128.2549 -0.090513788 -115.49602
27555000000 -20.381071 -10.678225 -75.900528 88.723267 -75.825165 -1.5250623 -0.093082719 -115.54401
27556000000 -20.176987 -10.900171 -78.27282 177.95039 -98.204025 69.335518 -0.091170438 -115.6211
27557000000 -19.990818 -11.217805 -74.151627 -142.58443 -87.947968 -5.8644233 -0.099638298 -115.71566
27558000000 -19.742632 -11.502353 -78.524139 -124.62085 -74.333488 131.17674 -0.093919396 -115.73537
27559000000 -19.566479 -12.179956 -71.207947 -135.29544 -78.436249 -151.14037 -0.095723949 -115.85135
27560000000 -19.432333 -12.628855 -69.985268 -44.812244 -72.614708 147.46593 -0.09385059 -115.92704
27561000000 -19.20208 -13.198316 -80.597687 -79.539986 -76.905487 157.97221 -0.09557157 -116.00423
27562000000 -19.080231 -13.966134 -77.218964 -14.929494 -74.849754 151.31496 -0.087928027 -116.00929
27563000000 -18.862677 -14.069657 -67.790733 -157.96365 -82.085815 97.476685 -0.085262969 -116.11618
27564000000 -18.722626 -14.778479 -73.699158 -114.14181 -74.745346 -121.78818 -0.089239717 -116.19135
27565000000 -18.507307 -15.542111 -78.24044 95.003647 -73.271149 -149.20332 -0.091820844 -116.2233
27566000000 -18.36228 -16.331631 -74.792702 98.610321 -71.50251 -130.36766 -0.091448218 -116.35591
27567000000 -18.241293 -17.238503 -70.981506 -122.8358 -75.529663 -145.72629 -0.080953516 -116.38522
27568000000 -18.068148 -18.028442 -79.642769 -53.672279 -79.307892 -32.725113 -0.083840437 -116.45668
27569000000 -17.942194 -18.592987 -75.999359 -14.811371 -76.306084 143.90128 -0.088668473 -116.53277
27570000000 -17.774792 -19.176971 -79.360336 -173.72215 -72.266708 134.56955 -0.091144435 -116.62548
27571000000 -17.672735 -20.152525 -76.534668 -134.78424 -86.446236 -176.14095 -0.084440857 -116.64111
27572000000 -17.530628 -21.145823 -79.551659 -97.179779 -73.814056 -114.69578 -0.086282156 -116.74332
27573000000 -17.385866 -22.115423 -79.933174 -87.453178 -76.310318 72.376701 -0.084422879 -116.85114
27574000000 -17.271973 -22.99744 -85.383156 -102.15707 -74.509476 105.83367 -0.098509781 -116.86612
27575000000 -17.152678 -23.951044 -72.26918 -18.952044 -72.964439 -47.69281 -0.08660695 -116.96266
27576000000 -17.036304 -25.030638 -76.814026 -130.4102 -80.410263 -16.122015 -0.080895156 -117.04331
27577000000 -16.919796 -25.991322 -76.090561 -118.65629 -92.40699 168.94171 -0.093758263 -117.11842
27578000000 -16.843719 -26.930803 -73.641556 166.07294 -77.455254 140.29646 -0.086601555 -117.22955
27579000000 -16.7663 -28.156023 -77.105659 59.772091 -73.761871 172.59599 -0.094571568 -117.28703
27580000000 -16.667755 -29.206968 -78.670502 71.657906 -75.596336 -146.81873 -0.092691518 -117.3575
27581000000 -16.563553 -30.416014 -73.148911 131.5522 -68.982224 -70.695137 -0.092384681 -117.40602
27582000000 -16.516092 -31.53524 -80.661575 153.3345 -73.015038 -54.210869 -0.092284322 -117.42971
27583000000 -16.46616 -32.935871 -76.718201 28.78179 -76.737328 143.39372 -0.090891361 -117.5572
27584000000 -16.404858 -33.985451 -78.496994 33.386456 -73.667458 -80.212845 -0.094016016 -117.62716
27585000000 -16.348236 -35.344776 -73.846512 -112.51318 -71.104881 -159.84343 -0.095433198 -117.67455
27586000000 -16.334805 -36.877056 -79.548004 121.25225 -76.655098 22.37755 -0.095435485 -117.74557
27587000000 -16.29681 -38.225979 -82.921631 173.5551 -73.788582 -62.707447 -0.089318171 -117.82042
27588000000 -16.286026 -39.649448 -90.036713 -96.880402 -79.455154 32.087444 -0.092671759 -117.91121
27589000000 -16.316809 -41.171978 -72.834351 19.775484 -75.605392 68.169518 -0.09117762 -117.97501
27590000000 -16.351549 -42.49913 -80.761971 45.160511 -77.957809 111.40325 -0.094443113 -118.06682
27591000000 -16.372078 -43.939228 -73.988419 -58.902992 -87.298317 -73.915604 -0.092464216 -118.11334
27592000000 -16.449289 -45.442268 -71.404724 -3.040081 -85.310959 -51.539303 -0.091994934 -118.17787
27593000000 -16.56901 -46.826931 -70.335388 -53.140514 -77.190697 2.1924386 -0.10156896 -118.2637
27594000000 -16.651274 -48.142174 -77.228004 69.442604 -78.00666 162.3376 -0.094314508 -118.34706
27595000000 -16.768755 -49.164307 -71.956123 62.592457 -86.446564 -144.04085 -0.096357383 -118.41474
27596000000 -16.887304 -50.325947 -75.354675 23.726263 -72.974037 -134.55638 -0.094456576 -118.452
27597000000 -17.071321 -51.336723 -83.844971 -65.184479 -72.17276 169.91374 -0.092979275 -118.52915
27598000000 -17.238495 -52.251503 -86.936501 -68.581039 -72.525032 168.25888 -0.10062823 -118.63526
27599000000 -17.389761 -52.786331 -82.906349 154.41844 -73.845795 -80.216225 -0.088658385 -118.70512
27600000000 -17.529934 -53.181004 -72.267937 -126.31726 -81.079704 119.36299 -0.091199458 -118.77926
27601000000 -17.696154 -53.361103 -74.980453 1.0591598 -72.524536 145.3266 -0.085561149 -118.88108
27602000000 -17.803602 -53.426003 -69.549248 87.795105 -76.597191 74.900162 -0.097544104 -118.91183
27603000000 -17.842367 -53.688053 -80.712692 -3.0314996 -80.181816 102.25382 -0.089353248 -118.98943
27604000000 -17.971064 -53.713062 -73.070358 140.41313 -88.816689 -175.10437 -0.085747615 -119.08437
27605000000 -18.003157 -53.999233 -85.94072 128.24127 -85.49852 -7.1190515 -0.09133479 -119.1572
27606000000 -18.07246 -54.103447 -76.835533 112.6691 -84.305382 151.69411 -0.10155636 -119.19847
27607000000 -18.137556 -54.452381 -72.698601 -104.29624 -79.492035 112.56874 -0.087497868 -119.33005
27608000000 -18.165956 -54.811485 -69.91008 161.76656 -72.523239 -90.155312 -0.099374533 -119.36034
27609000000 -18.190563 -55.321278 -86.249687 -60.061932 -74.806114 163.31111 -0.097713493 -119.43173
27610000000 -18.279585 -55.656975 -76.325249 -126.01156 -79.568588 -134.22659 -0.089129977 -119.50662
27611000000 -18.347574 -56.133347 -77.923325 -157.99135 -82.482689 -76.05497 -0.089845099 -119.60651
27612000000 -18.428305 -56.714134 -81.246994 -104.58769 -73.391495 31.917593 -0.092519529 -119.6537
27613000000 -18.504374 -57.335449 -78.856163 115.72569 -85.828026 -126.13913 -0.084484309 -119.71638
27614000000 -18.589355 -57.940891 -80.829399 -74.196632 -84.997108 -103.44727 -0.089983918 -119.82893
27615000000 -18.682835 -58.323627 -75.405434 -72.278008 -77.273445 -164.85057 -0.091838688 -119.91971
27616000000 -18.806536 -58.867619 -75.01075 -149.85342 -77.909195 -121.4864 -0.080811575 -120.01031
27617000000 -18.893185 -59.271366 -74.529442 44.695625 -85.768967 -88.831612 -0.090870239 -120.07596
27618000000 -19.01778 -59.652515 -84.720001 -169.07779 -71.072891 -36.541218 -0.091084331 -120.10551
27619000000 -19.16008 -60.179287 -73.46962 -164.47755 -69.093315 -13.033238 -0.088080935 -120.15338
27620000000 -19.292542 -60.286392 -77.812508 132.50128 -77.640663 79.835838 -0.086073346 -120.25948
27621000000 -19.418615 -60.414944 -77.941574 -5.8812733 -80.681282 77.200958 -0.097986177 -120.32171
27622000000 -19.573406 -60.360252 -75.315697 -28.142143 -79.549858 95.959175 -0.090376362 -120.43096
27623000000 -19.703623 -60.433453 -73.915741 -73.067436 -76.979767 16.174013 -0.092867278 -120.52362
27624000000 -19.868738 -60.439865 -79.275131 -37.563602 -85.87072 130.23456 -0.0880135 -120.56017
27625000000 -19.979763 -60.597233 -74.543518 -21.829107 -75.164421 -11.042883 -0.10050932 -120.60431
27626000000 -20.136908 -59.968643 -76.322754 -0.1316101 -86.273163 -24.693991 -0.10254671 -120.72549
27627000000 -20.261135 -60.01598 -86.504005 116.05875 -83.471428 135.70023 -0.087408938 -120.77892
27628000000 -20.361719 -59.58989 -71.70475 61.371181 -82.390137 -172.1347 -0.092038579 -120.84605
27629000000 -20.475576 -59.003006 -71.106216 155.85114 -86.812706 -62.183414 -0.092932701 -120.90346
27630000000 -20.592379 -58.903553 -76.607964 -46.354107 -80.468796 152.80963 -0.092005335 -120.98943
27631000000 -20.694445 -58.226681 -69.983902 -2.4970336 -73.284981 -144.97913 -0.091219619 -121.09456
27632000000 -20.761396 -57.697792 -76.356522 120.00473 -74.587486 -100.13744 -0.086780846 -121.12073
27633000000 -20.828615 -57.450191 -70.505714 -146.66177 -79.916306 -38.867374 -0.088079773 -121.18752
27634000000 -20.909374 -56.57896 -76.55983 162.09161 -74.148277 177.19853 -0.084769949 -121.27769
27635000000 -20.977753 -56.068913 -79.372612 -21.820168 -81.784462 -157.69626 -0.096412666 -121.41198
27636000000 -21.01149 -55.610374 -72.369568 -96.218758 -71.701607 133.15985 -0.098045669 -121.44437
27637000000 -20.994419 -55.038158 -76.843582 50.136341 -83.737717 21.827204 -0.10146604 -121.51031
27638000000 -20.985846 -54.471664 -73.039505 -156.95033 -75.763596 80.587616 -0.099126652 -121.54482
27639000000 -21.059153 -53.85672 -73.797783 -152.29036 -75.21077 164.08324 -0.09842851 -121.66177
27640000000 -21.049635 -53.653019 -79.520744 171.70853 -76.871498 -143.56017 -0.092793837 -121.72867
27641000000 -21.038069 -52.843803 -77.054726 -72.827309 -72.105103 -178.09125 -0.10151486 -121.82103
27642000000 -20.987154 -52.764977 -73.310051 -137.69832 -80.094574 -81.91938 -0.10617855 -121.86047
27643000000 -20.957266 -52.265598 -75.024673 150.01634 -81.965675 -92.562569 -0.099523276 -121.96232
27644000000 -20.959797 -52.033607 -73.476028 46.6189 -76.361176 -143.95322 -0.098736055 -122.04221
27645000000 -20.927385 -51.81572 -74.852501 102.42689 -77.240959 -45.598133 -0.093239844 -122.1127
27646000000 -20.855074 -51.582325 -77.23278 132.1525 -74.268738 3.8856602 -0.09109702 -122.14892
27647000000 -20.8246 -51.409115 -71.810684 137.21399 -81.848984 -77.708679 -0.094340697 -122.2887
27648000000 -20.810707 -51.101685 -76.56221 -124.03365 -80.655128 152.4126 -0.10083078 -122.40587
27649000000 -20.756081 -50.99802 -76.840668 -149.87059 -72.675446 -58.293007 -0.096128963 -122.46441
27650000000 -20.692776 -50.807144 -81.107262 -121.63371 -77.266472 9.7130556 -0.094384789 -122.58519
27651000000 -20.64607 -50.895668 -72.952545 92.513641 -76.531013 -90.907166 -0.10366762 -122.66264
27652000000 -20.6248 -51.177345 -77.846443 -161.62959 -75.759911 -77.645332 -0.098484196 -122.6936
27653000000 -20.580315 -51.156437 -78.248489 179.79117 -72.788185 177.62811 -0.098677136 -122.76125
27654000000 -20.508621 -51.243778 -73.25898 82.324203 -74.847298 78.191826 -0.10016899 -122.85381
27655000000 -20.511398 -51.293667 -80.136017 154.84317 -71.475357 49.052689 -0.10165474 -122.94681
27656000000 -20.428038 -51.690002 -80.330421 -150.03157 -76.392853 41.445255 -0.10034942 -123.00888
27657000000 -20.400801 -51.839134 -76.246964 31.926535 -71.242882 -96.196434 -0.095460229 -123.09193
27658000000 -20.385242 -51.937943 -81.828255 -121.54584 -80.471008 31.642122 -0.10451494 -123.22097
27659000000 -20.324213 -52.40303 -77.762848 75.384583 -78.431267 179.44241 -0.10807388 -123.23298
27660000000 -20.284393 -52.574017 -73.587204 102.34047 -82.317764 158.93233 -0.10782248 -123.29794
27661000000 -20.267065 -52.957527 -107.06426 59.800056 -84.829987 -86.163246 -0.098924145 -123.44754
27662000000 -20.232353 -53.287106 -81.578064 170.01999 -77.539398 24.74362 -0.1036474 -123.42165
27663000000 -20.233253 -53.679008 -82.966934 -94.153732 -84.138741 65.472198 -0.10074334 -123.55622
27664000000 -20.185705 -54.023895 -90.763641 -15.685632 -74.604141 -117.98753 -0.10819449 -123.60989
27665000000 -20.170347 -54.265759 -78.275337 -0.44077829 -71.905594 1.4990113 -0.1094285 -123.70671
27666000000 -20.170221 -54.493912 -72.890709 111.05888 -79.423668 1.7099847 -0.1023956 -123.79333
27667000000 -20.117794 -54.969498 -75.464813 126.54725 -90.884216 -39.643257 -0.10007346 -123.80849
27668000000 -20.099447 -55.349468 -74.86821 173.56168 -80.337845 14.061359 -0.10247814 -123.92813
27669000000 -20.082701 -55.361046 -74.276367 30.568243 -77.465134 147.855 -0.10804453 -124.02601
27670000000 -20.079926 -56.066895 -81.287361 49.106403 -75.142418 -71.388702 -0.1105094 -124.08089
27671000000 -20.086039 -56.330624 -82.33194 59.275997 -94.200684 -143.1277 -0.1020717 -124.12398
27672000000 -20.053654 -56.792721 -74.990448 0.30645669 -93.705566 -48.56493 -0.10587355 -124.17442
27673000000 -20.088322 -57.250904 -71.682648 2.5028512 -83.662949 -23.80549 -0.10663824 -124.26665
27674000000 -20.051649 -57.458412 -90.926399 27.665174 -75.752785 128.01045 -0.10545532 -124.37721
27675000000 -20.023956 -57.966251 -74.698166 58.784344 -88.529785 -119.62503 -0.1053648 -124.44711
27676000000 -20.06238 -58.362854 -77.193878 119.33048 -85.624786 97.237022 -0.10313752 -124.51939
27677000000 -20.05447 -58.814331 -84.92984 168.83525 -87.385307 68.765511 -0.10712137 -124.56485
27678000000 -20.018381 -59.280087 -79.412598 58.863445 -77.953896 -109.39912 -0.10905685 -124.67842
27679000000 -20.016346 -59.623283 -81.099472 -13.166707 -77.667885 34.737488 -0.095725112 -124.70247
27680000000 -19.97397 -60.035698 -84.929352 29.695095 -76.700012 -136.34521 -0.097377077 -124.7094
27681000000 -19.976671 -60.446636 -76.89373 106.81234 -73.728844 -19.363554 -0.099582382 -124.80425
27682000000 -20.009752 -60.988045 -75.564789 64.171638 -72.055305 -15.41369 -0.093647897 -124.93476
27683000000 -20.00036 -61.500088 -83.351822 -111.31756 -82.731056 5.0468922 -0.09261623 -124.97002
27684000000 -20.000372 -61.844296 -71.479073 16.068748 -77.791092 140.82491 -0.096659407 -125.0891
27685000000 -19.985285 -62.274059 -74.442009 27.211466 -72.295105 23.782881 -0.094766051 -125.16982
27686000000 -19.975206 -62.655766 -77.895721 169.1041 -75.990799 128.67433 -0.098035008 -125.22926
27687000000 -19.987778 -63.389019 -83.557861 17.804461 -83.320381 157.24516 -0.098009259 -125.23965
27688000000 -20.005016 -63.951519 -74.061859 -155.07646 -77.762337 -136.11679 -0.093603857 -125.34855
27689000000 -19.970745 -64.297089 -82.428726 -65.934334 -82.125282 139.9583 -0.10125836 -125.43666
27690000000 -19.98155 -64.766304 -76.909912 35.697281 -73.723625 74.493362 -0.09221378 -125.50031
27691000000 -19.959864 -65.299637 -72.662926 -4.565444 -72.240601 106.41994 -0.093528688 -125.54232
27692000000 -19.973015 -65.954605 -76.314369 157.89311 -74.241646 136.51665 -0.096201137 -125.64208
27693000000 -19.965414 -66.545494 -76.489769 -101.92402 -83.579056 -100.14556 -0.094631217 -125.7366
27694000000 -19.989817 -67.087646 -76.862862 -55.203003 -78.156136 -34.725441 -0.09141314 -125.81458
27695000000 -19.958775 -67.80909 -76.942749 22.495579 -87.883186 142.40825 -0.096421473 -125.87416
27696000000 -19.999298 -68.430962 -74.77668 104.94925 -70.064766 -36.048767 -0.10014822 -125.9122
