!Keysight Technologies,N5234A,MY55441357,A.10.47.05
!Date: Sunday, November 19, 2017 16:09:41
!Correction: S11(Full 2 Port(1,2)) 
!S21(Full 2 Port(1,2)) 
!S12(Full 2 Port(1,2)) 
!S22(Full 2 Port(1,2)) 
!S2P File: Measurements: S11, S21, S12, S22:
# Hz S  dB   R 50
27500000000 -25.094629 -87.734268 -63.911152 -143.67519 -73.83593 15.489635 0.066026941 -137.58836
27501000000 -25.439354 -87.641922 -61.089375 -157.02107 -81.643486 55.679516 0.061905086 -137.64735
27502000000 -25.787918 -88.419365 -63.147774 -128.76582 -78.374023 -80.921333 0.064154401 -137.84264
27503000000 -26.175215 -87.996979 -65.733269 -151.82996 -81.254959 36.185818 0.057860892 -137.98827
27504000000 -26.514126 -88.285828 -63.986797 -146.17505 -75.822823 -154.82106 0.060616855 -138.10912
27505000000 -26.868641 -88.33168 -63.357944 -135.36705 -88.714859 -71.424461 0.061864153 -138.20628
27506000000 -27.354538 -87.630241 -62.222328 -156.40425 -76.964012 -36.592823 0.056524217 -138.3591
27507000000 -27.824684 -87.547432 -64.822411 -161.25822 -80.278214 -0.60802007 0.060084119 -138.51273
27508000000 -28.226408 -87.393608 -61.008984 -136.77058 -77.756424 -145.54013 0.05795658 -138.61739
27509000000 -28.74678 -87.895218 -61.593712 -151.79039 -71.278709 -23.361328 0.066861875 -138.78278
27510000000 -29.152773 -86.676491 -62.232334 -144.3307 -70.736794 0.85748333 0.061959397 -138.85454
27511000000 -29.67141 -85.794952 -63.393517 -145.94984 -75.784027 -3.9676723 0.064526372 -138.95319
27512000000 -30.234871 -85.717628 -65.342072 -154.44382 -76.638725 -53.535324 0.059844289 -139.10144
27513000000 -30.893278 -84.041481 -63.617222 -159.43002 -73.045448 -51.636211 0.054551352 -139.28603
27514000000 -31.487932 -83.38591 -63.613392 -146.05479 -71.025543 -27.174711 0.05613067 -139.40189
27515000000 -32.10408 -82.13504 -61.111622 -146.87732 -70.634018 -48.410267 0.061385494 -139.5386
27516000000 -32.879272 -79.869881 -60.299015 -157.58508 -86.096062 -37.52565 0.060292695 -139.72476
27517000000 -33.535858 -76.48423 -63.916969 -146.95102 -79.776047 20.077677 0.061934896 -139.79449
27518000000 -34.195896 -74.395088 -61.707478 -158.78622 -83.967514 19.326241 0.057234608 -139.95311
27519000000 -34.932072 -69.010376 -61.114555 -158.69507 -74.625595 -44.566074 0.052804828 -140.05994
27520000000 -35.667339 -65.288185 -62.13282 -155.74823 -78.682365 -117.81297 0.051175438 -140.16724
27521000000 -36.50568 -59.672489 -64.380806 -151.38222 -87.922371 138.67386 0.053457219 -140.38254
27522000000 -37.407722 -52.203762 -62.19313 -168.54927 -79.735588 83.447594 0.057242692 -140.51903
27523000000 -37.459358 -43.140266 -62.288094 -169.09142 -74.689079 -95.935783 0.052776419 -140.64928
27524000000 -37.763763 -34.843239 -60.21859 -164.0154 -73.318779 -57.799137 0.05777457 -140.79144
27525000000 -37.773933 -24.965227 -62.166798 -162.21362 -70.439476 -112.10417 0.061678465 -140.90199
27526000000 -37.37743 -17.420855 -60.910793 -157.00972 -75.971634 -54.818195 0.055466436 -141.06554
27527000000 -36.750546 -10.055967 -59.860512 -177.40395 -81.495956 -22.234385 0.051564395 -141.20912
27528000000 -36.338062 -5.2391729 -60.421013 -168.83908 -89.062279 -26.108898 0.050518766 -141.26573
27529000000 -35.475174 1.7320458 -60.403233 -175.26198 -80.273209 -60.248348 0.053610291 -141.4476
27530000000 -34.789829 6.2417641 -61.376564 -173.18469 -73.051308 -82.05014 0.059452064 -141.61092
27531000000 -33.944492 9.41152 -60.63361 -166.78339 -75.057953 -147.31682 0.051945411 -141.69122
27532000000 -33.321739 11.964579 -58.768555 -156.27887 -83.158554 -19.354603 0.058749136 -141.85645
27533000000 -32.720135 15.205693 -58.688168 -162.51331 -69.285652 -22.74404 0.050122067 -142.01729
27534000000 -32.070568 16.59919 -59.870419 -170.64278 -70.018494 6.0846324 0.054341242 -142.14111
27535000000 -31.368101 18.442074 -60.508011 -171.78458 -76.092033 -48.731636 0.053948909 -142.31625
27536000000 -30.692781 19.07691 -61.93697 -171.21121 -73.588737 -33.044022 0.054662198 -142.4408
27537000000 -30.106215 20.604612 -60.903896 -168.99681 -69.24041 -10.771562 0.05058099 -142.52245
27538000000 -29.5819 20.95789 -60.352028 -164.02873 -70.086372 -42.807076 0.062203359 -142.65137
27539000000 -29.042013 22.021891 -61.306866 -175.54111 -68.107315 -44.060707 0.046826601 -142.82735
27540000000 -28.53702 21.835251 -60.598396 -171.71254 -74.774284 -126.59555 0.047233786 -142.97824
27541000000 -28.119951 21.972998 -60.565273 -172.11609 -77.031982 -99.183182 0.047539297 -143.09955
27542000000 -27.581291 22.068781 -60.286545 -174.31085 -71.670723 -55.375538 0.054630857 -143.24591
27543000000 -27.157948 21.918026 -59.615505 169.15982 -79.435333 -124.11025 0.05394841 -143.36148
27544000000 -26.694843 22.149202 -58.407574 -172.89598 -68.581375 -38.05196 0.05342913 -143.46082
27545000000 -26.322702 21.540632 -58.624752 -172.01021 -73.367142 -36.83828 0.050486598 -143.61659
27546000000 -25.86763 21.089668 -59.376312 -170.55777 -74.336449 -72.774452 0.051117606 -143.80806
27547000000 -25.595364 20.400351 -62.676918 -179.42673 -71.644226 -47.729828 0.063259974 -143.92787
27548000000 -25.195375 20.34219 -59.157753 176.97845 -69.841255 -43.83704 0.064826205 -144.09547
27549000000 -24.878092 19.812113 -58.523117 -176.56126 -76.28791 -72.392982 0.060585421 -144.24663
27550000000 -24.602892 19.393469 -58.788284 -174.6236 -68.922203 -81.918098 0.061431743 -144.37994
27551000000 -24.295444 18.970243 -57.365173 172.19984 -74.474197 -76.237762 0.065193065 -144.49449
27552000000 -23.961533 17.652618 -58.418968 179.35919 -77.660255 12.161845 0.057561412 -144.62149
27553000000 -23.645649 17.120541 -59.224804 166.3994 -68.009453 -50.402534 0.05658308 -144.79453
27554000000 -23.351551 16.304333 -58.54932 173.22234 -74.680969 -78.022049 0.054542299 -144.9482
27555000000 -23.108337 15.541308 -58.681232 177.41545 -76.430031 -33.398277 0.059621964 -145.06177
27556000000 -22.855129 14.564805 -58.437119 164.88338 -81.109596 -128.79381 0.06267295 -145.20317
27557000000 -22.580627 13.987581 -58.651714 174.20604 -76.815506 -91.708618 0.062428776 -145.35043
27558000000 -22.27319 13.088932 -59.664978 174.39713 -82.234459 -54.828815 0.059198 -145.46489
27559000000 -22.075459 12.027117 -58.042385 179.85033 -77.405838 -96.416824 0.058510847 -145.69609
27560000000 -21.881227 11.191244 -57.536503 162.94843 -73.344681 -34.253803 0.0535728 -145.83644
27561000000 -21.624907 10.538206 -58.471474 166.00813 -78.618309 -46.641403 0.062903635 -145.99986
27562000000 -21.48336 9.3050508 -57.802853 166.1422 -71.012619 -89.890778 0.061896358 -146.08809
27563000000 -21.179991 8.6253595 -58.650551 164.45412 -71.558456 -61.583973 0.068476833 -146.27203
27564000000 -21.034161 7.2155161 -58.037704 169.17361 -69.528915 -68.27829 0.05833181 -146.42307
27565000000 -20.772348 6.2366037 -57.949146 174.88155 -69.66404 -58.959709 0.058211278 -146.53448
27566000000 -20.575773 5.0382471 -57.763439 161.79814 -77.676422 -99.814415 0.061758243 -146.70578
27567000000 -20.454315 3.8015831 -57.953163 161.5117 -72.893173 -58.44524 0.065261766 -146.85001
27568000000 -20.276468 2.6621513 -59.436974 153.66338 -69.429596 -60.457188 0.06805966 -146.99471
27569000000 -20.087706 1.5659065 -58.431454 158.23576 -70.393364 -41.440971 0.058097407 -147.1396
27570000000 -19.860298 0.49530527 -57.566868 166.17856 -69.770882 -102.18075 0.05835608 -147.33719
27571000000 -19.732449 -0.90746772 -56.86425 158.38748 -71.802727 -102.60187 0.06676688 -147.43753
27572000000 -19.578508 -2.203388 -57.669258 169.06206 -71.084366 -62.875259 0.068167366 -147.62659
27573000000 -19.43424 -3.4344187 -57.398743 165.20512 -70.176407 -34.459244 0.060888451 -147.77789
27574000000 -19.253019 -4.6042056 -57.851681 165.54614 -72.31852 -22.917299 0.057134934 -147.94344
27575000000 -19.122795 -6.0499997 -57.084618 151.98322 -74.569237 -50.254921 0.057027858 -148.10498
27576000000 -18.965908 -7.4922457 -57.210289 153.45905 -71.01606 -32.818047 0.057821486 -148.2493
27577000000 -18.846184 -8.8299561 -57.165642 149.83942 -75.983055 -56.526897 0.055398528 -148.39313
27578000000 -18.709927 -10.136589 -56.069817 157.06863 -72.91996 -76.430115 0.067500055 -148.58583
27579000000 -18.625957 -11.740361 -57.667507 158.30347 -73.340889 -60.262901 0.054314326 -148.74388
27580000000 -18.520309 -13.166477 -57.171692 165.57263 -74.909157 -37.941444 0.05923539 -148.91519
27581000000 -18.388683 -14.676694 -57.40686 151.80266 -68.793594 -104.34624 0.060346469 -149.02448
27582000000 -18.309845 -16.266481 -57.346607 150.85643 -68.229553 -91.305305 0.052064728 -149.15524
27583000000 -18.243372 -17.793819 -55.979836 152.34914 -74.389824 -148.21129 0.058727216 -149.37321
27584000000 -18.143524 -19.404678 -56.726631 145.59441 -74.682854 -65.07357 0.061643098 -149.51355
27585000000 -18.072462 -21.322601 -56.324268 164.42873 -71.17598 -30.366274 0.057596013 -149.64668
27586000000 -18.03574 -23.20517 -55.313183 157.0096 -70.006935 -91.291405 0.059013974 -149.82968
27587000000 -18.000961 -24.904823 -54.482845 157.13698 -70.809212 -77.086693 0.058524583 -149.98653
27588000000 -17.973059 -26.678017 -55.164063 144.65376 -65.670578 -67.346016 0.053082757 -150.14874
27589000000 -18.015408 -28.673548 -55.489162 143.17867 -71.599266 -82.550674 0.05890869 -150.31503
27590000000 -18.030745 -30.325375 -55.328377 151.60399 -77.703896 -97.14959 0.053394016 -150.48386
27591000000 -18.047007 -32.200901 -55.252907 141.32076 -70.280258 -105.99397 0.057880834 -150.61787
27592000000 -18.120747 -34.116493 -56.50761 144.11516 -67.809425 -88.182327 0.059163369 -150.80049
27593000000 -18.216253 -35.938725 -55.208176 146.52341 -71.277817 -99.24308 0.051217359 -150.92645
27594000000 -18.317802 -37.589767 -56.909439 142.03146 -73.790329 -88.806168 0.052364022 -151.12146
27595000000 -18.429916 -39.116703 -55.395992 143.39633 -78.59584 -66.952492 0.058298483 -151.28096
27596000000 -18.543627 -40.703236 -55.582714 143.66068 -69.48674 -36.743099 0.056527056 -151.39949
27597000000 -18.730406 -42.045753 -54.565872 139.83771 -71.527649 -117.60254 0.057682447 -151.57922
27598000000 -18.93187 -43.264206 -54.887363 145.8125 -70.639603 -73.238609 0.051565841 -151.7576
27599000000 -19.108164 -44.145187 -55.438839 145.63225 -69.278374 -128.77582 0.054915536 -151.96535
27600000000 -19.276297 -44.710896 -54.250454 143.1619 -69.909775 -115.8849 0.052925508 -152.10402
27601000000 -19.469313 -45.117496 -55.851269 134.30196 -79.122437 -119.32701 0.057533726 -152.30635
27602000000 -19.56777 -45.377163 -55.439533 148.81494 -69.191238 -114.48028 0.046046037 -152.43324
27603000000 -19.646107 -45.887726 -54.957302 147.29442 -67.603432 -99.668198 0.050743971 -152.59003
27604000000 -19.746431 -45.90237 -54.851795 137.47673 -69.231987 -92.207062 0.055874255 -152.78822
27605000000 -19.796021 -46.425583 -54.783115 128.38646 -69.210701 -74.013908 0.054475442 -153.02237
27606000000 -19.858812 -46.671219 -53.545128 138.63228 -68.52459 -70.110298 0.042839076 -153.11263
27607000000 -19.898859 -47.276024 -54.628975 137.09818 -69.788361 -45.078102 0.054072425 -153.30972
27608000000 -19.953825 -47.819927 -53.918579 139.0309 -75.522919 -78.744026 0.049039442 -153.45335
27609000000 -19.960157 -48.708076 -54.10865 128.1244 -70.379463 -104.61098 0.041863624 -153.62799
27610000000 -20.041452 -49.472534 -54.383644 132.24289 -72.129295 -79.937111 0.053768508 -153.80348
27611000000 -20.129129 -50.061401 -54.171257 125.70996 -68.609222 -103.54465 0.044439312 -153.99873
27612000000 -20.185692 -50.855343 -54.692768 131.13669 -70.03022 -91.675301 0.048146196 -154.1875
27613000000 -20.217846 -51.948307 -53.429451 136.5529 -65.703621 -94.432442 0.052870043 -154.3322
27614000000 -20.319073 -52.815235 -53.061466 137.63582 -68.305275 -66.898125 0.051681835 -154.53911
27615000000 -20.398241 -53.260803 -53.608463 130.26411 -69.178612 -92.648735 0.043002874 -154.72662
27616000000 -20.556612 -54.325596 -53.468697 125.09644 -66.709198 -99.418205 0.054770689 -154.91309
27617000000 -20.664762 -55.014751 -53.560352 128.59088 -67.233887 -87.489655 0.049428135 -155.07599
27618000000 -20.769089 -55.698067 -53.769299 125.71819 -65.897163 -112.97334 0.053597961 -155.22226
27619000000 -20.924784 -56.35582 -54.395267 130.79076 -67.844055 -108.85086 0.05301879 -155.40094
27620000000 -21.080549 -56.785919 -53.433689 124.44987 -68.644341 -84.424179 0.050107185 -155.59956
27621000000 -21.200703 -57.223091 -53.461433 125.93358 -65.957024 -67.025063 0.045450252 -155.76924
27622000000 -21.390841 -57.677971 -53.585388 125.52358 -67.307823 -102.63311 0.042531878 -156.00938
27623000000 -21.537333 -58.094154 -53.908665 124.70999 -67.192101 -111.57597 0.044487756 -156.19514
27624000000 -21.744253 -58.211613 -53.293709 121.40885 -72.359756 -90.499123 0.044872977 -156.37337
27625000000 -21.849558 -58.656437 -52.41774 122.82054 -66.982216 -81.162964 0.035955258 -156.52658
27626000000 -22.058212 -58.278099 -52.66687 115.96706 -66.807014 -92.850517 0.037196692 -156.74213
27627000000 -22.221691 -58.65826 -53.187332 117.36545 -68.181755 -98.025192 0.048562542 -156.92868
27628000000 -22.394131 -58.169102 -52.439213 119.23815 -68.906593 -102.78682 0.046378911 -157.08167
27629000000 -22.532551 -57.959133 -52.292732 115.29819 -67.096313 -98.409096 0.044707287 -157.26285
27630000000 -22.662807 -58.092857 -52.662708 116.59591 -67.148422 -96.010826 0.036965635 -157.46213
27631000000 -22.860571 -57.444473 -52.413136 112.64066 -66.293266 -99.872993 0.042502429 -157.70821
27632000000 -22.940475 -56.887177 -52.185371 117.50471 -65.924431 -96.229668 0.042719923 -157.85255
27633000000 -23.01725 -56.833813 -52.715919 113.71066 -68.206146 -99.581291 0.037010875 -158.03043
27634000000 -23.141649 -56.234177 -51.823025 116.76733 -66.340958 -111.22648 0.039044429 -158.19759
27635000000 -23.213379 -55.262962 -51.714146 107.29319 -65.437859 -101.22839 0.034561202 -158.4463
27636000000 -23.277571 -54.9986 -52.025974 112.80266 -65.52359 -106.44747 0.032939289 -158.5903
27637000000 -23.328045 -54.253635 -51.455486 108.62498 -66.890648 -109.39649 0.034857366 -158.79575
27638000000 -23.307499 -53.838326 -51.000946 108.71603 -66.207298 -110.44075 0.037858982 -158.92615
27639000000 -23.400999 -53.032619 -51.341461 113.8984 -67.177795 -87.927063 0.034845021 -159.15604
27640000000 -23.430243 -52.502888 -51.110016 110.9264 -65.022797 -113.11012 0.045001447 -159.37645
27641000000 -23.427145 -51.788807 -51.033314 105.38976 -67.211044 -90.222565 0.037279852 -159.56519
27642000000 -23.371698 -51.246403 -50.790302 109.13105 -68.798149 -102.2665 0.028987549 -159.73625
27643000000 -23.373804 -50.774422 -51.824631 102.92928 -65.978508 -87.31105 0.03639406 -159.93474
27644000000 -23.364994 -50.511448 -50.863693 107.45309 -66.831017 -95.36734 0.034431059 -160.11844
27645000000 -23.350847 -50.409077 -51.080936 108.99767 -65.680939 -92.129677 0.045196243 -160.32289
27646000000 -23.211372 -49.658958 -50.439671 103.5311 -65.588799 -113.34257 0.036702462 -160.52194
27647000000 -23.200184 -49.720322 -50.042522 107.90723 -65.174133 -128.3913 0.034455307 -160.74429
27648000000 -23.15023 -49.150093 -49.829258 102.61362 -65.366913 -106.58648 0.033633683 -160.99152
27649000000 -23.103256 -48.744183 -50.299576 101.97536 -67.003288 -76.461365 0.029903416 -161.14021
27650000000 -22.992645 -48.914413 -50.036507 100.31493 -67.887367 -105.51764 0.033716299 -161.37473
27651000000 -22.949739 -48.851353 -49.410362 99.871727 -68.659126 -117.57071 0.031335182 -161.55574
27652000000 -22.896433 -49.046246 -49.706703 100.9297 -67.119537 -100.22246 0.026594605 -161.69839
27653000000 -22.838419 -49.023735 -50.05027 98.129646 -65.516449 -96.32251 0.036636598 -161.94868
27654000000 -22.765697 -49.16185 -49.528248 96.879272 -63.327854 -85.533768 0.036106162 -162.1674
27655000000 -22.716776 -49.255043 -49.166077 100.60971 -65.237381 -96.678749 0.025425129 -162.34093
27656000000 -22.621763 -49.609795 -49.769207 95.368744 -65.613937 -123.92582 0.02817167 -162.5331
27657000000 -22.54731 -49.796139 -49.359467 97.345139 -64.088303 -126.16764 0.024889413 -162.73708
27658000000 -22.526447 -50.000633 -48.987198 94.809898 -62.463272 -102.15412 0.022202518 -163.00667
27659000000 -22.424164 -50.243687 -49.326141 95.351974 -64.303291 -108.50214 0.026631922 -163.17476
27660000000 -22.38632 -50.521893 -49.108559 91.936943 -65.997559 -108.69574 0.027499603 -163.36787
27661000000 -22.325603 -51.130104 -49.114841 92.308334 -63.371361 -110.68784 0.028743258 -163.64713
27662000000 -22.254387 -51.408875 -49.241199 90.834969 -62.536583 -111.88193 0.016481319 -163.76561
27663000000 -22.207001 -51.99411 -48.917366 91.49192 -64.109924 -107.11371 0.022231976 -164.02719
27664000000 -22.163847 -52.254833 -49.178566 93.019272 -65.966431 -131.94205 0.018836929 -164.21104
27665000000 -22.096554 -52.592899 -48.793663 88.91008 -63.341377 -127.25328 0.012487466 -164.45609
27666000000 -22.079521 -53.074276 -48.310204 88.138443 -65.537369 -123.73352 0.019245703 -164.65582
27667000000 -22.005785 -53.821938 -48.083637 88.869537 -65.595016 -134.87985 0.025714366 -164.82126
27668000000 -21.964241 -53.9436 -47.772655 87.028679 -66.338921 -106.29803 0.018210031 -165.08618
27669000000 -21.910667 -54.036709 -47.740707 85.356224 -64.365372 -121.81763 0.017424367 -165.28705
27670000000 -21.888199 -55.024368 -47.659817 84.57354 -65.790749 -128.51382 0.017010672 -165.50995
27671000000 -21.875233 -55.527107 -47.894241 85.528107 -63.353523 -144.40018 0.016218225 -165.72151
27672000000 -21.822712 -55.867321 -47.816044 84.314644 -64.839058 -129.26006 0.012407072 -165.93593
27673000000 -21.842049 -56.406662 -47.374889 78.674988 -61.40139 -132.61349 0.009668895 -166.17189
27674000000 -21.74192 -56.837772 -47.602108 80.022644 -61.470619 -121.49213 0.010623695 -166.42889
27675000000 -21.714054 -57.336288 -47.770119 81.482605 -63.311424 -135.12303 0.014162047 -166.64395
27676000000 -21.722591 -57.796154 -47.416767 80.061142 -61.401691 -131.31552 0.0142452 -166.86443
27677000000 -21.685291 -58.459461 -46.536812 78.535484 -63.323128 -128.61618 0.002065046 -167.10677
27678000000 -21.606819 -59.207455 -46.511642 77.655403 -63.17712 -131.02017 0.0078267856 -167.35983
27679000000 -21.581814 -59.525692 -46.443897 76.948082 -62.860855 -127.01254 0.006476196 -167.54584
27680000000 -21.501785 -60.124973 -46.686722 76.449623 -61.710224 -118.59271 0.0080077723 -167.72856
27681000000 -21.506886 -60.491119 -45.902645 75.673302 -60.925289 -126.67217 0.007312553 -168.00581
27682000000 -21.490219 -61.09655 -46.508141 74.247108 -60.596573 -129.15211 0.012232152 -168.27829
27683000000 -21.439951 -61.691643 -46.267265 73.633194 -61.819851 -110.66423 0.0096907727 -168.48863
27684000000 -21.409542 -62.161983 -46.028282 72.653625 -62.270668 -131.627 0.0016715003 -168.70311
27685000000 -21.359518 -62.56411 -45.940277 72.291306 -63.040752 -135.1308 0.0054874853 -168.92833
27686000000 -21.330328 -63.219597 -46.150784 71.848206 -61.271606 -129.34302 -0.0035460016 -169.17319
27687000000 -21.291254 -64.101112 -45.665806 70.740509 -60.548996 -132.77788 0.00045513085 -169.38164
27688000000 -21.253874 -64.767151 -45.883556 71.556458 -61.325665 -126.52849 -0.00065000122 -169.65178
27689000000 -21.236921 -64.971031 -45.652969 70.552376 -59.620491 -147.16835 -0.0035977035 -169.88435
27690000000 -21.18187 -65.664207 -45.147495 72.131638 -59.73259 -123.58356 0.0044355374 -170.13707
27691000000 -21.120123 -66.446381 -45.165119 69.069801 -59.527119 -145.28566 -0.0018237212 -170.39381
27692000000 -21.131319 -67.035309 -45.256084 67.489769 -60.414177 -153.10269 -0.000487146 -170.63802
27693000000 -21.048664 -67.709 -45.433842 67.478615 -62.565723 -138.28992 0.001894125 -170.87764
27694000000 -21.033869 -68.43248 -45.047314 64.804489 -62.264473 -137.65292 0.0013981191 -171.15532
27695000000 -20.972292 -69.191818 -44.811108 64.213585 -60.915577 -140.73358 -0.0011012249 -171.40692
27696000000 -20.959713 -69.90934 -44.747231 63.581665 -60.430908 -147.69617 -0.0043507512 -171.61011
27697000000 -20.909588 -70.658257 -44.515308 61.620293 -60.787498 -150.42351 -0.0014804625 -171.87309
