!Keysight Technologies,N5234A,MY55441357,A.10.47.05
!Date: Sunday, November 19, 2017 16:06:01
!Correction: S11(Full 2 Port(1,2)) 
!S21(Full 2 Port(1,2)) 
!S12(Full 2 Port(1,2)) 
!S22(Full 2 Port(1,2)) 
!S2P File: Measurements: S11, S21, S12, S22:
# Hz S  dB   R 50
27500000000 -22.286497 -95.652374 -71.729492 15.106519 -77.585243 -30.053745 0.028505616 -118.73865
27501000000 -22.539711 -96.326187 -74.836258 77.543381 -71.210381 -146.05389 0.028954444 -118.78327
27502000000 -22.783184 -97.239891 -74.920425 114.92045 -85.528152 148.86258 0.035559509 -118.94581
27503000000 -23.084206 -97.499268 -74.526619 63.069134 -85.214104 -89.083168 0.023368757 -119.00132
27504000000 -23.319893 -98.253365 -87.757217 119.16058 -85.722404 85.548439 0.028846262 -119.10922
27505000000 -23.546038 -99.039864 -77.273849 37.564873 -74.484337 -168.76958 0.024048842 -119.1692
27506000000 -23.859636 -99.351242 -74.04734 132.64111 -75.690712 144.69487 0.027282301 -119.27258
27507000000 -24.185846 -99.856995 -67.299774 98.887177 -78.470665 33.565384 0.02330251 -119.38124
27508000000 -24.477903 -100.58912 -76.159752 -2.8558569 -85.370476 107.87336 0.025975658 -119.45572
27509000000 -24.762716 -101.49722 -80.340157 -171.33211 -78.991432 -35.462772 0.028011378 -119.52658
27510000000 -25.087555 -101.67842 -75.724159 102.7738 -77.018303 -59.313103 0.028979391 -119.60439
27511000000 -25.385313 -101.92619 -78.348396 107.75171 -83.987679 -76.005501 0.031148577 -119.69326
27512000000 -25.725599 -102.64056 -83.696648 -42.834442 -77.922813 -61.087021 0.022842748 -119.79957
27513000000 -26.080875 -102.99178 -73.496933 -94.50779 -79.502922 27.360313 0.020552699 -119.90725
27514000000 -26.520657 -103.7408 -66.74688 43.916725 -75.156364 59.574181 0.024922453 -119.98724
27515000000 -26.852438 -104.36816 -74.058205 56.06979 -85.495865 -84.148132 0.024705695 -120.05804
27516000000 -27.312794 -104.71484 -68.082016 132.19643 -78.274689 91.499435 0.021577867 -120.21703
27517000000 -27.728132 -104.92382 -77.070992 26.07007 -79.10553 47.522388 0.025160234 -120.19549
27518000000 -28.195976 -105.25543 -79.965706 11.787886 -72.614388 -115.13466 0.019380001 -120.33393
27519000000 -28.728954 -104.92516 -71.030037 24.566652 -71.453682 -123.40365 0.019302644 -120.40368
27520000000 -29.230604 -105.50739 -75.401657 81.717346 -75.020241 -85.689949 0.017128995 -120.47436
27521000000 -29.86179 -105.86037 -70.111664 -44.287525 -95.578117 55.722256 0.017340733 -120.67094
27522000000 -30.4569 -105.59926 -76.289024 169.32455 -70.768715 -116.36942 0.017817993 -120.74828
27523000000 -31.035919 -105.26069 -69.965942 170.38329 -86.884354 -119.25612 0.017788475 -120.83125
27524000000 -31.638206 -105.5613 -72.527458 93.486595 -77.977631 -94.561798 0.0174198 -120.86852
27525000000 -32.415531 -104.60169 -77.951202 162.86389 -89.981232 117.62896 0.02793177 -120.97095
27526000000 -33.188541 -102.36316 -74.121361 41.572956 -78.686859 37.352299 0.02205514 -121.10757
27527000000 -33.996716 -100.74116 -74.535355 24.207697 -81.025139 11.225101 0.019939385 -121.19865
27528000000 -34.693573 -99.924484 -74.775909 5.7223272 -79.739983 -62.821648 0.021281585 -121.19818
27529000000 -35.75605 -96.317039 -75.203621 30.333233 -82.533318 12.737912 0.016585337 -121.34569
27530000000 -36.691841 -93.888176 -75.607803 73.848244 -71.680908 114.58116 0.020288462 -121.44798
27531000000 -37.664017 -87.090714 -79.878716 33.621185 -87.510918 -26.725571 0.022856589 -121.50671
27532000000 -38.839085 -79.997704 -77.000565 25.302532 -75.790764 -84.769073 0.02017604 -121.61831
27533000000 -39.966492 -72.182709 -85.94838 -19.052275 -84.400215 -133.55708 0.019623877 -121.73845
27534000000 -41.061287 -62.223053 -77.590523 37.924934 -77.34864 23.988638 0.027051518 -121.83949
27535000000 -41.313896 -50.411549 -77.325157 108.58217 -77.254143 -18.738432 0.020710677 -121.95883
27536000000 -40.753685 -35.335232 -75.64283 39.441822 -90.345924 -139.11789 0.020751927 -122.07726
27537000000 -40.442745 -21.026461 -68.21962 52.16309 -70.953056 -125.48183 0.027965745 -122.10387
27538000000 -39.442421 -12.375086 -69.479263 44.059456 -79.229355 -44.354156 0.032034904 -122.17155
27539000000 -38.311314 -3.0511184 -71.786133 67.485107 -74.884964 74.5625 0.024562359 -122.32005
27540000000 -37.150162 1.4910996 -73.849106 99.471672 -74.21727 110.30289 0.024435172 -122.45064
27541000000 -36.247208 5.0755115 -68.622658 46.338463 -83.865791 5.8925548 0.020874139 -122.49951
27542000000 -34.946163 8.6735878 -76.129601 67.933701 -79.891747 32.685295 0.025927253 -122.59657
27543000000 -34.047146 10.686691 -74.32486 82.274681 -73.966614 85.093285 0.024877917 -122.68088
27544000000 -33.161629 13.418156 -73.510178 95.240768 -78.768333 -52.226479 0.024979308 -122.75254
27545000000 -32.368103 13.682138 -73.920624 70.914177 -81.306206 -8.3424816 0.02112009 -122.83744
27546000000 -31.43527 14.611694 -80.250336 51.101627 -74.561966 -168.60286 0.027193181 -122.98629
27547000000 -30.927883 14.196171 -71.925667 87.903831 -78.05687 138.18347 0.028053418 -123.06679
27548000000 -30.266022 15.520301 -75.368248 3.2513816 -75.453453 5.4007316 0.030127758 -123.19189
27549000000 -29.63143 15.77932 -69.519272 -11.873328 -78.231903 -18.804846 0.028016407 -123.28693
27550000000 -29.188169 16.089361 -75.817741 28.378548 -77.297577 32.137688 0.028675333 -123.387
27551000000 -28.596388 15.938928 -72.363945 48.83773 -77.716095 -143.65237 0.031700805 -123.44099
27552000000 -28.113365 14.511485 -74.453171 2.6174223 -71.773315 -18.217455 0.033382654 -123.48299
27553000000 -27.59267 14.154693 -69.110008 25.833107 -75.919922 3.8921337 0.026195643 -123.59296
27554000000 -27.055254 14.107988 -84.478333 -41.369961 -83.329865 -16.875437 0.031908866 -123.73545
27555000000 -26.713421 13.23375 -70.919136 71.723595 -84.038269 105.12215 0.033919316 -123.78901
27556000000 -26.298811 12.845881 -78.442345 64.420784 -85.504593 39.090824 0.033799428 -123.85946
27557000000 -25.860386 12.245732 -69.750542 39.267815 -75.621147 68.589935 0.02399309 -123.94965
27558000000 -25.363758 11.246414 -68.301094 10.432356 -81.448479 89.406471 0.025228562 -124.02703
27559000000 -25.085417 10.058549 -71.298683 7.4918203 -78.262634 152.04781 0.028694982 -124.14539
27560000000 -24.795439 9.397481 -73.457802 86.019051 -78.083435 141.63046 0.031632762 -124.23898
27561000000 -24.412397 8.6204748 -70.170212 21.855875 -75.771202 -20.385935 0.026511101 -124.3596
27562000000 -24.192863 7.4471827 -69.704849 42.561451 -73.482788 58.784992 0.033115152 -124.39067
27563000000 -23.805092 6.916995 -78.279854 91.8302 -83.781609 178.52963 0.032338198 -124.50889
27564000000 -23.528452 5.8231215 -81.18689 124.44669 -72.171951 101.53844 0.031738944 -124.60829
27565000000 -23.169083 4.8854179 -71.622208 27.234159 -73.499817 133.09567 0.023573523 -124.67191
27566000000 -22.899702 3.3402612 -69.902412 67.009544 -84.411804 -96.412476 0.028471978 -124.77839
27567000000 -22.70476 2.3495414 -74.637405 61.873474 -86.588531 -76.80658 0.039039716 -124.81847
27568000000 -22.419157 1.1844617 -70.032684 20.732946 -76.546089 2.5232813 0.035546567 -124.92
27569000000 -22.163002 0.28345028 -71.198265 52.824497 -76.217834 -71.537796 0.037215635 -125.00919
27570000000 -21.889086 -0.86888099 -74.893929 101.07111 -80.994041 -176.0995 0.033708457 -125.13985
27571000000 -21.686787 -2.2581205 -73.830162 79.978645 -82.453911 -37.962143 0.042103603 -125.19434
27572000000 -21.459604 -3.4482484 -69.250061 16.053951 -70.705254 -21.189018 0.041095901 -125.30844
27573000000 -21.236187 -4.6521416 -74.454674 -31.89892 -76.122421 -88.637344 0.038481668 -125.4185
27574000000 -21.004148 -6.0722437 -88.69323 -2.0734587 -71.441811 -128.94667 0.031653248 -125.50617
27575000000 -20.806097 -7.3310881 -78.562546 55.178265 -70.569405 175.52202 0.038906313 -125.63306
27576000000 -20.611383 -8.87644 -71.165497 115.08052 -72.973999 -18.709389 0.037429444 -125.7037
27577000000 -20.395733 -10.065669 -72.202812 55.519222 -72.04245 2.3737264 0.031251725 -125.80412
27578000000 -20.249983 -11.447564 -74.532532 59.281254 -86.571548 -131.59354 0.041823935 -125.92123
27579000000 -20.085159 -12.870598 -73.310234 92.219429 -73.604332 -47.831615 0.024592461 -126.0518
27580000000 -19.923456 -14.534694 -73.276878 66.495064 -72.221649 -53.978256 0.027939692 -126.13806
27581000000 -19.734013 -16.038725 -82.098526 56.862087 -80.020721 -11.477304 0.030154245 -126.19986
27582000000 -19.587019 -17.548899 -70.171661 14.680388 -73.553665 28.543655 0.031580139 -126.26428
27583000000 -19.478565 -19.084528 -69.601685 31.124207 -71.485565 86.599503 0.034404811 -126.40607
27584000000 -19.340834 -20.870499 -71.671921 26.264658 -75.051544 74.942337 0.033671528 -126.48714
27585000000 -19.217573 -22.680492 -70.185501 -14.582991 -77.391281 -147.06792 0.023002686 -126.57882
27586000000 -19.144733 -24.42988 -70.808136 4.6254725 -77.207558 126.33218 0.031114113 -126.67623
27587000000 -19.020422 -26.303492 -70.896133 -6.2817373 -77.89196 -178.86702 0.035388973 -126.75554
27588000000 -18.941624 -28.119728 -71.892555 37.750324 -78.663002 141.98662 0.030608371 -126.8568
27589000000 -18.939016 -30.237373 -69.861481 42.622299 -74.367592 -120.15759 0.036068615 -126.96106
27590000000 -18.868195 -31.820499 -72.064468 14.628338 -69.812843 -39.388401 0.028018298 -127.03499
27591000000 -18.825672 -33.878185 -72.347855 84.532791 -71.064941 -63.322636 0.033806879 -127.13366
27592000000 -18.848713 -36.098766 -72.614861 8.7107658 -80.3116 71.712753 0.031003887 -127.23738
27593000000 -18.87089 -37.861282 -71.485802 42.407646 -83.091316 -36.719025 0.024207236 -127.30011
27594000000 -18.93325 -39.898468 -76.43644 107.31052 -73.52607 20.115641 0.032252576 -127.4316
27595000000 -18.987474 -41.774895 -72.936096 11.423118 -72.276886 -29.738916 0.029075053 -127.509
27596000000 -19.047972 -43.577042 -70.057175 -29.364733 -74.173302 41.391739 0.03082725 -127.57594
27597000000 -19.201035 -45.343658 -64.846855 47.815586 -76.024811 76.852036 0.030576615 -127.70007
27598000000 -19.359941 -46.867939 -67.65226 51.135357 -69.804886 51.789246 0.029464716 -127.82491
27599000000 -19.532064 -48.34988 -72.669777 32.236324 -80.531685 -63.702797 0.027332848 -127.90878
27600000000 -19.694323 -49.269039 -68.468071 -9.5011539 -83.512695 -74.663704 0.029810918 -128.00691
27601000000 -19.907093 -49.886402 -75.634956 42.528992 -75.468735 -171.7601 0.033153247 -128.1474
27602000000 -20.023382 -50.554451 -68.515923 14.108749 -73.228157 51.138412 0.024256222 -128.18478
27603000000 -20.133411 -51.136406 -74.129021 -174.00433 -79.295174 -61.409378 0.027469762 -128.28926
27604000000 -20.268183 -51.395321 -73.962471 -100.77732 -80.090172 -7.1913576 0.034687713 -128.42407
27605000000 -20.341183 -51.879772 -77.5242 -49.44717 -73.146614 91.729927 0.032587472 -128.54878
27606000000 -20.406418 -52.080551 -74.208931 -4.3996735 -79.620186 7.7202859 0.025899682 -128.60229
27607000000 -20.456606 -52.459373 -75.583176 -76.547264 -82.213989 69.830093 0.033858955 -128.75024
27608000000 -20.474491 -52.871147 -70.345718 -6.9736066 -81.231949 41.703392 0.030105256 -128.80403
27609000000 -20.478214 -53.71323 -72.642265 -30.149626 -78.922043 -128.81583 0.023123674 -128.88953
27610000000 -20.539402 -54.346821 -77.627884 -42.722816 -73.096832 20.551176 0.030841067 -129.00829
27611000000 -20.55687 -54.98201 -68.403923 -57.148731 -84.682739 -175.12524 0.031097118 -129.12445
27612000000 -20.600962 -55.913025 -80.611214 -133.8022 -85.060555 94.243309 0.027705522 -129.20767
27613000000 -20.610043 -56.890648 -74.303299 -152.67496 -71.361916 69.275436 0.031532109 -129.26881
27614000000 -20.699804 -57.883858 -70.199486 -89.095703 -76.43441 97.696136 0.025502529 -129.38968
27615000000 -20.75316 -58.568161 -85.202988 -47.186275 -74.03862 -41.759304 0.025437675 -129.51262
27616000000 -20.84939 -59.58728 -68.234299 11.122906 -82.010406 58.895737 0.034541801 -129.64594
27617000000 -20.914785 -60.526424 -68.211411 22.631361 -68.769569 -119.64375 0.030746216 -129.69717
27618000000 -21.040573 -61.490883 -83.568794 -23.782831 -77.163544 137.89772 0.028666528 -129.74202
27619000000 -21.122225 -62.366573 -80.682137 33.013607 -78.714989 -124.53062 0.035653502 -129.8511
27620000000 -21.257586 -63.041096 -72.927147 21.147438 -75.258133 -170.39908 0.028828524 -129.99583
27621000000 -21.367889 -63.688522 -75.208488 50.938507 -78.931374 -75.430573 0.02976324 -130.12227
27622000000 -21.552759 -64.446617 -70.638428 62.06287 -83.512634 -147.05173 0.031354416 -130.22504
27623000000 -21.683889 -64.903259 -84.275452 -72.676697 -76.083191 -25.185606 0.034101166 -130.30347
27624000000 -21.83828 -65.581848 -84.71122 79.251785 -81.060432 -168.13451 0.030280637 -130.39787
27625000000 -21.994684 -66.069893 -69.571823 38.873341 -69.75489 148.11922 0.021765273 -130.47218
27626000000 -22.196224 -66.090988 -77.686188 -10.529244 -71.518806 -166.19379 0.022193337 -130.61426
27627000000 -22.367081 -66.761284 -93.227058 165.0694 -78.881676 51.974438 0.036614396 -130.71484
27628000000 -22.561811 -66.608154 -81.664223 -17.575367 -78.3759 41.996552 0.023446655 -130.82666
27629000000 -22.711348 -66.501717 -74.602684 113.10206 -79.223213 -99.576729 0.021253366 -130.91058
27630000000 -22.829622 -67.003441 -72.368706 162.84941 -81.264748 64.371986 0.017937806 -131.01273
27631000000 -23.034296 -66.725304 -78.276268 67.921265 -72.450546 -39.924099 0.025858285 -131.12198
27632000000 -23.17688 -66.361717 -85.629845 -81.668755 -73.280502 -53.645153 0.027844189 -131.17308
27633000000 -23.292803 -66.392448 -77.002869 163.59119 -80.325417 -135.20842 0.023899196 -131.27452
27634000000 -23.446508 -65.925072 -68.107193 70.831421 -79.368065 -151.37476 0.028035346 -131.39621
27635000000 -23.60199 -65.281204 -68.360909 96.227921 -81.593246 -148.78683 0.021730913 -131.55515
27636000000 -23.677933 -64.940819 -74.151207 68.930763 -82.983734 -98.843239 0.017206812 -131.61868
27637000000 -23.796858 -64.41938 -78.013954 134.56241 -71.277512 -126.76238 0.021262234 -131.71638
27638000000 -23.809708 -63.885826 -80.635834 96.974785 -80.243935 -114.40289 0.01822814 -131.74733
27639000000 -23.93807 -63.143883 -75.388199 105.51703 -79.950928 -125.35612 0.019657709 -131.90994
27640000000 -23.988142 -62.634907 -69.884354 51.826405 -80.111542 -54.871323 0.02720245 -132.00188
27641000000 -24.064835 -61.722206 -68.471458 44.52964 -84.50222 -21.401478 0.020866886 -132.11974
27642000000 -24.052185 -61.202709 -66.101181 71.181328 -73.972824 175.1965 0.014418885 -132.19218
27643000000 -24.059742 -60.500111 -71.73243 45.347824 -86.237892 -145.45506 0.022311741 -132.31277
27644000000 -24.055841 -59.932747 -72.546906 77.300682 -74.667931 -22.706711 0.022395778 -132.43398
27645000000 -24.069954 -59.529854 -71.503052 40.651474 -81.713142 -69.674065 0.027515166 -132.51419
27646000000 -23.993515 -58.621799 -67.788368 27.625927 -86.36882 50.362549 0.027156295 -132.6041
27647000000 -23.99748 -58.480934 -72.177208 41.289711 -79.507851 75.567757 0.024614373 -132.7491
27648000000 -23.963043 -57.658287 -71.529907 52.94574 -80.471077 -141.51277 0.022565616 -132.87524
27649000000 -23.926779 -57.238201 -78.38131 63.379616 -94.726349 -129.24088 0.023124354 -132.94496
27650000000 -23.84767 -56.922909 -67.270676 23.017082 -75.935143 65.76062 0.028550712 -133.11288
27651000000 -23.744362 -56.50959 -64.342796 33.521259 -77.741188 47.517784 0.019750208 -133.20679
27652000000 -23.666742 -56.540165 -68.725311 46.943909 -78.322655 141.3994 0.023683321 -133.30074
27653000000 -23.605076 -56.421196 -70.093102 29.856844 -87.444908 -36.936153 0.024778757 -133.43407
27654000000 -23.501732 -56.387505 -65.986221 28.37126 -82.23175 -132.22427 0.023713145 -133.53053
27655000000 -23.471464 -56.357647 -64.557175 34.339863 -79.417313 -168.60529 0.023054549 -133.6297
27656000000 -23.357647 -56.480247 -68.80587 25.746901 -75.325333 -43.129723 0.02086612 -133.73842
27657000000 -23.265135 -56.473717 -66.631821 15.71837 -80.02282 -106.89041 0.023368472 -133.8049
27658000000 -23.244352 -56.356277 -64.221924 24.23572 -72.746277 126.21671 0.019235754 -134.00459
27659000000 -23.126253 -56.324291 -67.540886 -1.7537994 -75.075821 166.77101 0.014618289 -134.06172
27660000000 -23.047777 -56.669807 -66.137848 17.662371 -84.185806 -105.51241 0.020612404 -134.15874
27661000000 -22.964397 -56.99432 -66.309723 1.7816809 -73.076286 143.22742 0.019140769 -134.2885
27662000000 -22.881624 -57.375359 -63.805141 -3.2795734 -82.612152 -20.198498 0.017222891 -134.30589
27663000000 -22.812902 -57.660042 -63.633442 -7.2909317 -86.187378 176.59453 0.024037404 -134.47614
27664000000 -22.720959 -57.867386 -66.500328 9.4812078 -77.069221 122.60964 0.017136052 -134.5629
27665000000 -22.670149 -58.226467 -63.594688 7.6647067 -74.288429 114.85716 0.021703163 -134.67682
27666000000 -22.616747 -58.567451 -66.126991 9.8684587 -75.730331 97.264809 0.023335073 -134.77422
27667000000 -22.500723 -58.908195 -66.114365 2.7028601 -77.144127 83.253853 0.024735577 -134.84158
27668000000 -22.459833 -59.235512 -66.342178 18.098591 -74.947586 -169.27307 0.018346058 -134.97733
27669000000 -22.375235 -59.288857 -66.459122 -13.218828 -83.033203 -156.68486 0.016590441 -135.09622
27670000000 -22.307972 -60.029282 -63.040794 8.888751 -78.863281 -109.1685 0.010914484 -135.17859
27671000000 -22.282558 -60.313793 -63.800049 9.9339876 -92.512901 102.22478 0.016420202 -135.31952
27672000000 -22.202379 -60.931866 -63.64846 6.3983703 -94.677834 15.62749 0.017571617 -135.3851
27673000000 -22.148937 -61.538422 -61.960014 -16.353733 -74.588264 136.75446 0.01737858 -135.50723
27674000000 -22.069109 -61.721798 -63.527195 7.4044356 -71.24543 172.90324 0.016596217 -135.65077
27675000000 -22.027573 -62.05714 -64.563271 -7.2341299 -75.138466 139.94951 0.020177759 -135.75111
27676000000 -21.993742 -62.621922 -65.306007 -9.7418194 -78.581398 -43.56839 0.015028578 -135.85727
27677000000 -21.943666 -63.243412 -63.001656 9.3674889 -85.44117 -52.441509 0.013997464 -135.97177
27678000000 -21.863848 -63.747139 -63.632763 -9.9357586 -80.278984 -175.8661 0.016248949 -136.10767
27679000000 -21.831577 -64.075027 -64.123009 7.0883465 -82.356438 -174.59967 0.017891016 -136.20033
27680000000 -21.709501 -64.549461 -64.421318 1.7611678 -77.336716 -70.779564 0.024851168 -136.25749
27681000000 -21.70093 -64.979919 -62.218884 -22.666595 -74.738708 152.62399 0.013797428 -136.39227
27682000000 -21.671432 -65.528954 -62.711151 -26.515114 -77.732361 123.1802 0.023268964 -136.50719
27683000000 -21.589125 -66.110214 -63.588539 -8.4695282 -74.554977 80.046074 0.017910345 -136.57516
27684000000 -21.554811 -66.596764 -65.356148 18.366909 -91.092567 117.15633 0.012238838 -136.69431
27685000000 -21.514925 -67.042709 -64.497551 3.3303335 -79.598801 158.57999 0.019878129 -136.83258
27686000000 -21.421455 -67.567665 -62.929981 -2.3155692 -81.505592 -126.59583 0.010325941 -136.93259
27687000000 -21.401154 -68.216423 -63.468639 -19.582514 -80.137535 -59.668152 0.020031961 -136.95831
27688000000 -21.347515 -68.75959 -64.40744 -6.433373 -76.700256 71.323425 0.014386319 -137.14708
27689000000 -21.285902 -68.99604 -64.969536 -23.314928 -73.499763 114.38673 0.016782474 -137.22658
27690000000 -21.22921 -69.466179 -65.979507 -25.404009 -74.933159 130.142 0.015607155 -137.34337
27691000000 -21.139399 -70.423134 -66.127243 -20.164606 -77.830414 106.38025 0.018281149 -137.42331
27692000000 -21.13032 -70.982056 -62.803448 -37.420048 -79.170883 123.59218 0.0086255986 -137.53073
27693000000 -21.043331 -71.501938 -62.173141 -47.530857 -93.563126 25.636719 0.015085157 -137.66652
27694000000 -21.002598 -72.202469 -61.996239 -15.354872 -74.784676 -31.42717 0.018028429 -137.78716
27695000000 -20.920494 -72.787201 -62.711281 -20.968182 -77.449409 75.966026 0.014780582 -137.86446
27696000000 -20.882225 -73.366737 -63.052155 -41.076874 -80.643089 64.267342 0.012046872 -137.92281
27697000000 -20.834919 -73.9049 -63.86058 -35.863014 -91.126404 84.606735 0.024097469 -138.07555
27698000000 -20.737034 -74.58654 -64.763748 -16.02808 -72.579514 54.444016 0.012545743 -138.20111
