!Keysight Technologies,N5234A,MY55441357,A.10.47.05
!Date: Sunday, November 19, 2017 16:05:35
!Correction: S11(Full 2 Port(1,2)) 
!S21(Full 2 Port(1,2)) 
!S12(Full 2 Port(1,2)) 
!S22(Full 2 Port(1,2)) 
!S2P File: Measurements: S11, S21, S12, S22:
# Hz S  dB   R 50
27500000000 -21.849907 -95.674179 -37.35453 50.621296 -54.324287 146.7755 -0.31970534 -162.75868
27501000000 -22.099318 -95.875793 -37.34399 49.445366 -53.4744 143.46071 -0.32411411 -163.13579
27502000000 -22.338675 -97.03849 -36.978104 48.447323 -53.187809 145.63997 -0.32069612 -163.58318
27503000000 -22.591747 -97.385445 -36.916695 47.508827 -53.642403 141.53235 -0.33021292 -163.92584
27504000000 -22.790728 -98.226158 -36.847637 46.950333 -53.664173 146.61014 -0.33254781 -164.32076
27505000000 -23.020063 -98.95546 -36.6376 45.218388 -53.592648 142.77611 -0.33338034 -164.69685
27506000000 -23.333454 -99.088005 -36.469559 44.134514 -53.034546 145.20918 -0.33083141 -165.10378
27507000000 -23.635605 -99.722504 -36.283031 42.800159 -52.759071 146.88004 -0.33001071 -165.52342
27508000000 -23.898163 -100.39399 -36.12336 41.704243 -52.425385 136.48285 -0.32708728 -165.94339
27509000000 -24.173668 -101.51842 -35.985664 40.464634 -52.150955 138.91449 -0.33190125 -166.35735
27510000000 -24.459856 -101.70572 -35.790817 39.937714 -51.98893 140.62622 -0.33114532 -166.72751
27511000000 -24.772282 -102.18989 -35.652847 38.289516 -52.227261 137.57814 -0.33639356 -167.12038
27512000000 -25.124306 -102.77816 -35.41185 36.932011 -52.128593 137.45834 -0.34107733 -167.584
27513000000 -25.463293 -103.38842 -35.34766 35.899048 -52.149128 138.47127 -0.34368435 -168.04285
27514000000 -25.827009 -103.96089 -35.16256 34.443367 -52.326294 131.63354 -0.34383586 -168.42528
27515000000 -26.181852 -104.59822 -34.961498 33.663166 -51.585819 135.27554 -0.34725642 -168.87576
27516000000 -26.605186 -105.09778 -34.714203 32.874523 -51.127316 134.15546 -0.35241595 -169.32149
27517000000 -27.007006 -105.63174 -34.634869 31.43667 -50.882782 134.33972 -0.35484213 -169.70671
27518000000 -27.365103 -105.97744 -34.497879 29.892883 -50.790089 134.80821 -0.35917825 -170.19183
27519000000 -27.906492 -105.76264 -34.259857 29.378477 -50.613262 134.58638 -0.36540043 -170.64432
27520000000 -28.285797 -106.28307 -34.22401 28.361382 -50.613895 130.65231 -0.36775145 -171.06221
27521000000 -28.842182 -106.8316 -33.918736 26.574169 -50.43536 131.18219 -0.36801171 -171.59923
27522000000 -29.459337 -107.27237 -33.822163 25.860245 -50.076073 127.87003 -0.37168616 -172.04604
27523000000 -30.016899 -106.78932 -33.654976 24.478493 -50.601593 126.53436 -0.36882922 -172.57237
27524000000 -30.540009 -107.56059 -33.602329 23.028793 -50.510826 130.62357 -0.37671527 -173.05235
27525000000 -31.28269 -106.94328 -33.365681 22.326002 -49.915539 125.64585 -0.37804878 -173.48544
27526000000 -31.995903 -105.89571 -33.213966 20.938171 -49.589867 120.8607 -0.38082811 -173.99834
27527000000 -32.698502 -104.36216 -33.042164 20.04171 -49.336769 124.97271 -0.38950264 -174.50565
27528000000 -33.24382 -104.36766 -32.851578 18.432632 -49.509747 123.06022 -0.39274314 -174.96533
27529000000 -34.215302 -101.92408 -32.739334 17.708143 -49.435032 123.69517 -0.39585778 -175.49254
27530000000 -35.224449 -100.20689 -32.597652 16.016489 -49.127026 120.97427 -0.39810658 -175.99179
27531000000 -36.221466 -96.218735 -32.438137 14.99212 -49.296352 116.43275 -0.40095097 -176.4857
27532000000 -37.244579 -92.126518 -32.206932 13.335385 -48.885475 119.56381 -0.40874878 -177.035
27533000000 -38.456799 -86.688835 -32.125389 12.163235 -49.089039 115.34165 -0.41100702 -177.61617
27534000000 -39.573521 -79.574379 -31.903221 11.303112 -48.406883 114.72863 -0.41927236 -178.13855
27535000000 -40.645462 -70.821625 -31.717623 9.7016907 -47.962765 116.32519 -0.42010576 -178.75175
27536000000 -40.947075 -55.7696 -31.582813 8.2959328 -48.256313 115.45816 -0.42743728 -179.29602
27537000000 -41.45092 -41.028347 -31.517775 7.005136 -47.83662 114.71017 -0.4352738 -179.8116
27538000000 -40.726234 -28.884552 -31.259243 5.4627347 -47.470516 110.66143 -0.4404524 179.6154
27539000000 -40.04678 -15.276468 -31.057894 4.5817423 -47.639713 109.09105 -0.44312298 178.99066
27540000000 -38.816784 -8.735652 -30.957363 3.5336058 -47.496326 110.27349 -0.44688573 178.43059
27541000000 -37.81353 -0.87006259 -30.827368 2.2477894 -47.053116 111.49222 -0.45948103 177.83231
27542000000 -36.479534 4.7785501 -30.641771 0.44059736 -47.059631 112.26164 -0.46754298 177.20973
27543000000 -35.368877 7.7321825 -30.522768 -0.76029658 -47.050903 108.86108 -0.47390011 176.61139
27544000000 -34.386456 10.457732 -30.328375 -1.9582182 -46.599575 104.08762 -0.47586191 175.98836
27545000000 -33.614552 12.245755 -30.226114 -3.251987 -46.395092 103.79308 -0.47928995 175.32918
27546000000 -32.542583 13.262427 -30.042646 -4.7211823 -46.843224 106.19664 -0.48971629 174.66339
27547000000 -31.85602 13.526885 -29.881084 -6.4262366 -46.378651 103.12547 -0.48724434 173.99493
27548000000 -31.135801 14.629529 -29.757832 -7.7360945 -46.169106 103.77806 -0.50149685 173.33238
27549000000 -30.527721 15.264431 -29.650002 -9.1411781 -46.207634 99.351685 -0.51103437 172.64503
27550000000 -29.908661 15.90777 -29.48027 -10.777092 -45.972954 100.48499 -0.51893586 171.94917
27551000000 -29.326035 16.130476 -29.364548 -12.164492 -45.832829 98.676369 -0.52737498 171.21382
27552000000 -28.683681 14.518947 -29.169725 -13.417562 -45.879765 96.183418 -0.52878702 170.54773
27553000000 -28.162703 14.515514 -29.010811 -14.48616 -45.587101 93.314072 -0.53764582 169.79749
27554000000 -27.676363 14.411833 -28.883129 -15.938087 -45.224548 94.521912 -0.55190378 169.03575
27555000000 -27.256723 13.969163 -28.803957 -17.636799 -45.070187 92.117561 -0.56260306 168.30602
27556000000 -26.814289 13.443757 -28.690844 -19.283009 -45.015079 93.962044 -0.56583077 167.52707
27557000000 -26.40284 12.731799 -28.544815 -20.572308 -45.104324 90.649529 -0.57539231 166.77473
27558000000 -25.858692 12.018204 -28.400999 -22.441034 -44.84856 90.967911 -0.58897579 165.95404
27559000000 -25.506901 11.033901 -28.329041 -23.566044 -44.880157 89.422165 -0.59508324 165.0892
27560000000 -25.234201 10.356701 -28.202705 -25.136688 -44.839657 87.492744 -0.61342627 164.27119
27561000000 -24.807188 9.4673653 -28.148577 -26.542788 -44.52779 86.360023 -0.62002093 163.40903
27562000000 -24.556612 8.3476458 -28.046619 -27.910734 -44.533318 84.950119 -0.63526076 162.57413
27563000000 -24.140991 8.00354 -27.945642 -29.205729 -44.496563 84.712532 -0.63676524 161.64616
27564000000 -23.861803 6.838654 -27.925884 -30.646246 -44.40979 82.595604 -0.65686464 160.7291
27565000000 -23.49477 5.4829588 -27.784485 -32.090256 -44.404137 78.363434 -0.66879237 159.81114
27566000000 -23.226227 4.3933759 -27.7745 -33.816433 -44.023968 78.771278 -0.68223774 158.8573
27567000000 -23.006033 3.2100372 -27.746727 -35.080513 -44.409695 79.533302 -0.68277478 157.8689
27568000000 -22.685211 2.1130073 -27.711561 -36.772633 -44.002529 75.883942 -0.71023262 156.82352
27569000000 -22.421635 1.1743962 -27.680628 -37.668774 -43.954433 77.133667 -0.72499132 155.76428
27570000000 -22.132769 -0.0069942507 -27.711662 -39.292183 -44.048862 77.60453 -0.75660348 154.7104
27571000000 -21.94829 -1.2427436 -27.76539 -40.125252 -44.19453 74.197388 -0.76799983 153.65511
27572000000 -21.683304 -2.5970438 -27.742977 -41.58688 -44.73476 73.106659 -0.78689116 152.46057
27573000000 -21.441122 -3.7806544 -27.873606 -42.302303 -44.481827 72.820801 -0.8162685 151.2731
27574000000 -21.212423 -5.1898112 -27.983917 -42.777298 -44.184841 72.754257 -0.84338897 150.08459
27575000000 -21.007502 -6.3947215 -28.079659 -43.82143 -44.979713 71.333702 -0.86729556 148.79668
27576000000 -20.797709 -7.8447695 -28.246519 -44.215706 -44.610455 72.060127 -0.89322108 147.53229
27577000000 -20.582485 -9.2109442 -28.432335 -44.422443 -44.513733 71.968948 -0.92213273 146.18321
27578000000 -20.414944 -10.453942 -28.644594 -44.257301 -45.218613 72.184357 -0.96267033 144.75494
27579000000 -20.271589 -11.764427 -28.958906 -43.921627 -45.697163 71.639969 -1.0068408 143.28038
27580000000 -20.083321 -13.50745 -29.186996 -42.0704 -46.032406 73.483467 -1.052348 141.7684
27581000000 -19.87738 -15.219187 -29.526205 -39.368008 -46.36544 76.614006 -1.0905226 140.21327
27582000000 -19.729279 -16.635527 -29.814167 -37.01059 -46.487106 80.949783 -1.1500975 138.59071
27583000000 -19.618059 -18.252773 -30.124275 -32.397728 -46.527306 84.725586 -1.210552 136.84845
27584000000 -19.445213 -19.958931 -30.176226 -26.146004 -46.877605 90.386253 -1.2780241 135.00859
27585000000 -19.313559 -21.864088 -30.002611 -19.062551 -46.511906 97.318474 -1.359308 133.13138
27586000000 -19.222416 -23.708786 -29.550787 -11.050408 -46.013763 104.06834 -1.4386868 131.14952
27587000000 -19.101517 -25.339254 -28.740654 -3.9871113 -44.898842 114.36241 -1.5463539 129.04872
27588000000 -19.043957 -27.174574 -27.637323 2.3847528 -44.10025 122.8383 -1.6644334 126.81915
27589000000 -18.999615 -29.321634 -26.324036 7.3366718 -42.864578 126.97038 -1.8134556 124.46745
27590000000 -18.947626 -31.012728 -24.846743 10.288307 -41.318108 130.41948 -1.9762121 121.99946
27591000000 -18.888359 -33.180588 -23.353024 11.624504 -39.748055 131.7088 -2.1515045 119.35003
27592000000 -18.892279 -35.359055 -21.902861 11.721377 -38.374622 131.77739 -2.381351 116.53897
27593000000 -18.929525 -37.269405 -20.428957 10.83664 -36.850357 130.6219 -2.6521897 113.64405
27594000000 -18.943968 -39.316036 -19.069143 8.7518873 -35.553322 128.77731 -2.9563124 110.56728
27595000000 -19.014917 -41.200367 -17.732492 5.617362 -34.164169 125.82031 -3.3334355 107.31871
27596000000 -19.059683 -43.135323 -16.475554 1.7514068 -32.91935 121.88654 -3.7905769 104.13965
27597000000 -19.20693 -45.043133 -15.287247 -2.6180227 -31.7264 118.10992 -4.3424549 100.81341
27598000000 -19.385382 -46.821735 -14.212215 -7.6959124 -30.786528 113.40282 -4.9920497 97.559998
27599000000 -19.585793 -48.342682 -13.19593 -13.183706 -29.705116 107.97763 -5.7531695 94.513214
27600000000 -19.764259 -49.50518 -12.259858 -19.060629 -28.72751 102.34738 -6.6689239 91.838615
27601000000 -20.012602 -50.208202 -11.432597 -25.304443 -27.897825 96.411736 -7.7354589 89.773506
27602000000 -20.195383 -50.887863 -10.712945 -31.750093 -27.203926 90.452698 -8.973259 88.879501
27603000000 -20.329081 -51.223858 -10.060019 -38.357407 -26.532888 83.888512 -10.36062 89.463577
27604000000 -20.533424 -51.170345 -9.5229492 -44.90797 -25.994385 77.627945 -11.860625 92.391121
27605000000 -20.65362 -51.232201 -9.0584078 -51.487385 -25.534517 71.193512 -13.357149 98.393631
27606000000 -20.723574 -51.026932 -8.6606827 -57.851089 -25.144564 65.022133 -14.584779 107.69492
27607000000 -20.764542 -51.057587 -8.3432045 -64.101059 -24.824387 59.1367 -15.227506 119.98924
27608000000 -20.727514 -50.93084 -8.0695715 -70.116837 -24.523838 53.278622 -15.158612 132.09625
27609000000 -20.704487 -51.396149 -7.8654985 -76.025856 -24.355051 47.571205 -14.527199 141.58778
27610000000 -20.723715 -51.561592 -7.6734862 -81.641602 -24.171438 42.158165 -13.703258 148.31113
27611000000 -20.717436 -51.789688 -7.5308285 -87.080963 -24.067326 37.174919 -12.826632 152.40942
27612000000 -20.666748 -52.557953 -7.4045062 -92.230598 -23.893745 32.054237 -12.041547 154.80992
27613000000 -20.604441 -53.563343 -7.3042517 -97.258461 -23.769363 27.249722 -11.332318 156.1178
27614000000 -20.62141 -54.486511 -7.2153859 -102.09402 -23.726612 22.839258 -10.710513 156.36118
27615000000 -20.618101 -55.246944 -7.1520095 -106.74611 -23.641106 18.38092 -10.209146 156.39346
27616000000 -20.640312 -56.448936 -7.0788555 -111.23837 -23.570923 13.895163 -9.7586536 155.93144
27617000000 -20.645983 -57.431419 -7.0323744 -115.66558 -23.509283 9.8703671 -9.3973007 155.28613
27618000000 -20.672646 -58.586952 -6.9724016 -119.84978 -23.470318 5.9615006 -9.0588284 154.5107
27619000000 -20.746647 -59.74596 -6.9435644 -123.95416 -23.409227 1.92519 -8.7778215 153.61162
27620000000 -20.83646 -60.747688 -6.8946724 -127.99776 -23.384066 -1.6260561 -8.5239468 152.64851
27621000000 -20.912361 -61.732502 -6.8756857 -131.96779 -23.374493 -5.5284877 -8.3190422 151.68106
27622000000 -21.03767 -62.700558 -6.8421445 -135.77505 -23.340975 -9.2199068 -8.1323195 150.63213
27623000000 -21.136015 -63.606716 -6.8193254 -139.52983 -23.295399 -12.584377 -7.9642806 149.53403
27624000000 -21.278221 -64.485641 -6.7941356 -143.20668 -23.287127 -15.920751 -7.8067737 148.48476
27625000000 -21.383486 -65.734024 -6.7704844 -146.80853 -23.309347 -19.372562 -7.6796894 147.4536
27626000000 -21.616129 -66.033524 -6.7508273 -150.38477 -23.234184 -22.674368 -7.5603447 146.31898
27627000000 -21.718555 -67.131912 -6.73347 -153.82838 -23.190819 -25.838802 -7.4319406 145.26926
27628000000 -21.913105 -67.539749 -6.7206006 -157.26656 -23.215073 -29.059252 -7.3374128 144.13441
27629000000 -22.093737 -67.938469 -6.7043581 -160.70056 -23.2192 -32.062386 -7.2459555 143.05742
27630000000 -22.230947 -68.655312 -6.6934352 -164.03293 -23.177109 -35.179367 -7.1571565 141.86896
27631000000 -22.437531 -68.654625 -6.6753144 -167.33009 -23.187769 -38.421741 -7.0738602 140.72212
27632000000 -22.648783 -68.883392 -6.6642604 -170.55453 -23.167643 -41.325516 -7.0013494 139.52843
27633000000 -22.799236 -69.501755 -6.6597934 -173.70061 -23.138966 -44.325607 -6.9333448 138.37546
27634000000 -23.013788 -69.241104 -6.6616454 -176.87315 -23.162199 -47.228359 -6.8634195 137.2001
27635000000 -23.195761 -69.165642 -6.6567426 -179.9726 -23.165609 -50.134418 -6.8068566 135.90231
27636000000 -23.347462 -69.239212 -6.6543365 176.90799 -23.159149 -52.849171 -6.7463536 134.6785
27637000000 -23.517982 -68.898033 -6.6492367 173.83569 -23.137661 -55.640991 -6.6896887 133.3344
27638000000 -23.617569 -68.67984 -6.6381478 170.89236 -23.125265 -58.593761 -6.6463685 132.08044
27639000000 -23.867414 -68.004616 -6.6414995 167.90459 -23.132706 -61.193306 -6.590394 130.79884
27640000000 -23.957314 -67.65107 -6.6292915 164.94817 -23.106451 -63.839592 -6.538095 129.46538
27641000000 -24.116577 -66.628258 -6.6351461 161.96252 -23.117891 -66.543983 -6.4999967 128.00934
27642000000 -24.169657 -65.870224 -6.6336846 159.17677 -23.117657 -69.095177 -6.4525428 126.65321
27643000000 -24.315044 -65.234764 -6.62957 156.29378 -23.133293 -71.838249 -6.4261742 125.1955
27644000000 -24.408203 -64.702866 -6.6268835 153.50323 -23.121386 -74.345024 -6.3860269 123.76303
27645000000 -24.486731 -63.987991 -6.626101 150.64804 -23.09189 -76.958633 -6.3415909 122.25654
27646000000 -24.483038 -62.696793 -6.6297216 147.85738 -23.128822 -79.455322 -6.330143 120.76456
27647000000 -24.516994 -62.172131 -6.6336136 145.07939 -23.124943 -81.960358 -6.2867179 119.25606
27648000000 -24.546122 -61.089607 -6.6224942 142.32228 -23.149111 -84.483574 -6.2736268 117.62865
27649000000 -24.578043 -60.204205 -6.6283002 139.63403 -23.138269 -87.016724 -6.2515154 116.04033
27650000000 -24.511713 -59.425228 -6.6238594 136.94868 -23.11834 -89.350426 -6.2276044 114.43433
27651000000 -24.441717 -58.282272 -6.6238685 134.28288 -23.121847 -91.865417 -6.2094498 112.77359
27652000000 -24.421711 -57.960945 -6.6307759 131.64351 -23.124613 -94.272346 -6.1925082 111.07432
27653000000 -24.358316 -57.247063 -6.6132312 128.91647 -23.154053 -96.557457 -6.169004 109.36068
27654000000 -24.298719 -56.510078 -6.6274791 126.27928 -23.136106 -99.06826 -6.1604567 107.56461
27655000000 -24.228762 -55.757881 -6.615375 123.7246 -23.110712 -101.47813 -6.1512036 105.91737
27656000000 -24.092428 -55.535919 -6.6170683 121.10084 -23.11865 -103.79631 -6.1369681 104.10431
27657000000 -23.978004 -55.159332 -6.6192999 118.51979 -23.150763 -106.15861 -6.1291256 102.26163
27658000000 -23.904352 -54.686131 -6.6134038 115.97935 -23.139181 -108.10967 -6.1221905 100.38696
27659000000 -23.787876 -54.078629 -6.6172633 113.41704 -23.116409 -110.64651 -6.1147738 98.541618
27660000000 -23.745304 -54.223221 -6.617198 110.87375 -23.120029 -112.93271 -6.1178298 96.623604
27661000000 -23.580511 -54.225811 -6.6055703 108.31072 -23.099794 -115.30066 -6.0989389 94.722824
27662000000 -23.451241 -54.386211 -6.6165099 105.87428 -23.12797 -117.63864 -6.1181784 92.792999
27663000000 -23.337406 -54.185539 -6.6065698 103.32257 -23.129148 -119.69102 -6.1028738 90.824409
27664000000 -23.211578 -54.132759 -6.6062522 100.84373 -23.114534 -122.0323 -6.1109719 88.853867
27665000000 -23.093882 -54.107574 -6.5977249 98.358597 -23.108213 -124.35105 -6.1085072 86.81115
27666000000 -22.985653 -54.276073 -6.599288 95.878159 -23.113342 -126.46202 -6.1071019 84.873344
27667000000 -22.841652 -54.690498 -6.5971642 93.390335 -23.100895 -128.81711 -6.1124187 82.810776
27668000000 -22.735411 -54.888161 -6.5896344 90.906113 -23.106501 -130.98099 -6.1049623 80.699837
27669000000 -22.594351 -54.77494 -6.5857148 88.461433 -23.060823 -133.11861 -6.1163664 78.600327
27670000000 -22.476606 -55.284912 -6.5867038 86.00061 -23.075954 -135.4175 -6.1171741 76.526077
27671000000 -22.383165 -55.778282 -6.5871825 83.565834 -23.114563 -137.56638 -6.1295414 74.40818
27672000000 -22.256376 -56.099426 -6.5766511 81.176483 -23.090742 -139.89914 -6.1242971 72.279617
27673000000 -22.188238 -56.791061 -6.5773773 78.673141 -23.096542 -142.0284 -6.123014 70.102448
27674000000 -22.073122 -57.2169 -6.5697317 76.272751 -23.061241 -144.15935 -6.1127219 67.932411
27675000000 -21.922287 -57.49794 -6.5626192 73.869728 -23.084845 -146.31891 -6.1276255 65.712769
27676000000 -21.862299 -57.98156 -6.5609555 71.447975 -23.1007 -148.476 -6.1330771 63.53669
27677000000 -21.75087 -58.561283 -6.5648341 69.039993 -23.081463 -150.45245 -6.1332917 61.364368
27678000000 -21.617249 -59.304047 -6.5582819 66.678192 -23.080301 -152.7852 -6.1471505 59.215229
27679000000 -21.542009 -59.82172 -6.5483451 64.295357 -23.074957 -154.87306 -6.1410971 56.930603
27680000000 -21.410692 -60.480812 -6.5490613 61.860298 -23.060299 -157.02914 -6.1385751 54.738392
27681000000 -21.385403 -60.957245 -6.5582709 59.45216 -23.043049 -159.18944 -6.1423635 52.503204
27682000000 -21.315241 -61.561527 -6.5505438 57.059315 -23.042337 -161.32585 -6.1534138 50.235481
27683000000 -21.215811 -62.398109 -6.5490103 54.706326 -23.059967 -163.36073 -6.1626267 48.059727
27684000000 -21.119318 -63.114788 -6.5495987 52.3507 -23.052448 -165.53755 -6.1658578 45.830608
27685000000 -21.041021 -63.722237 -6.5510387 49.993687 -23.020685 -167.67555 -6.1590624 43.592278
27686000000 -20.942616 -64.424637 -6.5472674 47.660976 -23.077234 -169.7863 -6.1683311 41.341911
27687000000 -20.890205 -65.27121 -6.542624 45.296543 -23.063616 -171.78391 -6.1646595 39.105892
27688000000 -20.803101 -66.209518 -6.5452924 42.904541 -23.062941 -173.68726 -6.1608958 36.793003
27689000000 -20.728106 -66.692268 -6.5435576 40.563133 -23.063074 -175.96658 -6.153398 34.535583
27690000000 -20.67848 -67.298721 -6.5429797 38.214825 -23.064423 -178.18855 -6.1724901 32.264805
27691000000 -20.58012 -68.355278 -6.5442152 35.903358 -23.057426 179.66623 -6.1622825 30.030283
27692000000 -20.58157 -69.283737 -6.5492482 33.592678 -23.067085 177.8047 -6.1593699 27.845793
27693000000 -20.484053 -70.04892 -6.5503302 31.245264 -23.047346 175.80984 -6.1630325 25.638876
27694000000 -20.44523 -70.862198 -6.5453281 28.851933 -23.024561 173.54565 -6.1410046 23.36503
27695000000 -20.382925 -71.623146 -6.5522261 26.586239 -23.05983 171.59879 -6.1511445 21.189838
27696000000 -20.3221 -72.575935 -6.5482712 24.307442 -23.073139 169.49945 -6.1546764 19.005491
27697000000 -20.282589 -73.322891 -6.5502448 21.986839 -23.070309 167.30412 -6.1321235 16.779867
27698000000 -20.166063 -74.135117 -6.5484729 19.655132 -23.031021 165.41206 -6.1331663 14.586658
27699000000 -20.114748 -75.00724 -6.5510468 17.355278 -23.070042 163.33232 -6.1258636 12.434956
27700000000 -20.074379 -75.931396 -6.562037 15.056817 -23.077856 161.30095 -6.1114192 10.2067
27701000000 -20.044807 -76.769363 -6.5626941 12.763106 -23.05983 159.23468 -6.1157827 8.0948029
