!Keysight Technologies,N5234A,MY55441357,A.10.47.05
!Date: Sunday, November 19, 2017 13:08:59
!Correction: S11(Full 2 Port(1,2)) 
!S21(Full 2 Port(1,2)) 
!S12(Full 2 Port(1,2)) 
!S22(Full 2 Port(1,2)) 
!S2P File: Measurements: S11, S21, S12, S22:
# Hz S  dB   R 50
27500000000 -35.581848 -68.205582 -67.006805 -148.03082 -79.539185 11.500619 0.045321137 -134.13402
27501000000 -36.402798 -64.416672 -67.131004 -165.74161 -78.590919 -120.92391 0.05006912 -134.26767
27502000000 -36.964924 -58.914425 -61.777397 -176.28906 -75.812943 -23.91275 0.043573305 -134.41493
27503000000 -37.277969 -52.215641 -64.004417 -160.6544 -79.638382 -74.302544 0.042582184 -134.53761
27504000000 -37.633854 -45.467758 -63.198853 -130.7491 -70.779953 10.105098 0.051708683 -134.65477
27505000000 -37.820648 -36.780502 -62.871239 -135.03932 -76.082016 -29.618645 0.046865694 -134.79495
27506000000 -37.88232 -28.778221 -64.568146 -151.14581 -74.778618 12.331867 0.042457405 -134.90926
27507000000 -37.617626 -21.009556 -62.632034 -179.82086 -90.73304 60.753605 0.048388846 -135.04169
27508000000 -37.412479 -12.192486 -63.592983 -154.88402 -77.656677 111.83118 0.050354313 -135.17383
27509000000 -36.843853 -6.7272563 -65.701454 -153.49612 -74.354149 -30.05868 0.049397044 -135.29059
27510000000 -36.223419 -0.80272716 -63.647507 -163.00853 -75.556938 -2.090508 0.049127322 -135.4245
27511000000 -35.505138 4.9502287 -61.658413 -167.70741 -79.946564 -69.937164 0.050883189 -135.56001
27512000000 -34.860329 8.2728386 -60.83382 -159.38237 -74.34243 -149.15619 0.055319473 -135.66998
27513000000 -34.076195 12.0515 -61.494347 -157.82997 -85.954437 -175.76448 0.048133362 -135.78558
27514000000 -33.345955 14.11392 -62.818302 -154.56046 -83.030327 -66.402023 0.049423069 -135.97874
27515000000 -32.707138 16.625198 -60.58094 -157.25214 -73.558479 -53.399857 0.05693705 -136.06062
27516000000 -32.007908 18.737923 -59.972294 -169.75563 -82.887329 -13.152015 0.052603912 -136.21416
27517000000 -31.432764 19.922939 -59.86145 -155.53371 -75.124062 23.458332 0.053126313 -136.30492
27518000000 -30.870569 20.647366 -61.103939 -163.51793 -73.208069 -118.90031 0.052508324 -136.44792
27519000000 -30.316187 21.710062 -60.929604 177.03003 -68.915283 -131.57793 0.052178439 -136.57355
27520000000 -29.72826 22.285017 -62.42588 -154.37265 -74.315857 -99.9869 0.03957624 -136.71033
27521000000 -29.326048 23.052286 -61.453846 -170.54794 -83.665779 83.868584 0.042688731 -136.84343
27522000000 -28.703596 23.628632 -61.233738 -178.26913 -76.689156 -167.68509 0.042249639 -136.98198
27523000000 -28.325941 23.504576 -63.120014 -166.65569 -76.762421 -48.125935 0.04284789 -137.14304
27524000000 -27.91584 23.626957 -61.585838 -170.04379 -79.407143 -35.889465 0.040635943 -137.27292
27525000000 -27.523216 23.290369 -60.488018 -165.13622 -78.576317 -24.912794 0.035463098 -137.32336
27526000000 -27.172102 23.578251 -59.415195 -179.8793 -73.737167 -48.196293 0.043709118 -137.54475
27527000000 -26.755733 23.704586 -60.25782 178.61647 -83.545265 146.00775 0.050238673 -137.69112
27528000000 -26.408642 23.521364 -60.863914 -169.76712 -75.042786 -1.3856418 0.045182947 -137.81055
27529000000 -26.087423 22.444923 -58.855682 -178.80048 -72.549843 -55.020187 0.035827093 -137.87463
27530000000 -25.665396 22.292442 -60.498264 -169.09938 -73.049904 -55.171799 0.042235527 -138.02942
27531000000 -25.329193 22.156218 -63.774059 175.17001 -75.128746 -49.495487 0.035088778 -138.18547
27532000000 -25.038406 21.688246 -61.926609 -179.45462 -71.09716 -80.982574 0.041885864 -138.36826
27533000000 -24.731354 21.361162 -59.802776 166.45914 -70.833885 -30.132414 0.032389112 -138.50067
27534000000 -24.525139 20.804443 -59.657948 169.69316 -69.108238 -48.78392 0.037865702 -138.63382
27535000000 -24.278318 19.853403 -62.252258 -176.90788 -68.784538 -97.966438 0.034906898 -138.74739
27536000000 -23.99165 19.140537 -62.473694 160.16066 -82.096085 40.45023 0.034043856 -138.87132
27537000000 -23.688208 18.884544 -59.294899 165.40257 -76.464592 -58.514961 0.031741906 -138.97691
27538000000 -23.479008 18.429598 -58.557537 175.01846 -73.624054 -94.360268 0.024945209 -139.13528
27539000000 -23.237223 17.901102 -59.79702 -177.3022 -73.464394 -37.345909 0.03913207 -139.3279
27540000000 -22.981201 17.228497 -58.816067 -176.35902 -70.050255 -80.450302 0.032208424 -139.42992
27541000000 -22.752747 16.424021 -58.56599 -171.29553 -79.503731 -6.2079706 0.031466004 -139.55086
27542000000 -22.536026 15.477244 -60.60091 -176.47542 -79.664085 -6.8388019 0.031519908 -139.69415
27543000000 -22.33902 14.545894 -59.73724 170.24095 -72.51136 -48.500465 0.03252602 -139.85936
27544000000 -22.167812 13.698469 -59.502659 170.203 -72.548027 -13.245891 0.025529388 -139.97687
27545000000 -21.984236 13.121905 -58.762726 173.37296 -71.276306 0.50123304 0.023163011 -140.11717
27546000000 -21.766056 12.414602 -59.815704 168.12486 -72.094307 -17.885275 0.028228702 -140.32649
27547000000 -21.548454 11.727155 -59.005878 176.65163 -72.869339 -8.6888542 0.031601768 -140.47701
27548000000 -21.405863 10.854093 -58.319355 175.14003 -71.839386 -21.515213 0.02557715 -140.58247
27549000000 -21.201456 9.8132906 -59.281982 172.75418 -77.066544 -21.337908 0.027675685 -140.73129
27550000000 -21.023033 8.9266768 -59.812969 -172.2245 -74.038605 -54.857128 0.024475127 -140.83823
27551000000 -20.899216 7.8971367 -59.244797 155.58208 -74.526062 -45.235363 0.024174763 -140.98294
27552000000 -20.780394 6.807281 -58.093662 155.08612 -75.531273 -91.944405 0.034113657 -141.13014
27553000000 -20.620701 5.921885 -59.053001 163.73569 -71.073761 -89.785324 0.027766235 -141.29199
27554000000 -20.450771 4.9765077 -60.810703 170.39684 -73.41024 -54.512291 0.031952761 -141.4299
27555000000 -20.30195 3.8340187 -57.401924 164.71655 -73.718506 -71.523071 0.026618147 -141.55199
27556000000 -20.157045 2.8800426 -58.213787 165.27367 -80.98204 -110.8247 0.028485082 -141.71724
27557000000 -20.024092 1.8105237 -59.30611 152.36536 -72.919243 -99.273575 0.037884504 -141.9205
27558000000 -19.892906 0.69072866 -57.425568 157.96617 -82.14093 -92.031906 0.027169785 -142.04251
27559000000 -19.767498 -0.3786509 -58.910492 166.07968 -72.210609 -33.766373 0.02882682 -142.16667
27560000000 -19.648062 -1.595329 -60.782429 158.50005 -70.997818 -23.593596 0.028687716 -142.30539
27561000000 -19.516628 -2.5662475 -58.075546 160.08972 -79.836235 132.96759 0.030641474 -142.43996
27562000000 -19.431234 -3.7142501 -56.69453 155.99196 -73.69754 -103.54192 0.036219116 -142.59511
27563000000 -19.29731 -4.9024591 -59.21624 156.56131 -70.580925 -74.818756 0.030754728 -142.7507
27564000000 -19.197956 -6.160542 -58.984997 151.0735 -68.958054 -83.284309 0.041304529 -142.87454
27565000000 -19.113518 -7.1753078 -58.950859 146.36592 -71.006989 -86.468704 0.038073242 -143.00108
27566000000 -19.027973 -8.4823942 -57.795902 159.99031 -88.626747 59.924099 0.040878952 -143.18367
27567000000 -18.902575 -9.9658442 -58.572792 160.28929 -81.210686 25.286886 0.037236083 -143.358
27568000000 -18.827925 -11.088102 -57.096245 148.91716 -72.562752 -60.072239 0.032580931 -143.49022
27569000000 -18.765068 -12.430601 -57.926254 146.44096 -77.720192 -110.57825 0.037763756 -143.63441
27570000000 -18.665493 -13.775356 -57.530704 154.37892 -75.671631 -53.167347 0.041865129 -143.78835
27571000000 -18.547716 -15.073572 -57.240513 155.49925 -73.717377 -15.502016 0.040348496 -143.93872
27572000000 -18.512331 -16.482147 -58.053417 153.53276 -68.803459 -70.173409 0.036929499 -144.09221
27573000000 -18.453152 -17.990925 -58.42733 154.067 -72.53418 -54.178898 0.04265717 -144.19304
27574000000 -18.390478 -19.443438 -57.375156 154.28584 -72.543045 -81.775734 0.043893173 -144.34058
27575000000 -18.361578 -20.954342 -56.294491 153.77316 -73.194351 -116.22344 0.044113737 -144.47391
27576000000 -18.290157 -22.471569 -56.901455 142.3705 -75.398735 -67.350288 0.043277245 -144.64668
27577000000 -18.276077 -24.049538 -57.667305 145.57144 -77.861359 -8.3239632 0.039443798 -144.76056
27578000000 -18.194473 -25.555628 -56.089615 146.64139 -70.750664 -40.286209 0.029696302 -144.94669
27579000000 -18.180407 -27.24711 -56.705296 156.39464 -70.896812 -89.957016 0.039574672 -145.06985
27580000000 -18.153469 -28.888668 -57.307117 151.74377 -77.645103 -85.475639 0.039588634 -145.17885
27581000000 -18.154449 -30.481249 -57.100357 140.18184 -76.79158 -90.468575 0.040897895 -145.33606
27582000000 -18.174356 -32.222454 -56.742474 145.66457 -74.786789 -155.10185 0.04372086 -145.48331
27583000000 -18.158583 -33.994823 -55.92276 143.07956 -68.884521 -47.171551 0.037529401 -145.64226
27584000000 -18.156658 -35.625011 -55.999866 144.05309 -76.608757 -44.3484 0.034001917 -145.81105
27585000000 -18.194628 -37.524273 -55.181538 142.6713 -69.127106 -73.200249 0.042186525 -146.00133
27586000000 -18.220375 -39.537518 -55.089287 138.32925 -81.163597 -11.824182 0.036865737 -146.12805
27587000000 -18.259815 -41.271133 -56.456398 132.39902 -78.024162 -72.773544 0.038500201 -146.2516
27588000000 -18.343353 -43.150188 -55.885876 140.48637 -65.897575 -81.548515 0.037993629 -146.38843
27589000000 -18.442091 -44.977375 -56.025581 133.60202 -65.227089 -94.543243 0.035963539 -146.51222
27590000000 -18.515499 -47.044186 -56.169151 137.9395 -69.097633 -80.574997 0.036835983 -146.66841
27591000000 -18.654066 -48.775032 -55.969177 130.95677 -65.826508 -104.44872 0.035542648 -146.84718
27592000000 -18.80899 -50.388401 -55.368694 126.05278 -68.559807 -96.550697 0.031517778 -147.03374
27593000000 -19.005245 -52.03492 -55.029659 137.64056 -68.779984 -71.200256 0.030929588 -147.16507
27594000000 -19.233025 -53.535339 -56.249226 135.82755 -67.944748 -78.106743 0.033651736 -147.29868
27595000000 -19.405556 -54.932266 -55.516258 135.41733 -74.100044 -75.610641 0.034803603 -147.43475
27596000000 -19.632778 -55.96637 -55.459034 138.10309 -70.51886 -138.10342 0.028629499 -147.55591
27597000000 -19.828915 -56.775997 -55.221592 136.334 -66.08371 -91.358276 0.025722338 -147.75656
27598000000 -20.020754 -57.52026 -55.306339 132.38699 -66.647202 -110.03538 0.024845991 -147.92395
27599000000 -20.251482 -57.747009 -55.977921 133.56169 -68.960228 -112.33485 0.020599656 -148.04424
27600000000 -20.375782 -58.398609 -54.946308 132.41194 -68.211769 -113.68457 0.018611997 -148.26895
27601000000 -20.478905 -58.738678 -55.371807 136.15125 -72.990623 -74.520462 0.025648305 -148.40121
27602000000 -20.604586 -58.8741 -54.330082 133.15536 -67.497673 -84.070374 0.022126097 -148.54819
27603000000 -20.714794 -59.392525 -55.032936 124.32779 -68.705399 -95.683968 0.018299097 -148.72795
27604000000 -20.774542 -59.844433 -55.610153 121.96233 -69.901299 -117.72221 0.014803408 -148.88939
27605000000 -20.843573 -60.28907 -54.956173 124.04186 -72.655304 -92.281448 0.018856561 -149.0681
27606000000 -20.909403 -60.646629 -54.257183 126.88885 -70.264008 -59.840488 0.024774205 -149.23474
27607000000 -21.003155 -61.378159 -54.098728 131.72769 -70.731689 -103.28704 0.022292091 -149.38284
27608000000 -21.097115 -62.314533 -53.191917 122.9014 -67.605713 -109.95563 0.013181807 -149.55577
27609000000 -21.193701 -63.135956 -54.652836 119.78587 -69.813728 -104.97475 0.011052255 -149.71826
27610000000 -21.295536 -63.893055 -54.484123 125.467 -74.302277 -51.473766 0.0092336359 -149.89841
27611000000 -21.411907 -64.653107 -53.849533 117.61028 -74.04081 -55.998074 0.0096193422 -150.04172
27612000000 -21.513571 -65.462692 -54.052647 117.02033 -67.449821 -63.020004 0.013647701 -150.26813
27613000000 -21.602228 -66.346237 -53.823959 123.13536 -67.882317 -84.425514 0.015143543 -150.45192
27614000000 -21.759579 -66.860817 -53.923397 115.24787 -70.008881 -107.0003 0.014921802 -150.5755
27615000000 -21.887012 -67.531342 -53.910191 119.72036 -67.916748 -106.24684 0.015766876 -150.76204
27616000000 -22.068914 -68.140945 -54.042858 117.26888 -65.156853 -120.07307 0.012822178 -150.92508
27617000000 -22.288172 -68.559601 -53.512688 114.16868 -63.750839 -101.4633 0.012767193 -151.12366
27618000000 -22.442982 -69.173737 -53.459377 115.66235 -69.255753 -95.754059 0.01339485 -151.29022
27619000000 -22.592331 -69.576942 -52.8269 111.85146 -68.051308 -130.9873 0.0091447923 -151.4416
27620000000 -22.806263 -69.513786 -53.093235 112.13479 -67.122734 -106.32011 0.0073605464 -151.61653
27621000000 -22.967886 -69.721321 -52.122643 113.40134 -68.292824 -91.713837 0.010163863 -151.81575
27622000000 -23.148108 -69.882866 -53.204094 115.42626 -70.647667 -97.074814 0.016195141 -152.03932
27623000000 -23.322664 -69.698326 -53.715149 112.48952 -68.104538 -112.60165 0.0070725251 -152.24124
27624000000 -23.500408 -69.461723 -53.40979 110.25677 -72.358475 -85.056664 0.018403396 -152.40738
27625000000 -23.705345 -68.735626 -53.076714 111.43181 -70.23378 -66.874168 0.0094367368 -152.53026
27626000000 -23.861536 -68.537384 -52.654079 111.32775 -68.521759 -92.360977 0.01372558 -152.73727
27627000000 -24.052816 -67.738991 -52.625683 111.21545 -66.925011 -102.90999 0.0090985699 -152.93112
27628000000 -24.16017 -66.946175 -53.019257 104.00217 -68.081032 -74.008995 0.013738537 -153.12645
27629000000 -24.28956 -66.405769 -51.861423 109.42581 -66.953812 -128.84644 0.0083297854 -153.3087
27630000000 -24.406065 -65.741508 -52.900864 106.46622 -74.867043 -129.32265 0.0091322856 -153.48979
27631000000 -24.468767 -64.771393 -52.415581 106.13847 -66.408379 -105.13405 0.010895789 -153.65247
27632000000 -24.533657 -63.917156 -51.319939 106.12211 -71.054237 -100.87119 0.0095905596 -153.80473
27633000000 -24.563448 -62.792759 -51.667427 107.43104 -66.415947 -116.92735 0.013005482 -154.03183
27634000000 -24.557419 -61.835323 -51.472477 105.48609 -65.825302 -116.67012 0.0077422233 -154.21666
27635000000 -24.553429 -61.001198 -51.726276 102.87046 -67.399872 -98.86203 0.0088959178 -154.3524
27636000000 -24.548225 -60.279739 -51.145367 103.51947 -67.938599 -136.09636 0.0081551047 -154.58099
27637000000 -24.543802 -59.36541 -51.632725 104.70564 -61.683285 -118.71713 0.002622507 -154.79433
27638000000 -24.570553 -58.642113 -51.217976 105.20399 -66.399429 -105.06416 0.012261523 -154.95018
27639000000 -24.500507 -58.02639 -52.019165 99.15419 -67.350281 -124.66616 0.0090552028 -155.17755
27640000000 -24.452183 -57.446125 -51.505623 106.78265 -64.108002 -89.394531 0.0066960924 -155.3575
27641000000 -24.381189 -57.099785 -51.040997 100.2893 -69.243973 -110.43833 0.0071871462 -155.54939
27642000000 -24.272551 -56.419113 -50.600708 96.156303 -66.946136 -102.2243 0.0011927524 -155.72079
27643000000 -24.217216 -56.051857 -50.3727 94.073479 -65.86985 -102.61025 0.0020634918 -155.89824
27644000000 -24.166378 -55.927425 -50.251072 93.286049 -65.3424 -101.33451 0.008336857 -156.11682
27645000000 -24.120718 -55.604591 -49.731487 92.010361 -67.590576 -112.89125 0.0024039652 -156.35577
27646000000 -23.970486 -55.350578 -49.928574 96.486809 -65.362434 -90.271797 -1.3363015e-005 -156.52524
27647000000 -23.8916 -55.263271 -49.898914 96.944847 -64.072189 -116.083 -0.011085245 -156.68346
27648000000 -23.808039 -55.035187 -49.746422 94.735855 -63.819889 -110.70064 -0.0029072941 -156.89409
27649000000 -23.772755 -55.18409 -50.507202 90.56057 -62.692379 -106.89011 -0.0047008609 -157.12018
27650000000 -23.674124 -55.585258 -50.243996 90.865372 -71.165848 -103.94794 -0.003594897 -157.33751
27651000000 -23.598799 -55.811954 -50.490097 91.178528 -66.473885 -105.8055 -0.0085703395 -157.51361
27652000000 -23.519329 -56.02277 -50.35881 89.872116 -66.564529 -126.6925 -0.0092399213 -157.74797
27653000000 -23.460533 -56.037689 -49.793007 91.575645 -64.082047 -121.40669 -0.0021501936 -157.94795
27654000000 -23.393307 -55.986198 -49.809841 92.387573 -63.46703 -117.6797 -0.0043223053 -158.10289
27655000000 -23.320662 -56.481628 -49.422211 89.310699 -64.374657 -90.127815 -0.0077406042 -158.30832
27656000000 -23.231791 -56.783035 -49.573296 85.960472 -63.58168 -114.07884 -0.013534116 -158.53909
27657000000 -23.173521 -57.252602 -49.373234 84.414429 -64.377556 -113.00403 -0.01292262 -158.71094
27658000000 -23.15321 -57.750576 -49.245064 84.646149 -66.953262 -119.51585 -0.013038441 -158.92574
27659000000 -23.140255 -58.313835 -48.744492 84.87767 -63.104084 -106.00727 -0.016365563 -159.13734
27660000000 -23.139534 -58.671135 -49.042282 84.175079 -64.696381 -126.77875 -0.017029949 -159.35452
27661000000 -23.08029 -58.787937 -49.249989 83.534157 -67.202492 -131.88145 -0.014751223 -159.58942
27662000000 -23.034082 -59.338703 -48.737206 81.499634 -64.47319 -135.44347 -0.01792554 -159.83733
27663000000 -22.939907 -59.860523 -48.586914 77.302399 -63.292599 -121.36102 -0.01862308 -160.07745
27664000000 -22.921762 -60.308632 -48.011738 78.323654 -63.467964 -123.22459 -0.019852281 -160.25774
27665000000 -22.960066 -61.092709 -47.868385 79.67498 -63.253048 -127.53808 -0.023724677 -160.51709
27666000000 -22.868858 -61.512432 -48.544151 79.204735 -66.334946 -140.00412 -0.022258405 -160.69511
27667000000 -22.872549 -61.802734 -48.098057 78.885521 -62.449631 -130.45334 -0.031827357 -160.93513
27668000000 -22.870035 -62.416256 -48.00135 76.892998 -61.758663 -148.3983 -0.025736749 -161.1638
27669000000 -22.847847 -62.943935 -47.765442 76.495239 -61.185726 -122.39622 -0.034114148 -161.35017
27670000000 -22.826483 -63.521301 -47.657642 76.662209 -63.127068 -123.47002 -0.028571708 -161.62236
27671000000 -22.812403 -64.188324 -47.61377 75.988297 -64.700691 -122.7482 -0.027663086 -161.8591
27672000000 -22.796791 -64.828575 -47.641094 73.117401 -64.436157 -110.59396 -0.030394221 -162.05647
27673000000 -22.854393 -65.179031 -47.130005 70.265755 -65.582169 -110.56967 -0.029436186 -162.32167
27674000000 -22.854271 -65.995872 -47.004131 71.354362 -63.225811 -138.15749 -0.030228933 -162.58154
27675000000 -22.837669 -66.263268 -47.275425 70.968925 -63.487793 -142.40285 -0.029670777 -162.76157
27676000000 -22.813538 -66.780457 -46.647152 71.264275 -63.125141 -148.61903 -0.03087209 -162.95308
27677000000 -22.795546 -67.478271 -47.023911 69.347176 -61.616322 -124.26752 -0.035062343 -163.16992
27678000000 -22.76475 -68.107216 -46.933613 67.923058 -62.314857 -127.39042 -0.032877423 -163.40218
27679000000 -22.804359 -68.807533 -46.663425 67.382263 -63.142754 -118.60607 -0.03008957 -163.67297
27680000000 -22.776606 -69.398041 -46.345879 67.433006 -62.831127 -127.00414 -0.031693056 -163.92216
27681000000 -22.767601 -70.072792 -46.390266 67.256516 -62.783131 -122.52435 -0.035524409 -164.19727
27682000000 -22.767065 -70.793922 -46.396576 65.255196 -64.655144 -126.32224 -0.023627972 -164.43317
27683000000 -22.759977 -71.532593 -46.101681 66.932419 -64.53344 -126.88195 -0.032816432 -164.63861
27684000000 -22.789124 -72.139473 -45.91217 63.4963 -64.866592 -139.76607 -0.030808177 -164.8902
27685000000 -22.757219 -72.950935 -45.48484 62.263527 -61.613422 -132.01607 -0.029068431 -165.08928
27686000000 -22.727749 -73.770546 -45.834324 65.363945 -62.517464 -135.64037 -0.035126902 -165.33089
27687000000 -22.707552 -74.452835 -45.218731 63.228558 -59.217518 -126.15306 -0.034890689 -165.57265
27688000000 -22.701094 -75.31385 -45.326618 61.125202 -61.935585 -127.13115 -0.03084988 -165.83784
27689000000 -22.648365 -76.077927 -44.968418 58.05854 -62.307976 -125.28198 -0.030210294 -166.08025
27690000000 -22.676622 -76.676346 -45.421696 61.228657 -61.095943 -143.07564 -0.032076236 -166.28133
27691000000 -22.649874 -77.716789 -44.996101 58.081356 -61.226963 -144.64514 -0.033076119 -166.53847
27692000000 -22.628067 -78.640198 -44.915413 56.369789 -61.043934 -142.28812 -0.031425674 -166.77362
27693000000 -22.600815 -79.659966 -44.757946 56.161392 -60.309341 -148.45819 -0.02938574 -167.01015
27694000000 -22.589384 -80.569649 -44.623692 55.645702 -63.442268 -141.92854 -0.028955407 -167.25569
27695000000 -22.590498 -81.461418 -44.470119 53.102554 -62.822857 -136.28192 -0.033624612 -167.50832
27696000000 -22.55525 -82.619339 -44.484646 54.352009 -61.091957 -156.11957 -0.025235659 -167.78749
27697000000 -22.516991 -83.658257 -44.352585 53.855717 -61.67868 -149.52982 -0.039195225 -168.03743
