!Keysight Technologies,N5234A,MY55441357,A.10.47.05
!Date: Sunday, November 19, 2017 13:22:43
!Correction: S11(Full 2 Port(1,2)) 
!S21(Full 2 Port(1,2)) 
!S12(Full 2 Port(1,2)) 
!S22(Full 2 Port(1,2)) 
!S2P File: Measurements: S11, S21, S12, S22:
# Hz S  dB   R 50
27500000000 -36.596058 -79.323151 -75.487625 -80.429314 -79.880379 -95.219238 0.06376373 -116.63358
27501000000 -37.565903 -75.158493 -74.980392 122.50559 -80.534447 -13.091125 0.070893407 -116.71221
27502000000 -38.286469 -68.78186 -80.157845 128.7381 -80.764038 141.42462 0.060916562 -116.81857
27503000000 -38.760654 -60.608852 -82.888741 -26.05809 -77.931908 -54.170715 0.065064698 -116.88269
27504000000 -39.141197 -52.182362 -71.614326 -96.562546 -68.21051 43.613472 0.065786853 -116.90759
27505000000 -39.530449 -41.780407 -72.693069 -106.24464 -84.470238 -160.78569 0.066083722 -117.02621
27506000000 -39.498066 -30.830713 -74.008873 136.76071 -75.803108 -153.89333 0.065042965 -117.11518
27507000000 -39.073811 -21.414726 -74.333199 178.27148 -87.119576 127.32272 0.068046875 -117.18232
27508000000 -38.579121 -13.560368 -78.190544 -120.75062 -80.954597 -70.753342 0.06948866 -117.2485
27509000000 -37.849873 -6.9789643 -72.846657 -27.907469 -72.070351 -134.08084 0.075047031 -117.30216
27510000000 -37.072784 -0.13140081 -81.103096 3.9188313 -80.846504 31.228592 0.066840664 -117.39119
27511000000 -36.284058 5.7912884 -77.898926 77.446564 -73.428146 -127.71281 0.068051331 -117.47983
27512000000 -35.649742 7.9881916 -68.16053 -108.14397 -78.944649 -55.981995 0.076369241 -117.53152
27513000000 -34.668507 10.841893 -76.120087 15.809817 -77.37291 -49.871597 0.067624383 -117.62053
27514000000 -33.874748 14.144837 -68.975609 14.48866 -77.019547 71.112984 0.072187006 -117.71542
27515000000 -33.170979 15.085269 -76.464561 140.12209 -85.996986 163.37981 0.07498391 -117.73
27516000000 -32.513912 17.49247 -80.422112 123.58318 -79.28907 175.00507 0.07632865 -117.81497
27517000000 -31.878353 18.403345 -86.520905 -30.176327 -72.840813 -120.82574 0.076059707 -117.9194
27518000000 -31.197468 18.559681 -84.70668 17.975683 -68.615372 -128.73946 0.078795627 -117.97356
27519000000 -30.625969 19.23876 -82.732452 -130.22231 -77.201355 -63.567322 0.075314619 -118.03805
27520000000 -30.151711 19.6791 -78.184418 22.724401 -74.777313 108.14443 0.069191612 -118.10327
27521000000 -29.620703 20.601025 -77.416069 -157.11732 -74.008865 165.84917 0.069374263 -118.24724
27522000000 -29.10393 20.465506 -73.131996 106.02324 -72.411278 16.519674 0.068771064 -118.27547
27523000000 -28.622852 20.824905 -69.823181 71.140923 -79.938316 -40.010708 0.066979177 -118.35197
27524000000 -28.157337 20.967203 -72.073402 -145.6075 -82.474823 -78.75631 0.067644589 -118.43499
27525000000 -27.755615 20.255877 -82.085228 140.38223 -76.420731 -50.042332 0.068449549 -118.47997
27526000000 -27.405712 20.173508 -81.007309 94.911446 -73.116417 37.320347 0.069247186 -118.61551
27527000000 -26.955139 20.395876 -75.717827 -176.10381 -77.490959 -165.17496 0.074121781 -118.68966
27528000000 -26.626005 19.936857 -77.223076 -114.2655 -78.83445 129.7428 0.072903477 -118.7598
27529000000 -26.218588 18.984528 -81.319221 -100.0754 -71.503731 -30.930969 0.069278777 -118.79469
27530000000 -25.880766 18.865742 -83.572052 112.35867 -81.165306 -54.812286 0.068262175 -118.8791
27531000000 -25.512207 18.465763 -81.610382 -137.32289 -77.809532 -133.80455 0.071094923 -118.99337
27532000000 -25.202803 18.229292 -73.985519 167.95074 -77.644913 119.066 0.074397117 -119.10049
27533000000 -24.921061 17.909758 -77.8293 -149.57535 -75.326729 71.772369 0.066082567 -119.14651
27534000000 -24.707659 16.929522 -74.31974 154.75851 -77.931084 58.04557 0.066286668 -119.18188
27535000000 -24.454906 16.086781 -84.391541 115.92857 -73.605942 40.24263 0.063112304 -119.26449
27536000000 -24.113857 15.577069 -73.267075 141.68007 -72.107262 43.637905 0.06680356 -119.29295
27537000000 -23.880421 15.149428 -72.721588 146.45024 -88.044411 136.76192 0.063841201 -119.38271
27538000000 -23.653622 14.428766 -72.544937 148.3266 -79.277786 61.455685 0.072633296 -119.50201
27539000000 -23.422272 13.666114 -70.75959 125.98958 -72.558197 7.9212623 0.072856277 -119.62595
27540000000 -23.186684 12.990002 -77.948273 112.15725 -82.97683 -59.669373 0.068028256 -119.67843
27541000000 -22.95845 12.293023 -74.683029 -174.22888 -85.998726 -74.468452 0.066747725 -119.75211
27542000000 -22.700201 11.259852 -71.38208 175.65807 -72.152725 -71.272522 0.063511163 -119.8354
27543000000 -22.515753 10.255049 -71.604591 -75.921799 -84.25351 -72.679207 0.071553193 -119.90175
27544000000 -22.323019 9.5174913 -81.694618 -46.321529 -75.836868 -10.972472 0.065619096 -119.93344
27545000000 -22.1252 8.7009983 -80.240677 157.66837 -73.391647 -134.96237 0.060355328 -120.07928
27546000000 -21.93293 8.0641232 -79.789162 133.35515 -85.736649 -101.40211 0.063440233 -120.17957
27547000000 -21.741995 7.1314888 -74.55835 83.848824 -83.704582 172.11223 0.064896531 -120.25442
27548000000 -21.547131 6.4413157 -69.226509 106.97188 -73.09462 -172.63472 0.063090973 -120.29831
27549000000 -21.37718 5.4369335 -87.096855 149.2681 -75.082184 -162.59445 0.059509616 -120.37543
27550000000 -21.159378 4.3725677 -85.602753 -126.32272 -82.830391 -129.82918 0.059294991 -120.45417
27551000000 -21.05545 3.1258557 -73.225769 -62.281239 -76.129906 -39.716335 0.057395346 -120.53075
27552000000 -20.906044 2.3414528 -85.285179 -42.727791 -73.745285 -80.668396 0.061781369 -120.56853
27553000000 -20.792744 1.400714 -84.852829 -63.477005 -88.194008 -97.35479 0.059601471 -120.67519
27554000000 -20.594868 0.47728968 -78.38456 140.73358 -77.043274 -138.42189 0.062461484 -120.73029
27555000000 -20.446543 -0.61010009 -82.827652 132.09512 -96.784355 -85.688042 0.060124822 -120.83511
27556000000 -20.328888 -1.8379768 -75.846443 -3.167196 -77.539421 163.12494 0.067309946 -120.92329
27557000000 -20.187517 -3.0066609 -84.176331 69.035149 -77.589928 -166.80273 0.075752214 -121.01542
27558000000 -20.040506 -4.1726584 -74.479805 -73.166512 -78.596519 142.78218 0.064171277 -121.11468
27559000000 -19.909712 -5.1825161 -77.393387 -167.33521 -74.435661 150.2744 0.0621741 -121.15795
27560000000 -19.778849 -6.3255281 -79.79422 11.004884 -80.388283 -128.91525 0.066805184 -121.23692
27561000000 -19.637033 -7.4855194 -69.445641 15.260387 -86.567139 73.511818 0.065265656 -121.28568
27562000000 -19.530294 -8.5047588 -75.226242 -70.235611 -77.491997 -96.494034 0.060800783 -121.36972
27563000000 -19.45355 -9.9703608 -77.853554 -95.036964 -70.629959 -128.92105 0.067049257 -121.48244
27564000000 -19.324497 -10.989215 -77.973587 -150.29121 -82.136414 -29.491285 0.070002787 -121.55587
27565000000 -19.235947 -12.185852 -76.31781 124.77531 -79.626289 -13.569569 0.074265495 -121.63158
27566000000 -19.163248 -13.576164 -80.446953 -108.79742 -79.889709 -50.118145 0.076044567 -121.71233
27567000000 -19.041107 -15.046048 -78.228775 -135.26105 -89.115196 -31.774502 0.075639874 -121.75982
27568000000 -18.973585 -16.305361 -75.95665 -164.51398 -81.174889 -130.02708 0.06546706 -121.84148
27569000000 -18.874489 -17.661547 -72.341293 46.199677 -85.37719 52.406315 0.073083952 -121.92831
27570000000 -18.777588 -18.968901 -74.536079 -90.736206 -76.87056 153.02141 0.076883323 -122.05231
27571000000 -18.706427 -20.340336 -77.902161 -109.6626 -79.007133 140.95216 0.072581023 -122.11456
27572000000 -18.643299 -21.777834 -72.141602 -17.085026 -71.885513 -0.42701653 0.074360035 -122.19827
27573000000 -18.580162 -23.350216 -77.639587 171.68576 -80.264099 -93.000084 0.077893227 -122.24538
27574000000 -18.500046 -24.823139 -70.147186 172.5136 -77.998772 30.049547 0.082929485 -122.29155
27575000000 -18.472797 -26.276731 -87.582344 -169.91553 -79.676872 165.92209 0.08002872 -122.37103
27576000000 -18.435661 -27.871994 -78.469505 40.855652 -79.300484 44.488312 0.086266592 -122.43077
27577000000 -18.370306 -29.417025 -88.311691 -13.322834 -84.479301 142.89301 0.081017792 -122.49401
27578000000 -18.309732 -30.910219 -94.875771 -13.274713 -87.20372 -27.437185 0.070423074 -122.6005
27579000000 -18.275278 -32.748482 -79.713165 48.949051 -85.783638 -10.728315 0.084540516 -122.6527
27580000000 -18.26004 -34.418575 -71.52935 -110.06406 -85.403587 39.166561 0.083598681 -122.69334
27581000000 -18.237011 -35.990685 -73.045975 151.9072 -79.932251 -141.76593 0.080195747 -122.81135
27582000000 -18.222841 -37.720989 -75.092712 57.593925 -76.961212 151.77802 0.080620401 -122.87962
27583000000 -18.239611 -39.542439 -74.959305 71.858063 -95.131531 -165.06818 0.081368506 -122.92894
27584000000 -18.224525 -41.423607 -75.077049 -82.332962 -73.222595 -165.38031 0.083772153 -123.02084
27585000000 -18.244587 -43.245884 -91.924797 42.788231 -80.413651 -6.1489668 0.089809954 -123.16144
27586000000 -18.281008 -45.227921 -85.233475 -64.864761 -71.325996 -0.25166661 0.085395455 -123.1637
27587000000 -18.324091 -47.036358 -78.280891 120.09112 -73.150597 16.786299 0.080075443 -123.2235
27588000000 -18.395416 -48.942921 -80.734818 173.37675 -77.227058 -165.55173 0.08719898 -123.28878
27589000000 -18.475922 -50.929344 -78.915009 172.25362 -83.66362 -157.94759 0.082866609 -123.34651
27590000000 -18.560402 -52.783791 -74.872612 -160.86343 -76.819595 -18.581409 0.085005037 -123.4048
27591000000 -18.65646 -54.719913 -83.824348 -78.106377 -79.343346 42.338585 0.088072129 -123.46388
27592000000 -18.777378 -56.560909 -86.619728 3.3773606 -75.956375 149.92815 0.080053896 -123.58701
27593000000 -19.00589 -58.245949 -75.192047 -7.2562342 -79.962555 -168.63181 0.08455991 -123.65607
27594000000 -19.20702 -59.720634 -75.972519 -16.573454 -74.267357 71.530914 0.088485487 -123.69583
27595000000 -19.413904 -61.15884 -72.904068 154.60208 -75.851143 -73.95359 0.079490386 -123.75059
27596000000 -19.629894 -62.28421 -80.952362 156.73553 -71.405449 -110.89191 0.081076264 -123.81841
27597000000 -19.817574 -63.254581 -83.178719 57.395428 -77.606857 -147.6091 0.077241488 -123.87507
27598000000 -20.046551 -63.929382 -71.951714 15.587542 -85.243782 70.061905 0.073508784 -123.94669
27599000000 -20.233728 -64.281097 -79.69416 144.97855 -77.157669 130.33125 0.07668405 -123.9895
27600000000 -20.353363 -64.693466 -71.935242 122.07584 -77.59201 111.38153 0.06983117 -124.12324
27601000000 -20.483034 -65.03656 -72.067039 160.26001 -73.053253 -80.816566 0.078182481 -124.21394
27602000000 -20.592897 -65.340263 -72.93602 171.27911 -78.795494 -118.60016 0.082865275 -124.25538
27603000000 -20.638926 -65.764801 -83.755013 162.13699 -79.081383 -58.307182 0.071995273 -124.32148
27604000000 -20.748812 -66.036934 -82.667564 -45.044865 -71.067581 -146.05072 0.073096626 -124.40344
27605000000 -20.785999 -66.588676 -72.283157 65.344315 -82.764114 161.30034 0.069325835 -124.48753
27606000000 -20.838472 -67.070526 -76.920456 95.743172 -77.872971 -29.897289 0.074261814 -124.59426
27607000000 -20.891644 -67.831718 -83.933975 166.47412 -83.138802 104.33763 0.072171986 -124.62363
27608000000 -20.975073 -68.631081 -82.807648 21.284021 -78.079002 6.4713264 0.06559892 -124.69814
27609000000 -21.055449 -69.560562 -78.181694 176.20447 -93.191788 133.61105 0.06636931 -124.80016
27610000000 -21.122179 -70.411316 -78.442589 108.701 -77.733383 156.68547 0.062890545 -124.86797
27611000000 -21.230494 -71.115723 -79.581589 -3.2637506 -73.800606 -96.719627 0.067296371 -124.93695
27612000000 -21.342203 -72.377914 -75.758636 -17.031439 -79.38987 -130.77338 0.07039801 -125.03404
27613000000 -21.415482 -73.261086 -74.258408 -71.082764 -84.239029 63.145836 0.073079288 -125.10348
27614000000 -21.546822 -73.998672 -75.072144 32.924603 -80.216293 -178.92195 0.067897327 -125.15763
27615000000 -21.668768 -74.665344 -76.978592 132.6382 -75.524361 126.01464 0.067822129 -125.2347
27616000000 -21.840637 -75.3909 -79.119484 168.59425 -79.556572 -163.05318 0.067822196 -125.27396
27617000000 -22.032726 -76.251785 -75.056702 68.614738 -76.549744 -171.93669 0.06322103 -125.37254
27618000000 -22.173134 -76.817085 -82.559875 17.025194 -91.994469 -14.788335 0.058614049 -125.44228
27619000000 -22.337311 -77.105873 -85.700798 -132.68413 -71.878136 70.480965 0.060703672 -125.47629
27620000000 -22.559893 -77.433563 -75.647873 179.39047 -90.515091 -128.75644 0.057360899 -125.58604
27621000000 -22.725811 -77.753662 -84.233627 161.76894 -85.67453 -116.91969 0.063907497 -125.67104
27622000000 -22.909489 -78.142403 -73.227455 165.58981 -80.426712 173.94077 0.065014012 -125.77224
27623000000 -23.073109 -78.192551 -74.201988 118.77617 -93.450905 111.59309 0.06280227 -125.86671
27624000000 -23.286413 -78.076126 -77.10392 -176.21687 -87.362061 -115.32729 0.063133568 -125.94635
27625000000 -23.481352 -77.786285 -80.850693 -6.4806266 -75.946442 136.44849 0.063526139 -125.96786
27626000000 -23.682375 -77.363152 -73.959961 76.084518 -73.309875 -8.0795317 0.061257854 -126.02982
27627000000 -23.889603 -76.998047 -79.541618 -86.945488 -83.290634 -3.5514483 0.063345067 -126.17078
27628000000 -24.063622 -76.251953 -76.428268 35.720787 -78.35067 -83.043457 0.062598884 -126.2616
27629000000 -24.193445 -76.007446 -70.089706 -43.535316 -75.3452 -42.470642 0.067413278 -126.32664
27630000000 -24.32774 -75.179802 -72.411285 -74.518555 -82.742332 -37.329811 0.07015346 -126.39503
27631000000 -24.42919 -74.326294 -74.572304 160.19756 -71.559013 -24.704258 0.064316005 -126.43982
27632000000 -24.569902 -73.488075 -76.905441 12.865978 -82.515083 -131.25182 0.066051118 -126.51778
27633000000 -24.626793 -72.466331 -70.41304 -17.551373 -74.599785 156.28813 0.065316029 -126.60828
27634000000 -24.668266 -71.436249 -79.980042 102.57654 -78.305618 62.087814 0.064066924 -126.65231
27635000000 -24.644348 -70.836754 -78.148308 -100.27586 -76.261726 -158.39204 0.059482876 -126.70786
27636000000 -24.674809 -69.669945 -78.952461 4.1533566 -84.040321 106.53989 0.063035384 -126.82599
27637000000 -24.735126 -68.689209 -80.51255 85.290054 -80.963829 168.22626 0.058238175 -126.93038
27638000000 -24.791206 -67.901588 -76.478561 -25.184784 -74.969971 141.83318 0.071624361 -126.98793
27639000000 -24.754917 -67.219017 -71.747787 -17.583284 -79.46019 -41.903957 0.060396086 -127.07917
27640000000 -24.694035 -66.441231 -79.607735 59.485935 -74.093559 -39.578892 0.065667465 -127.15205
27641000000 -24.641022 -65.93792 -69.809647 -123.77396 -78.533249 -33.815449 0.063697778 -127.19579
27642000000 -24.527706 -65.413429 -87.185516 100.71317 -90.249084 -50.99424 0.064161949 -127.26839
27643000000 -24.47925 -64.741531 -91.369179 -10.313827 -86.268562 -50.183815 0.07030689 -127.31886
27644000000 -24.44121 -64.30439 -73.445503 -90.201256 -82.104919 -142.13051 0.071951389 -127.42285
27645000000 -24.372917 -63.962975 -77.710289 83.229118 -77.445724 45.676193 0.06857837 -127.52991
27646000000 -24.308872 -63.518661 -76.569283 32.764675 -71.909966 8.1928005 0.064816691 -127.60392
27647000000 -24.192789 -63.129581 -69.711357 -58.844929 -77.025955 -87.868477 0.062586494 -127.64774
27648000000 -24.097301 -62.766045 -75.424965 51.395611 -81.128502 -3.1241663 0.062415212 -127.7636
27649000000 -24.022217 -62.99358 -78.614471 16.668823 -81.969398 25.891607 0.065064825 -127.85914
27650000000 -23.907244 -63.157101 -71.903893 -20.363474 -77.577362 2.3329325 0.065270036 -127.91618
27651000000 -23.801989 -63.205486 -75.53241 -92.05162 -76.536652 89.617355 0.070324115 -127.99974
27652000000 -23.731941 -63.22982 -77.543198 -171.59464 -74.625053 31.664064 0.064498365 -128.09039
27653000000 -23.704647 -63.051369 -73.268333 44.321301 -78.597099 120.82341 0.07503587 -128.17625
27654000000 -23.610891 -63.2481 -74.212227 78.446632 -75.556244 98.720909 0.074987955 -128.2383
27655000000 -23.492853 -63.313675 -83.355179 65.094246 -76.670311 -105.78735 0.068748005 -128.2941
27656000000 -23.412762 -63.859653 -75.524979 71.908646 -78.891411 -30.658943 0.068961442 -128.38777
27657000000 -23.382122 -64.289764 -78.481346 -122.21984 -74.757309 -39.404255 0.062544063 -128.4218
27658000000 -23.333588 -64.846031 -88.343056 -112.47221 -73.589935 -54.153591 0.061120782 -128.51247
27659000000 -23.295361 -65.357872 -77.493546 -148.4052 -74.185692 29.752281 0.062676206 -128.60217
27660000000 -23.253481 -65.436829 -76.046356 19.844896 -87.778076 138.8141 0.0639906 -128.67342
27661000000 -23.223051 -65.65686 -87.221199 -31.652128 -101.35724 -177.88628 0.063843369 -128.80814
27662000000 -23.14579 -66.38501 -73.841774 -38.910213 -89.145149 136.60384 0.064752117 -128.88141
27663000000 -23.072765 -66.808426 -80.765961 -150.89528 -76.321907 -125.84266 0.057209499 -128.92053
27664000000 -23.022982 -67.400368 -72.393288 -123.47239 -76.237549 14.515388 0.060206141 -129.03557
27665000000 -23.04635 -68.013161 -83.843124 -70.987869 -86.277351 17.487972 0.063132308 -129.13342
27666000000 -23.002398 -68.576714 -88.819626 162.01057 -87.092354 45.989002 0.064591236 -129.19797
27667000000 -22.984043 -68.918518 -80.240982 140.28253 -88.25071 142.74747 0.055587549 -129.26929
27668000000 -22.934652 -69.512016 -77.927223 -148.07076 -73.856903 -161.02335 0.055467542 -129.37097
27669000000 -22.932396 -70.108467 -78.942314 22.98098 -86.546471 140.80695 0.050704684 -129.43321
27670000000 -22.910984 -70.840042 -83.646965 -103.95361 -77.366112 95.654381 0.05311501 -129.53024
27671000000 -22.863531 -71.684258 -87.724731 -42.881435 -85.477798 -33.136852 0.055812892 -129.6371
27672000000 -22.86533 -72.182861 -75.888817 -131.74063 -80.125801 32.386017 0.048168577 -129.73766
27673000000 -22.913826 -72.722603 -84.577499 -27.03322 -78.8517 102.1699 0.052249845 -129.83295
27674000000 -22.881414 -73.397179 -82.226067 -9.566741 -80.730499 -177.14203 0.054431498 -129.91441
27675000000 -22.886326 -74.038414 -78.016533 34.485054 -72.268799 -50.615295 0.049243782 -130.00211
27676000000 -22.877129 -74.797432 -71.787148 58.620911 -74.76255 -33.10844 0.051421516 -130.04408
27677000000 -22.822144 -75.457481 -73.558952 173.3063 -80.971718 16.876953 0.050718047 -130.11972
27678000000 -22.836823 -75.945076 -79.459831 -172.39835 -75.031113 33.185719 0.05451417 -130.17874
27679000000 -22.839516 -76.930115 -77.170883 -62.406708 -75.254204 6.4617362 0.061820678 -130.30005
27680000000 -22.860128 -77.760536 -78.804558 -113.77318 -92.096016 -48.399658 0.05321224 -130.37408
27681000000 -22.823095 -78.370628 -78.75518 32.496025 -86.064812 -132.66174 0.053131338 -130.47598
27682000000 -22.842022 -78.936996 -76.018852 -130.0641 -86.889282 -59.213539 0.051014982 -130.57047
27683000000 -22.843822 -79.801132 -70.80407 130.75882 -79.477882 -172.78513 0.056059614 -130.66
27684000000 -22.88344 -80.516624 -80.998169 -172.0925 -77.07193 -64.901917 0.053007182 -130.73323
27685000000 -22.823908 -81.400169 -75.170998 21.828606 -76.838432 120.63475 0.049347281 -130.80165
27686000000 -22.810745 -82.078964 -80.990021 -39.516518 -76.883278 -33.658649 0.054475736 -130.90482
27687000000 -22.814764 -82.799156 -81.499878 45.58131 -91.168663 76.282066 0.057376288 -130.94739
27688000000 -22.783606 -83.916138 -96.848557 31.420673 -74.305023 -39.215794 0.063517384 -131.03188
27689000000 -22.801018 -84.754066 -73.008537 55.152473 -79.22953 -14.687739 0.05941372 -131.10394
27690000000 -22.775082 -85.573097 -72.779221 73.89798 -80.147667 -23.824272 0.06413956 -131.18245
27691000000 -22.790066 -86.544479 -76.653381 64.326958 -85.909317 -99.738792 0.061514501 -131.30281
27692000000 -22.751947 -87.577652 -80.131615 -53.275352 -72.412567 -113.46254 0.063226797 -131.37663
27693000000 -22.76087 -88.468277 -70.408745 -24.30356 -71.103867 -105.28072 0.065881535 -131.43576
27694000000 -22.725407 -89.455284 -78.575752 -77.28714 -80.888451 -66.589035 0.063896403 -131.50113
27695000000 -22.726376 -90.617409 -81.493828 140.40378 -89.290749 6.9979658 0.063079737 -131.61705
27696000000 -22.709337 -91.60302 -80.783974 -45.599758 -90.331085 45.334515 0.060098503 -131.67514
27697000000 -22.68626 -92.571823 -78.594566 -22.041395 -81.166565 -176.23811 0.067844301 -131.74786
27698000000 -22.649334 -93.781639 -81.083923 -8.439064 -71.792534 -20.093277 0.070226103 -131.84888
