!Keysight Technologies,N5234A,MY55441357,A.10.47.05
!Date: Sunday, November 19, 2017 13:11:22
!Correction: S11(Full 2 Port(1,2)) 
!S21(Full 2 Port(1,2)) 
!S12(Full 2 Port(1,2)) 
!S22(Full 2 Port(1,2)) 
!S2P File: Measurements: S11, S21, S12, S22:
# Hz S  dB   R 50
27500000000 -35.000107 -69.548996 -72.487671 -11.413987 -76.462997 177.60104 0.0036750622 -120.69353
27501000000 -35.801552 -64.898064 -95.027863 145.37256 -81.979065 -75.195816 0.0091982661 -120.75952
27502000000 -36.314888 -60.18993 -77.253754 -108.71574 -89.144897 26.378677 0.0032823535 -120.85766
27503000000 -36.642345 -53.804886 -75.342812 -76.354416 -73.29789 -4.2265525 0.0090173865 -120.92635
27504000000 -37.160641 -46.479378 -75.638161 80.226654 -76.922829 -143.20804 0.014136715 -120.98772
27505000000 -37.294685 -38.461353 -72.923523 139.32251 -77.903831 -121.73075 0.007137828 -121.08133
27506000000 -37.31052 -29.522509 -84.626144 -126.77232 -74.227524 128.41145 0.0087805251 -121.17242
27507000000 -37.196239 -22.695185 -71.967522 -174.21423 -76.153374 86.811607 0.0070077828 -121.25216
27508000000 -36.857784 -15.290905 -79.388168 -171.58443 -76.008858 22.58742 0.0044301976 -121.30129
27509000000 -36.394386 -9.4593821 -85.354881 -65.20591 -80.31572 163.60919 0.0081128627 -121.37297
27510000000 -35.662525 -3.0433292 -74.448128 -51.292305 -69.026855 -74.99411 0.0095630847 -121.44305
27511000000 -35.160542 2.6572418 -72.546661 131.17044 -73.781776 -140.30882 0.0074876384 -121.54113
27512000000 -34.414589 5.0724282 -95.185287 31.848148 -77.994263 -86.720436 0.017742487 -121.59574
27513000000 -33.768307 9.2609615 -70.487526 144.78102 -82.36245 -58.041588 0.0081986673 -121.71303
27514000000 -33.149448 12.592127 -80.656662 -38.870144 -74.829422 152.70531 0.0069579566 -121.78695
27515000000 -32.596317 14.276867 -75.965591 -130.24089 -75.948776 108.3042 0.016596537 -121.80836
27516000000 -31.897947 16.604818 -79.214027 36.09663 -80.087097 47.130524 0.014632744 -121.90373
27517000000 -31.210848 17.300711 -87.776703 -105.06802 -74.707855 -175.44156 0.0098506259 -122.00498
27518000000 -30.717079 18.499933 -80.99041 -144.8174 -79.327156 40.642639 0.017874159 -122.08337
27519000000 -30.18092 20.19022 -76.522408 96.125618 -74.958832 30.517218 0.012339314 -122.12958
27520000000 -29.658249 20.270767 -80.700935 -179.931 -75.611389 -62.514175 0.0048543876 -122.2187
27521000000 -29.171534 21.016979 -88.912598 84.617554 -73.35434 -156.40334 0.010668823 -122.31635
27522000000 -28.699514 21.688799 -77.901848 145.80727 -75.734612 -166.64613 0.011582191 -122.38676
27523000000 -28.257227 22.422745 -82.291779 -131.07489 -86.872627 -41.135986 0.0085330773 -122.44019
27524000000 -27.812595 22.510042 -80.283493 78.85984 -80.164772 -84.573868 0.0070080487 -122.52782
27525000000 -27.418459 22.37114 -81.375496 39.859802 -71.493484 -82.690498 0.0020445895 -122.58963
27526000000 -27.040941 22.432741 -78.347412 -100.01173 -73.018951 -42.707802 0.0051982799 -122.71649
27527000000 -26.650995 22.665419 -72.495598 -79.343948 -83.69735 -148.86105 0.008510598 -122.79885
27528000000 -26.323652 22.575745 -78.287117 -1.7757523 -77.791611 76.95826 0.012791603 -122.91467
27529000000 -25.957689 21.419304 -81.293381 146.04306 -83.648796 35.250198 0.0083237812 -122.93832
27530000000 -25.581833 21.457685 -88.905327 161.73299 -84.912003 -110.26473 0.0088202218 -123.0065
27531000000 -25.258108 21.26099 -77.815918 -152.96492 -83.433365 -145.61282 0.008403739 -123.10101
27532000000 -24.939606 21.187822 -81.064133 150.65277 -73.268059 74.396339 0.010576736 -123.23089
27533000000 -24.685755 20.891207 -73.103447 90.65316 -81.024475 163.09265 0.0080106594 -123.2992
27534000000 -24.446049 20.055246 -76.918488 134.44017 -76.694405 -139.69476 0.0085542258 -123.36491
27535000000 -24.19154 19.191898 -76.84874 -158.66985 -82.381615 176.87224 0.0081284204 -123.42402
27536000000 -23.876934 18.796368 -73.455009 -75.815971 -74.030785 -165.77299 0.0073289638 -123.49492
27537000000 -23.587099 18.462713 -77.42025 123.13252 -77.857018 -23.824903 0.001633505 -123.57001
27538000000 -23.386873 17.838947 -71.326469 141.82803 -75.720238 -70.055916 0.003560205 -123.6589
27539000000 -23.157368 17.208961 -73.630753 142.67242 -78.884537 73.033806 0.010793315 -123.79054
27540000000 -22.91955 16.793228 -74.45443 1.1075145 -88.204201 -20.181202 0.0069474326 -123.86147
27541000000 -22.69805 16.172094 -73.741241 -36.705521 -78.882545 85.86734 0.009985433 -123.89962
27542000000 -22.461618 15.062452 -71.392311 -60.692127 -81.143684 -42.579002 0.011557764 -124.00906
27543000000 -22.259207 14.356262 -81.433952 -95.474236 -72.412422 -115.91354 0.012940151 -124.1045
27544000000 -22.100973 13.479772 -71.45578 18.353928 -72.180519 -35.713787 0.0027202617 -124.1705
27545000000 -21.928858 12.881763 -79.663834 68.027878 -78.625237 -144.80289 0.0015540842 -124.25823
27546000000 -21.70886 12.117566 -80.533073 30.594368 -75.233223 -18.117615 0.00011611536 -124.37086
27547000000 -21.505964 11.218335 -75.220436 -89.041 -75.671959 34.765991 0.0067517082 -124.47202
27548000000 -21.335108 10.528291 -71.426872 -160.20921 -80.640495 82.377167 0.0013113553 -124.56165
27549000000 -21.154465 9.6502151 -72.798615 -162.52783 -82.939362 15.357474 0.0016224202 -124.61343
27550000000 -20.990599 8.5510616 -85.092674 111.04659 -75.681839 47.222538 -0.0034479036 -124.66325
27551000000 -20.845726 7.7204199 -88.211586 78.909828 -77.959824 -146.55225 -0.00046521713 -124.77799
27552000000 -20.705221 6.7859802 -84.368919 -128.90617 -75.57618 125.69347 0.0052434467 -124.88793
27553000000 -20.586462 5.7976899 -73.667854 -161.76909 -92.938164 -150.73671 0.0030245618 -124.96844
27554000000 -20.407536 5.059948 -76.339188 101.924 -77.63707 117.00204 0.0019854414 -125.05541
27555000000 -20.266432 3.9455795 -83.758759 160.44435 -77.333153 -18.386532 0.0014867666 -125.1276
27556000000 -20.141226 2.8653464 -73.794151 -163.27354 -77.359848 20.683132 0.010870147 -125.1966
27557000000 -19.983393 1.5866959 -77.65374 137.07353 -85.537743 -58.738884 0.010193822 -125.31841
27558000000 -19.871204 0.59816515 -74.915794 151.03505 -73.00489 -164.20422 0.0030539404 -125.39692
27559000000 -19.737352 -0.53666258 -79.011452 -122.01437 -83.826866 -177.51956 0.0098106526 -125.47585
27560000000 -19.619932 -1.4862531 -81.305634 -50.820957 -72.506256 -81.434845 0.0069248336 -125.52664
27561000000 -19.503633 -2.5780456 -71.747765 -94.854881 -75.863663 -78.360123 0.0075681885 -125.58834
27562000000 -19.390301 -3.7467797 -84.206291 110.87997 -83.573135 141.81667 0.007187013 -125.67528
27563000000 -19.29574 -4.9174695 -92.867134 147.23642 -72.976868 -22.864307 0.012664597 -125.78348
27564000000 -19.183691 -6.1098824 -70.517242 -143.07585 -76.873856 106.97054 0.012301478 -125.85823
27565000000 -19.08967 -7.3233223 -89.268967 -47.629227 -78.977165 -14.821849 0.017031349 -125.9489
27566000000 -19.018908 -8.6297464 -78.471214 -140.3494 -83.220871 105.05489 0.01643892 -126.02493
27567000000 -18.894009 -10.07132 -78.46875 -147.01062 -73.274101 45.625137 0.015858898 -126.10213
27568000000 -18.812651 -11.183653 -73.78054 -173.11467 -74.560455 71.09771 0.008306928 -126.17477
27569000000 -18.74164 -12.558145 -77.533897 -47.261688 -76.38871 -48.238766 0.01615064 -126.26531
27570000000 -18.658178 -13.925348 -78.846687 149.91153 -77.960655 -56.29649 0.021224596 -126.39313
27571000000 -18.571913 -15.144474 -84.484589 163.19359 -86.122139 -110.8453 0.01732645 -126.45748
27572000000 -18.501675 -16.482315 -76.262032 -110.01917 -79.334831 -37.154556 0.01159609 -126.53106
27573000000 -18.479197 -18.058268 -85.356331 117.77824 -79.668823 122.80294 0.020337069 -126.59592
27574000000 -18.413109 -19.634821 -76.320465 -178.28192 -77.368073 -148.08482 0.02727817 -126.69177
27575000000 -18.373781 -21.018576 -80.746368 -79.126991 -76.453476 28.691292 0.022007797 -126.76093
27576000000 -18.338051 -22.477404 -77.781815 -55.142429 -74.606125 -115.07645 0.031218652 -126.8214
27577000000 -18.28513 -24.168226 -84.177223 51.580925 -76.530945 -41.531902 0.026139727 -126.90408
27578000000 -18.244755 -25.716194 -87.508667 -34.884735 -79.548973 108.93385 0.01769802 -127.01677
27579000000 -18.201017 -27.457899 -80.698822 2.0630279 -72.705452 99.97966 0.030844258 -127.04705
27580000000 -18.191704 -28.995378 -98.805237 -158.52296 -76.255898 -50.980167 0.03001208 -127.1202
27581000000 -18.183174 -30.461155 -76.332024 -98.649773 -81.612007 -12.599567 0.027793214 -127.23404
27582000000 -18.181002 -32.346416 -86.290611 1.7377892 -77.360054 148.63354 0.028072683 -127.30452
27583000000 -18.176826 -34.127384 -79.951187 37.9198 -73.304276 124.56786 0.0240083 -127.38525
27584000000 -18.202694 -35.849522 -74.420364 1.4327964 -74.308174 -111.49799 0.021054 -127.48664
27585000000 -18.206047 -37.802303 -72.41227 102.64896 -78.864716 112.53067 0.032465551 -127.59079
27586000000 -18.266832 -39.718601 -87.325691 -19.118139 -77.562729 88.43026 0.029258 -127.61208
27587000000 -18.308542 -41.609535 -73.757751 -0.84324974 -73.757935 125.62167 0.029818257 -127.68692
27588000000 -18.387297 -43.516174 -76.523521 10.957569 -85.050972 177.55804 0.030260552 -127.79955
27589000000 -18.468836 -45.427921 -77.26371 87.405701 -72.922997 -88.827957 0.023512974 -127.8569
27590000000 -18.559053 -47.405087 -73.441368 121.45153 -93.554024 88.845154 0.025145652 -127.92426
27591000000 -18.675516 -49.20956 -80.458031 4.8107595 -72.606735 -74.662743 0.028769623 -127.98265
27592000000 -18.847319 -50.849968 -73.886848 65.466011 -78.100578 162.19002 0.022125855 -128.08905
27593000000 -19.041933 -52.423622 -74.866547 -66.634674 -85.957489 107.52477 0.030567039 -128.13899
27594000000 -19.269428 -53.814934 -83.158661 -51.100838 -76.471107 -162.13742 0.030019607 -128.2159
27595000000 -19.4687 -55.08889 -78.857353 -119.41389 -73.149071 -137.15639 0.030074131 -128.27145
27596000000 -19.691095 -56.280468 -81.240738 -71.263855 -76.61557 -94.696503 0.022061339 -128.33127
27597000000 -19.880823 -57.180317 -84.099823 -126.95949 -75.009727 -79.079674 0.019598879 -128.41724
27598000000 -20.087196 -58.019993 -80.164169 140.34834 -77.43705 25.725248 0.020754401 -128.4791
27599000000 -20.286613 -58.315563 -72.069008 148.2728 -81.736343 2.5071445 0.015940562 -128.59381
27600000000 -20.414101 -58.684063 -75.450691 155.78345 -72.330498 9.1636782 0.013779542 -128.68089
27601000000 -20.530989 -59.12994 -74.592743 60.53096 -76.616798 -39.508144 0.020723734 -128.73686
27602000000 -20.658869 -59.263969 -75.036232 108.17175 -76.808678 -54.79723 0.026876327 -128.86203
27603000000 -20.731882 -59.652901 -77.657829 150.66228 -71.03212 88.436508 0.015779784 -128.91449
27604000000 -20.824621 -60.031536 -74.760033 -42.81319 -89.966812 -25.065044 0.014377351 -129.01563
27605000000 -20.870348 -60.502369 -84.583885 -47.793499 -74.966377 -113.46752 0.010611643 -129.13208
27606000000 -20.931511 -61.18885 -75.560844 150.72798 -77.533485 -129.88559 0.01399345 -129.22034
27607000000 -20.985247 -61.790043 -92.428581 74.684662 -77.70919 -32.926762 0.019808766 -129.25659
27608000000 -21.060879 -62.532669 -79.864105 154.6528 -79.820221 50.360748 0.015145899 -129.35431
27609000000 -21.174196 -63.545238 -90.615692 -5.7364678 -75.978096 -134.32805 0.011129445 -129.433
27610000000 -21.240629 -64.367538 -82.429207 -143.37419 -73.578499 177.58241 0.0076254043 -129.5482
27611000000 -21.365993 -64.985313 -75.202148 160.79753 -76.765686 93.325302 0.012305511 -129.61566
27612000000 -21.520426 -65.856064 -75.468506 -177.3916 -76.607521 45.507809 0.01854757 -129.724
27613000000 -21.593763 -67.034592 -71.375237 -124.90889 -78.210793 170.28413 0.013196583 -129.82918
27614000000 -21.746216 -67.611076 -77.140205 102.73996 -72.03923 -9.9637012 0.013493373 -129.87502
27615000000 -21.884617 -68.259636 -76.019997 -177.65012 -70.655373 17.17692 0.011243088 -129.9671
27616000000 -22.028509 -68.830002 -87.329712 -55.833374 -75.120422 142.58716 0.016925801 -130.01538
27617000000 -22.23506 -69.65963 -76.773537 -22.377829 -85.46402 92.006058 0.011937093 -130.13304
27618000000 -22.36042 -69.88176 -70.178131 15.523373 -73.445801 32.941238 0.0067007891 -130.21286
27619000000 -22.536057 -70.246147 -78.192825 158.69469 -78.176682 -51.959774 0.003926775 -130.2774
27620000000 -22.749998 -70.444862 -80.172005 -86.935211 -78.587326 58.4594 0.0060652462 -130.35767
27621000000 -22.925386 -70.464409 -76.18309 -42.627274 -87.3302 -101.43405 0.0049753664 -130.44904
27622000000 -23.158295 -70.977318 -73.065407 -86.823135 -71.925011 -135.70923 0.011071967 -130.57689
27623000000 -23.328287 -70.828293 -73.291969 169.36295 -95.661636 -56.42577 0.0060600671 -130.68187
27624000000 -23.525276 -70.337708 -72.626907 -38.50032 -77.365944 -8.8373051 0.007207531 -130.74379
27625000000 -23.680285 -70.077652 -97.692223 -107.96835 -75.214432 -1.1927713 0.001245532 -130.82402
27626000000 -23.883209 -69.642967 -74.869766 141.5517 -77.082214 7.2728181 -0.0012152466 -130.88315
27627000000 -24.071392 -69.025253 -75.131104 177.70653 -71.563377 32.796673 0.0070944321 -131.01891
27628000000 -24.214718 -68.229317 -77.716454 -99.169922 -87.608643 -87.945274 0.0088249138 -131.10316
27629000000 -24.317333 -67.580299 -71.306938 102.83766 -76.157845 34.025795 0.010084551 -131.17947
27630000000 -24.494621 -66.849335 -71.956047 -144.69325 -80.490181 162.25412 0.007613563 -131.27202
27631000000 -24.568701 -65.949043 -82.644844 178.40318 -76.111954 -111.93196 -0.00029274364 -131.31229
27632000000 -24.624561 -64.727013 -69.261581 -165.36266 -87.971504 167.03819 0.0075836158 -131.40096
27633000000 -24.665388 -63.814793 -70.700012 -100.63609 -77.959732 176.4146 0.0074756863 -131.49635
27634000000 -24.631155 -62.642979 -71.345749 81.079376 -84.029305 -6.6947379 0.0067299986 -131.57588
27635000000 -24.628239 -61.916054 -79.492058 68.090012 -77.208519 -92.036598 0.0037038466 -131.61372
27636000000 -24.683899 -60.901089 -78.676079 177.96843 -78.487801 -161.39697 0.0043707122 -131.72488
27637000000 -24.681522 -59.756527 -76.628868 110.02014 -76.382042 -98.499939 -0.0032629913 -131.85815
27638000000 -24.664206 -58.981682 -74.767616 -63.417793 -73.207825 91.110016 0.010114091 -131.89452
27639000000 -24.612427 -58.091007 -71.773827 -23.462864 -83.427414 63.808285 0.0065737641 -131.97748
27640000000 -24.535263 -57.47543 -75.174606 57.209576 -87.848816 80.505821 0.011021704 -132.0583
27641000000 -24.464882 -57.065147 -74.483742 -22.467625 -77.414482 -143.42931 0.0055649388 -132.16035
27642000000 -24.369522 -56.415859 -76.521744 -100.64271 -80.188004 146.15315 0.0037784702 -132.24205
27643000000 -24.251808 -55.938702 -71.782547 42.116745 -87.899345 -10.291942 0.0039647561 -132.33047
27644000000 -24.238194 -55.469536 -75.921364 18.843443 -75.510643 33.788013 0.01134633 -132.39948
27645000000 -24.201532 -55.213066 -79.244827 43.21936 -87.402878 8.9513807 0.0089667914 -132.51991
27646000000 -24.081341 -54.781921 -78.426781 52.40477 -78.339371 -15.570051 0.0026819147 -132.62166
27647000000 -23.952518 -54.696075 -69.66494 174.72995 -85.158844 -179.09145 -0.0019836666 -132.63628
27648000000 -23.84868 -54.513454 -71.209702 145.7012 -75.95105 -33.132896 -0.0027933032 -132.74872
27649000000 -23.782402 -54.601273 -74.081932 126.78648 -77.23851 158.91742 0.00081114488 -132.87102
27650000000 -23.690161 -54.874775 -74.071655 -168.43076 -78.088081 -61.841484 0.0033633623 -132.94829
27651000000 -23.600197 -55.1357 -86.76944 116.88832 -75.374352 30.913511 0.00025552124 -133.00531
27652000000 -23.4897 -55.318813 -80.87236 35.160343 -84.474007 153.78854 0.0010182103 -133.1035
27653000000 -23.4338 -55.11763 -70.870049 -34.91301 -78.68306 39.783173 0.0047723311 -133.19455
27654000000 -23.383379 -55.282146 -73.577263 48.288033 -80.423065 -18.033571 0.0056993966 -133.27608
27655000000 -23.311733 -55.577057 -77.637794 66.776215 -81.834465 -58.405121 0.0035605659 -133.34418
27656000000 -23.177359 -56.102894 -83.393608 116.46156 -82.587173 46.534691 -0.0003305331 -133.41249
27657000000 -23.110483 -56.529457 -76.226273 76.033562 -97.225624 142.55122 -0.0037155137 -133.48155
27658000000 -23.101294 -57.132648 -73.81176 -100.13505 -78.626129 -118.66727 -0.00097083894 -133.56903
27659000000 -23.09033 -57.615475 -73.296494 30.169987 -77.666542 -102.40942 -0.0048197792 -133.6638
27660000000 -23.06308 -58.024281 -78.736984 85.652946 -77.33683 -3.9315956 -0.0055985949 -133.76064
27661000000 -22.989164 -57.941307 -73.928177 26.259754 -74.357956 -172.16138 -0.0063573783 -133.87013
27662000000 -22.967005 -58.558033 -81.186417 168.33804 -72.030342 -83.543678 -0.0053521683 -133.95395
27663000000 -22.873245 -59.103897 -72.138687 81.546616 -80.573792 -154.55341 -0.0075302767 -134.02625
27664000000 -22.856384 -59.474808 -75.33374 -46.628784 -77.132294 -16.366179 -0.0097047416 -134.15318
27665000000 -22.845512 -60.253929 -73.567291 44.023064 -79.421707 -88.217232 -0.0061772512 -134.23497
27666000000 -22.805731 -60.931824 -78.650658 -143.00108 -80.532082 84.237656 -0.0057449765 -134.30597
27667000000 -22.816425 -61.305676 -74.235847 -122.90913 -79.479897 4.3229713 -0.011927285 -134.4229
27668000000 -22.82185 -61.798023 -73.281418 -69.224037 -73.739319 -3.7627218 -0.012986634 -134.48708
27669000000 -22.765394 -62.452667 -77.81353 12.648718 -77.611717 17.228239 -0.019650755 -134.58012
27670000000 -22.722515 -63.038944 -80.373466 128.35083 -77.458282 145.48256 -0.011267045 -134.67252
27671000000 -22.711662 -63.73856 -71.391136 135.1331 -74.609802 -144.39148 -0.015799992 -134.75986
27672000000 -22.722698 -64.316444 -72.619164 57.081234 -90.308365 144.09998 -0.011590967 -134.86134
27673000000 -22.765348 -64.94825 -77.280182 106.43067 -71.740479 119.17947 -0.015001108 -134.98926
27674000000 -22.772223 -65.51313 -81.13501 89.504425 -72.506744 25.754112 -0.014843544 -135.11053
27675000000 -22.760895 -66.266151 -73.876236 -164.21022 -97.979935 -81.607933 -0.012714079 -135.18294
27676000000 -22.76852 -66.607307 -77.465157 -153.70641 -80.572327 -61.957779 -0.013986218 -135.2113
27677000000 -22.719648 -67.370644 -79.369835 119.26035 -78.565826 -84.51712 -0.017343339 -135.30397
27678000000 -22.728018 -67.938416 -74.590614 37.242947 -83.685326 91.349098 -0.012738902 -135.42542
27679000000 -22.762217 -69.024124 -87.874413 -11.453944 -76.406433 79.166672 -0.0089392103 -135.49524
27680000000 -22.748446 -69.503418 -66.196419 -1.7496983 -87.439575 143.73796 -0.012560267 -135.6142
27681000000 -22.759634 -70.139557 -77.539436 42.010918 -77.769554 159.00534 -0.011379344 -135.7299
27682000000 -22.774416 -70.719826 -80.15258 129.38889 -78.21418 13.63452 -0.010219942 -135.81845
27683000000 -22.748135 -71.586395 -84.844589 56.650631 -82.717072 53.802723 -0.015981378 -135.89996
27684000000 -22.823805 -72.347015 -74.473473 69.125725 -81.200867 -147.95956 -0.015329095 -135.98755
27685000000 -22.782667 -73.184303 -79.920456 69.427948 -81.503052 170.21953 -0.013921319 -136.08281
27686000000 -22.749702 -73.954681 -78.046684 104.64466 -76.397385 -6.9937482 -0.014476149 -136.16019
27687000000 -22.740629 -74.685211 -77.131363 168.58133 -72.698898 12.810498 -0.012155936 -136.24887
27688000000 -22.716278 -75.402046 -79.776665 4.8806767 -89.160622 -16.196444 -0.0099476529 -136.34995
27689000000 -22.753498 -76.36615 -72.924187 131.79436 -76.66684 27.572729 -0.006604387 -136.43365
27690000000 -22.76577 -77.033264 -76.201126 90.163269 -75.087227 152.95636 -0.0071167215 -136.49579
27691000000 -22.728577 -77.974358 -71.868782 -114.46224 -73.128937 -102.62078 -0.0065983539 -136.60272
27692000000 -22.731798 -78.981491 -74.304955 -156.15173 -72.460457 -77.537048 -0.0032833626 -136.67937
27693000000 -22.69558 -80.183083 -78.896706 168.44356 -87.917892 -135.27452 -0.001933834 -136.75558
27694000000 -22.683058 -81.106728 -90.637253 164.41008 -82.741531 28.471783 -0.0073154178 -136.86472
27695000000 -22.692869 -81.879524 -75.10051 7.705164 -87.356331 -134.48204 -0.0010254252 -136.96323
27696000000 -22.686344 -83.036362 -76.279274 63.407951 -86.665649 90.387817 -8.3098108e-005 -137.07425
27697000000 -22.647028 -84.047966 -79.045036 125.67616 -74.726967 2.5412605 -0.0022205312 -137.14447
