!Keysight Technologies,N5234A,MY55441357,A.10.47.05
!Date: Sunday, November 19, 2017 13:19:15
!Correction: S11(Full 2 Port(1,2)) 
!S21(Full 2 Port(1,2)) 
!S12(Full 2 Port(1,2)) 
!S22(Full 2 Port(1,2)) 
!S2P File: Measurements: S11, S21, S12, S22:
# Hz S  dB   R 50
27500000000 -35.309078 -67.666122 -78.973061 -123.5462 -77.298996 71.849228 0.21008661 -100.90809
27501000000 -35.995117 -63.032776 -79.502335 -95.558968 -76.86866 173.53212 0.21730484 -100.96961
27502000000 -36.500477 -56.184147 -91.135704 -96.736565 -76.050819 41.449429 0.20938098 -101.06213
27503000000 -36.807514 -50.360916 -91.224716 135.09859 -91.602455 32.875546 0.2121148 -101.12614
27504000000 -37.09584 -43.629028 -77.874016 127.31203 -77.20417 112.51069 0.21729109 -101.18158
27505000000 -37.156017 -35.611408 -78.959969 -140.25165 -77.703621 -39.058434 0.21591257 -101.26892
27506000000 -37.012383 -28.201216 -89.174568 131.53555 -70.075951 -53.182114 0.2102011 -101.3362
27507000000 -36.92807 -19.873775 -81.061592 -162.87569 -89.222382 -122.86664 0.21242173 -101.40944
27508000000 -36.44524 -13.141869 -73.87812 -147.80884 -85.175766 123.51815 0.21531825 -101.46496
27509000000 -35.941166 -7.8681302 -81.444626 -118.36253 -79.818405 18.862949 0.20982696 -101.54268
27510000000 -35.412441 -2.9574738 -75.014374 -15.241672 -90.125336 71.618484 0.20970514 -101.61469
27511000000 -34.923687 3.434993 -78.358139 37.334251 -86.656799 76.838058 0.21030401 -101.69868
27512000000 -34.297352 5.7008991 -81.644676 30.351513 -74.657745 123.24321 0.22143583 -101.72077
27513000000 -33.541889 8.9271517 -78.169609 133.71938 -76.789223 41.090332 0.21835637 -101.79954
27514000000 -32.880802 11.937197 -94.838646 76.617783 -73.510155 -43.591759 0.21413417 -101.88225
27515000000 -32.266418 13.751185 -76.511757 126.69162 -82.290504 173.32574 0.22123769 -101.8995
27516000000 -31.649935 16.006708 -85.422333 -86.751381 -75.442551 -153.98471 0.21878578 -101.97907
27517000000 -30.996826 17.655558 -88.700012 -76.00927 -70.7174 79.510155 0.22414248 -102.09246
27518000000 -30.526663 18.198891 -75.470947 64.164146 -76.44577 27.601622 0.22072889 -102.14055
27519000000 -29.988714 19.327396 -69.103798 -18.478382 -89.44828 -86.922714 0.22382255 -102.19587
27520000000 -29.511847 19.950726 -78.492828 -19.361671 -72.938011 151.1581 0.21341342 -102.27995
27521000000 -29.02618 20.719707 -74.61058 95.17395 -75.466164 51.199715 0.20829509 -102.36794
27522000000 -28.4963 21.48892 -78.701439 128.11748 -79.031212 -90.789612 0.21356262 -102.39108
27523000000 -28.038242 21.788399 -85.132957 77.257408 -80.192741 -121.92696 0.21475852 -102.47536
27524000000 -27.689703 21.804518 -69.296318 -120.59322 -76.583328 93.114952 0.20897798 -102.54577
27525000000 -27.29969 21.289627 -76.904907 -65.078484 -84.181618 -153.86134 0.20665251 -102.58271
27526000000 -26.922911 21.408537 -75.329033 -71.748131 -78.047852 -174.93846 0.2150171 -102.66266
27527000000 -26.553602 21.715452 -83.18206 73.40065 -84.150398 139.92853 0.21912412 -102.80782
27528000000 -26.224455 21.666943 -77.472084 91.545471 -75.987282 -140.3212 0.21634412 -102.87495
27529000000 -25.853809 20.573111 -84.211868 83.847481 -76.167389 -79.93795 0.20977618 -102.87184
27530000000 -25.468714 20.834858 -82.934814 -21.143345 -77.274391 58.668423 0.21199284 -102.97867
27531000000 -25.144163 20.698776 -78.639786 -178.26093 -71.317924 -74.181404 0.21952356 -103.07908
27532000000 -24.871532 20.207594 -75.187439 177.0723 -81.402199 15.56265 0.22008717 -103.17003
27533000000 -24.620916 19.839878 -73.282387 128.1057 -82.645142 134.34161 0.21397483 -103.21136
27534000000 -24.375219 19.092957 -78.704727 6.5163641 -91.004478 138.73241 0.22164002 -103.26894
27535000000 -24.113651 18.198587 -68.749702 90.560143 -83.227425 -12.496751 0.21458194 -103.32217
27536000000 -23.801455 17.640261 -77.106712 57.896507 -76.302338 -59.998215 0.21080135 -103.36665
27537000000 -23.564857 17.317345 -77.622154 -78.34594 -69.674927 -26.154608 0.20836118 -103.41558
27538000000 -23.331299 16.998753 -72.705788 35.31752 -81.176804 -129.5808 0.21452823 -103.5074
27539000000 -23.083652 16.200148 -79.196724 80.828133 -82.192894 -86.668358 0.22009242 -103.64719
27540000000 -22.831827 15.519189 -81.816391 109.92711 -79.031059 68.123299 0.2157028 -103.66798
27541000000 -22.610193 14.990773 -73.487061 81.303223 -78.984901 -162.01331 0.2171054 -103.71073
27542000000 -22.41346 14.038956 -81.595428 -135.09857 -82.808067 -65.373001 0.21552914 -103.82232
27543000000 -22.225676 13.358761 -73.940269 -106.6824 -78.037697 167.9955 0.21870664 -103.88629
27544000000 -22.011942 12.563836 -73.171768 -79.124931 -75.569588 -109.50892 0.21300353 -103.93764
27545000000 -21.832993 11.821804 -74.152695 -81.081841 -77.39785 -12.896974 0.20848759 -104.04498
27546000000 -21.62619 11.135695 -70.863419 -110.1962 -76.172318 -23.433279 0.21326631 -104.15165
27547000000 -21.409767 10.203337 -72.605415 -173.83617 -92.556618 -50.697742 0.21291848 -104.20821
27548000000 -21.229237 9.3837166 -71.819809 -107.23532 -81.58799 85.193008 0.21361992 -104.27245
27549000000 -21.094488 8.7468386 -86.894722 -21.036301 -87.968758 67.336998 0.21122913 -104.32189
27550000000 -20.884024 7.7667022 -73.61982 -0.45550671 -73.603966 -177.53679 0.20261607 -104.3975
27551000000 -20.769049 6.7496271 -81.376579 -78.340973 -74.776588 165.65208 0.20784982 -104.4627
27552000000 -20.651304 5.6969142 -77.44191 -70.347992 -72.550629 105.99506 0.21329398 -104.54288
27553000000 -20.500551 4.8252401 -73.448051 172.42761 -77.843948 -148.2379 0.2128341 -104.62359
27554000000 -20.336956 3.8056674 -79.870216 -159.63583 -76.243034 132.16168 0.20556903 -104.71128
27555000000 -20.187037 2.7295175 -76.455574 112.90509 -76.06884 -141.45935 0.20983019 -104.77721
27556000000 -20.064369 1.8927701 -65.187981 47.93861 -77.547966 -86.321709 0.21224885 -104.83704
27557000000 -19.939405 0.62128055 -70.076645 53.077801 -68.850929 133.18188 0.22099167 -104.92645
27558000000 -19.793549 -0.43555915 -74.57708 -46.398594 -83.251518 166.65013 0.21261042 -105.00098
27559000000 -19.660475 -1.5076969 -74.920601 10.904909 -90.825104 90.520775 0.21161877 -105.07138
27560000000 -19.544975 -2.4102407 -92.552299 -35.043625 -77.099785 15.340014 0.2081985 -105.12645
27561000000 -19.427788 -3.6274934 -73.245773 74.026726 -80.526291 17.027983 0.20716168 -105.19494
27562000000 -19.316263 -4.6518044 -71.763962 96.995705 -79.652534 102.98795 0.21371369 -105.28083
27563000000 -19.189882 -5.866477 -84.022202 71.177452 -84.065308 -165.91544 0.21181619 -105.38785
27564000000 -19.092314 -7.0499201 -76.036606 -51.196087 -94.860809 140.63513 0.21660373 -105.42564
27565000000 -19.014204 -8.0722322 -71.507828 88.100197 -76.860458 170.85316 0.22029388 -105.48189
27566000000 -18.926449 -9.3994246 -78.571632 -163.15311 -78.079018 139.56421 0.22274692 -105.5433
27567000000 -18.823095 -10.86953 -75.454948 -147.64658 -77.947922 135.22441 0.21925142 -105.62489
27568000000 -18.717573 -12.045983 -81.481728 174.41162 -78.039703 99.219635 0.21065494 -105.69803
27569000000 -18.646782 -13.260408 -75.290451 -18.002981 -81.074951 -75.446861 0.22177386 -105.7908
27570000000 -18.578989 -14.775566 -75.562752 50.444942 -74.369713 -137.8658 0.22263968 -105.88498
27571000000 -18.482126 -15.953741 -79.797638 109.60451 -80.195625 -172.4032 0.21867044 -105.96791
27572000000 -18.410969 -17.422621 -68.387871 144.54086 -76.344543 -56.65992 0.21556151 -106.03187
27573000000 -18.362349 -18.926325 -73.388016 111.00626 -90.733559 136.22025 0.2218314 -106.08929
27574000000 -18.304895 -20.361635 -76.913208 116.36627 -78.045242 -69.579346 0.22821948 -106.16796
27575000000 -18.296095 -21.736446 -84.541893 99.825195 -82.709938 58.093117 0.2292493 -106.20964
27576000000 -18.248068 -23.356117 -80.108635 61.508987 -75.946159 -158.13651 0.22593571 -106.24749
27577000000 -18.195 -24.936438 -88.937508 -128.35692 -76.671074 160.64143 0.22624166 -106.34305
27578000000 -18.142614 -26.42638 -73.138763 -151.39713 -79.554253 -112.60144 0.21983895 -106.40704
27579000000 -18.083712 -28.120306 -80.46199 -88.320709 -94.808266 85.283386 0.23265076 -106.47009
27580000000 -18.077902 -29.729908 -76.547729 -62.012135 -79.233345 -60.500683 0.22869462 -106.51835
27581000000 -18.067253 -31.297499 -73.83699 -101.21844 -79.665939 -2.048357 0.22863658 -106.63698
27582000000 -18.081347 -33.095879 -75.492188 -105.12481 -77.418159 171.53642 0.23009752 -106.70998
27583000000 -18.05916 -34.82243 -82.567192 162.06403 -75.5868 61.86467 0.22758943 -106.74942
27584000000 -18.043583 -36.631344 -80.701378 -171.9046 -80.155075 43.293411 0.22909641 -106.82019
27585000000 -18.116344 -38.413994 -92.07235 -28.001476 -92.825043 53.317009 0.23511589 -106.93343
27586000000 -18.12435 -40.402885 -77.264999 -153.74028 -80.453125 56.836803 0.23185425 -106.9456
27587000000 -18.183098 -42.222698 -90.764488 -55.10141 -74.046486 -97.455688 0.23644726 -107.01371
27588000000 -18.234385 -44.031319 -72.455223 19.815281 -84.132294 65.347031 0.23276308 -107.08183
27589000000 -18.324802 -45.950436 -73.75679 31.347717 -92.037376 -139.7419 0.23081473 -107.10499
27590000000 -18.406126 -47.878582 -75.766426 -139.80429 -94.624329 -166.78429 0.23149817 -107.16509
27591000000 -18.542885 -49.597786 -79.517403 11.892387 -90.796608 -114.83829 0.23544826 -107.26194
27592000000 -18.678999 -51.420624 -76.363335 55.829807 -85.797394 -60.26651 0.22515395 -107.35593
27593000000 -18.895554 -52.791409 -71.021729 -166.7601 -81.600548 -135.99696 0.23210409 -107.41051
27594000000 -19.118315 -54.386055 -79.574226 -122.8547 -77.115189 -112.54072 0.23670875 -107.47883
27595000000 -19.289803 -55.843502 -76.771614 172.09441 -76.686607 -69.352455 0.23585606 -107.52648
27596000000 -19.506536 -56.949806 -84.580734 -112.39762 -79.041138 40.409889 0.23190303 -107.56554
27597000000 -19.705753 -57.856277 -71.761269 52.813194 -72.986893 61.487953 0.23009557 -107.64202
27598000000 -19.90465 -58.463619 -77.175415 57.451542 -74.261909 -22.213976 0.23023364 -107.68571
27599000000 -20.134533 -58.703777 -77.074127 10.642092 -76.351364 4.5024652 0.22215597 -107.76493
27600000000 -20.261066 -59.322945 -109.88262 146.83788 -73.990517 -170.47482 0.22528471 -107.8247
27601000000 -20.382011 -59.66658 -74.742409 10.614153 -87.435196 -101.99192 0.22575177 -107.91918
27602000000 -20.484383 -59.862267 -79.316811 11.591866 -76.345421 -84.525223 0.22794802 -108.00674
27603000000 -20.567745 -60.429203 -74.218155 -5.8599072 -74.394272 23.264286 0.22079775 -108.02146
27604000000 -20.652929 -60.591141 -73.472984 119.33228 -76.286057 34.702934 0.22444594 -108.1301
27605000000 -20.705784 -61.022106 -77.417938 144.18289 -82.063843 -98.441063 0.2205521 -108.20206
27606000000 -20.756443 -61.576931 -71.108635 -35.327267 -82.347046 74.347572 0.22942497 -108.26067
27607000000 -20.855875 -62.187542 -76.792068 -28.401602 -84.794296 -44.107101 0.22605513 -108.30321
27608000000 -20.923685 -63.153332 -77.188736 -169.89954 -81.159447 -167.84814 0.22074281 -108.35699
27609000000 -20.992386 -64.084251 -90.648041 71.128937 -80.555817 -72.010681 0.22250491 -108.46101
27610000000 -21.084644 -64.663124 -77.482666 113.96646 -79.597389 44.619141 0.21512935 -108.54297
27611000000 -21.225391 -65.423126 -73.955101 41.432919 -73.134705 77.502693 0.22230515 -108.60503
27612000000 -21.327463 -66.537399 -80.926025 29.867325 -72.520576 29.834963 0.22332768 -108.68907
27613000000 -21.425631 -67.480743 -82.368591 29.506725 -77.450172 -158.39793 0.22362792 -108.72769
27614000000 -21.568769 -68.081505 -76.65229 -170.10193 -96.549057 47.232273 0.21835548 -108.80824
27615000000 -21.687418 -68.72905 -80.052269 7.538238 -78.16716 -135.43602 0.22373581 -108.86187
27616000000 -21.849461 -69.322578 -75.081017 90.02269 -75.35453 41.617729 0.22175799 -108.91019
27617000000 -22.061382 -70.001717 -75.288719 -47.102753 -82.86692 -78.960533 0.21593139 -109.01427
27618000000 -22.202471 -70.469025 -78.272644 -176.70306 -75.983307 -21.676695 0.21392965 -109.04454
27619000000 -22.344414 -70.76693 -80.498306 -103.02238 -73.540657 -68.211006 0.21419626 -109.09932
27620000000 -22.570587 -71.098099 -74.444839 176.049 -84.337555 -163.86501 0.21372113 -109.17988
27621000000 -22.761196 -71.228882 -72.645195 -127.60923 -78.866898 150.94933 0.21154974 -109.26503
27622000000 -22.955601 -71.341591 -76.46006 -150.91518 -79.248344 48.419495 0.21868899 -109.35633
27623000000 -23.132637 -71.46283 -73.950661 90.694862 -75.571945 22.465183 0.21741575 -109.45994
27624000000 -23.335014 -71.190445 -73.788261 66.766937 -96.785484 -154.04219 0.21645667 -109.5158
27625000000 -23.481644 -70.759285 -84.65847 124.54952 -74.050575 -52.97551 0.21346493 -109.54451
27626000000 -23.66584 -70.415733 -79.873627 -124.28487 -80.214104 -60.278893 0.21333337 -109.61162
27627000000 -23.88273 -69.777527 -82.199287 15.22238 -76.584976 70.96389 0.21512561 -109.71075
27628000000 -23.993484 -69.286224 -80.522522 175.96707 -77.020866 -150.33595 0.2153701 -109.80091
27629000000 -24.17062 -68.469154 -75.608231 -123.3558 -85.029327 44.139851 0.21437797 -109.86029
27630000000 -24.314156 -67.852943 -79.90741 -61.342007 -81.966476 22.755621 0.2176535 -109.92596
27631000000 -24.332293 -66.850716 -71.722641 105.08526 -75.487869 109.44456 0.21249345 -109.98431
27632000000 -24.45129 -65.856468 -76.894859 46.783817 -76.96106 -159.84491 0.21822976 -110.06511
27633000000 -24.487883 -64.805031 -80.97744 94.530273 -77.645844 105.29977 0.21640895 -110.13679
27634000000 -24.498257 -63.913986 -80.895622 -6.5697007 -79.106911 -132.30855 0.21341847 -110.20374
27635000000 -24.494196 -63.272388 -73.685661 34.746262 -72.895248 -123.21532 0.21848565 -110.20293
27636000000 -24.503023 -62.275692 -90.788284 82.015167 -76.51664 149.02628 0.21126761 -110.2981
27637000000 -24.532297 -61.245918 -74.168205 168.93622 -84.736465 48.423244 0.20620511 -110.40582
27638000000 -24.534348 -60.604309 -83.672958 -159.94112 -76.208809 61.468868 0.21714665 -110.46955
27639000000 -24.521416 -59.804821 -75.287018 84.688499 -90.859154 5.1798782 0.22130555 -110.54662
27640000000 -24.455544 -59.23 -93.881821 -83.640388 -80.452393 -122.38485 0.2167905 -110.61552
27641000000 -24.403357 -58.734936 -76.502594 -9.1379957 -77.092628 -161.29918 0.21729419 -110.66759
27642000000 -24.295465 -58.189461 -71.09124 -35.095901 -81.397903 -132.55052 0.21010007 -110.729
27643000000 -24.232805 -57.504402 -82.483986 42.381512 -81.45314 -107.11795 0.21491666 -110.79185
27644000000 -24.189512 -57.348831 -74.209854 89.586288 -77.987366 -55.728218 0.21857138 -110.85107
27645000000 -24.153233 -57.062267 -78.003235 159.38496 -73.843994 -81.105591 0.21477398 -110.96932
27646000000 -24.008894 -56.777431 -81.876305 -132.81786 -81.549141 -160.4218 0.2150986 -111.03168
27647000000 -23.893627 -56.349251 -71.513535 161.96906 -74.475861 -159.27551 0.21219808 -111.06084
27648000000 -23.823616 -56.197258 -75.887733 35.117867 -78.791359 -149.09659 0.2108606 -111.16576
27649000000 -23.769962 -56.38702 -73.932884 -147.91623 -75.764687 -156.98796 0.21212378 -111.24973
27650000000 -23.730234 -56.556923 -74.99453 -137.27385 -75.955505 -122.00849 0.21556741 -111.31146
27651000000 -23.614035 -56.592861 -79.051918 -178.65381 -77.305901 -39.900806 0.22074956 -111.36581
27652000000 -23.538679 -56.777924 -75.313461 146.51329 -79.885048 -162.11401 0.21308024 -111.45248
27653000000 -23.479479 -56.861786 -72.627419 162.91106 -79.964806 -138.25423 0.2209672 -111.50723
27654000000 -23.402599 -56.983547 -81.892212 59.298916 -88.036057 -78.124962 0.22047529 -111.57728
27655000000 -23.337873 -57.206249 -75.703537 -82.182297 -69.987099 -56.866188 0.2140568 -111.61074
27656000000 -23.213722 -57.477463 -80.964417 10.544681 -82.952576 176.62146 0.21461511 -111.68529
27657000000 -23.176765 -57.795544 -73.373146 -102.72059 -77.595741 96.401695 0.21889155 -111.74469
27658000000 -23.1661 -58.594227 -82.359253 -161.6884 -83.571358 61.304356 0.2162144 -111.80647
27659000000 -23.142002 -59.058392 -86.922142 -70.964554 -76.642403 69.626167 0.20893401 -111.87656
27660000000 -23.123003 -59.313946 -75.755867 55.043049 -99.290047 -54.479836 0.21019784 -111.98176
27661000000 -23.082155 -59.616974 -80.302048 -87.053223 -80.905952 51.787125 0.2175851 -112.04822
27662000000 -23.007603 -60.171329 -83.111168 -173.10994 -77.848267 157.83603 0.21166846 -112.1357
27663000000 -22.939693 -60.710793 -82.001862 125.63835 -77.870934 79.877571 0.21337581 -112.19383
27664000000 -22.91758 -61.019653 -97.644905 -121.64307 -78.900429 61.150166 0.20957987 -112.26254
27665000000 -22.951097 -62.022511 -84.354027 19.69142 -93.534004 -167.33556 0.21412989 -112.35754
27666000000 -22.905792 -62.249485 -70.516396 -170.15961 -74.299431 63.56263 0.21774538 -112.4182
27667000000 -22.907503 -62.839607 -78.219078 -80.028969 -73.99308 -63.478611 0.20771673 -112.4884
27668000000 -22.921026 -63.27206 -79.467957 175.45799 -90.541161 140.29889 0.20596848 -112.54459
27669000000 -22.854027 -63.952106 -72.72567 78.875885 -82.658516 152.07109 0.19842553 -112.60662
27670000000 -22.860266 -64.443024 -77.185776 64.319656 -83.840492 44.494225 0.21186399 -112.69084
27671000000 -22.822327 -65.026291 -75.690041 -16.969603 -87.043106 -56.465286 0.21033348 -112.79373
27672000000 -22.845991 -65.989433 -85.540848 12.344834 -74.915619 136.98227 0.2074945 -112.83538
27673000000 -22.86141 -66.530281 -74.495903 117.57024 -76.165413 161.12181 0.20767504 -112.97114
27674000000 -22.872576 -66.895416 -81.163704 -151.24809 -77.895508 160.63693 0.20369697 -113.05804
27675000000 -22.88723 -67.62175 -76.782463 -27.348568 -76.223015 -41.798546 0.20035529 -113.12372
27676000000 -22.851463 -68.077988 -81.721436 24.148371 -78.232216 -175.69038 0.19888 -113.12251
27677000000 -22.846155 -68.859093 -78.441505 -17.473766 -82.12162 -51.761028 0.20896904 -113.22092
27678000000 -22.860086 -69.637489 -73.50383 121.26389 -74.146263 157.56749 0.20905608 -113.29216
27679000000 -22.849934 -70.316757 -88.718643 -127.54216 -73.640099 31.929079 0.21002197 -113.37262
27680000000 -22.833309 -71.030632 -76.85318 -156.48009 -80.16114 -36.390987 0.20492993 -113.44856
27681000000 -22.871433 -71.723122 -74.42543 134.91032 -80.427643 8.6120319 0.21016407 -113.56098
27682000000 -22.848379 -72.330841 -71.108391 102.15713 -75.678444 20.398928 0.20278279 -113.63429
27683000000 -22.857161 -73.043945 -77.313843 160.91759 -79.498444 14.401104 0.20676464 -113.70843
27684000000 -22.902763 -73.793472 -81.465477 -130.80991 -78.602432 155.54601 0.20440926 -113.7687
27685000000 -22.878359 -74.610458 -81.580208 -166.66818 -72.733643 94.917915 0.1998049 -113.8227
27686000000 -22.857269 -75.403214 -83.709091 -127.47774 -73.975189 24.638367 0.20164414 -113.88717
27687000000 -22.843504 -76.133888 -83.371063 -33.135689 -74.999054 55.968853 0.2018449 -113.96529
27688000000 -22.825924 -77.080368 -81.171288 104.68265 -72.512962 -97.19397 0.20645708 -114.08195
27689000000 -22.835281 -77.856766 -79.022247 7.0984712 -94.991737 -154.69336 0.2058811 -114.12992
27690000000 -22.86167 -78.541069 -83.085815 -73.585579 -79.348381 16.408993 0.20607528 -114.17086
27691000000 -22.872528 -79.557137 -85.84259 138.28767 -75.634407 6.385169 0.21077426 -114.23288
27692000000 -22.847784 -80.634392 -80.815048 -175.96487 -72.520813 -5.0303612 0.21534307 -114.32374
27693000000 -22.803036 -81.679573 -78.028992 -160.00342 -84.887756 76.661095 0.21498743 -114.38647
27694000000 -22.779888 -82.435829 -80.670204 -37.427937 -75.256157 123.12311 0.2090508 -114.46028
27695000000 -22.794779 -83.40786 -73.468124 -95.003929 -77.411209 -170.23175 0.21096362 -114.56534
27696000000 -22.776161 -84.528305 -73.925491 -164.67036 -84.510796 117.9072 0.2181311 -114.65247
27697000000 -22.756289 -85.447052 -74.19223 -169.9426 -80.130447 -122.12858 0.21562639 -114.68813
27698000000 -22.752199 -86.744545 -77.531982 29.340263 -81.186913 -43.795826 0.21258798 -114.78286
27699000000 -22.719585 -87.93486 -79.766922 -64.052391 -72.213005 78.956993 0.21726246 -114.86235
27700000000 -22.691166 -89.038208 -75.905022 -19.786873 -71.86026 65.515579 0.22238851 -114.91711
