!Keysight Technologies,N5234A,MY55441357,A.10.47.05
!Date: Sunday, November 19, 2017 13:14:54
!Correction: S11(Full 2 Port(1,2)) 
!S21(Full 2 Port(1,2)) 
!S12(Full 2 Port(1,2)) 
!S22(Full 2 Port(1,2)) 
!S2P File: Measurements: S11, S21, S12, S22:
# Hz S  dB   R 50
27500000000 -36.787407 -78.917938 -72.687813 3.8973298 -82.186951 38.165905 0.016566502 -107.00299
27501000000 -37.884682 -74.427338 -75.165138 -165.65924 -76.575394 95.426331 0.023571115 -107.04955
27502000000 -38.495441 -68.012428 -72.348312 150.49521 -72.922127 178.11838 0.018856917 -107.14938
27503000000 -38.971619 -60.32589 -73.651665 14.765466 -87.317749 11.407272 0.024938812 -107.22322
27504000000 -39.57354 -50.740593 -77.810341 3.4258332 -76.30265 34.208241 0.023087084 -107.26459
27505000000 -39.903507 -40.383381 -82.381104 50.9646 -77.868713 -80.310005 0.02653252 -107.36702
27506000000 -39.662205 -28.850992 -77.618156 95.259758 -78.040901 -102.71962 0.019971499 -107.43015
27507000000 -39.291039 -18.239372 -76.052055 171.62569 -79.212425 -123.8978 0.02348865 -107.4955
27508000000 -38.721241 -10.068968 -82.893646 -179.29608 -82.414818 -1.7141806 0.028894259 -107.57787
27509000000 -38.205845 -4.0147672 -75.541817 -174.08156 -79.057281 83.854927 0.022114536 -107.63473
27510000000 -37.358715 3.2552853 -77.775642 -97.21875 -72.681747 94.281319 0.027374774 -107.69742
27511000000 -36.440193 8.2801943 -76.546913 -9.676466 -74.161964 159.70676 0.024489325 -107.82427
27512000000 -35.729904 11.373455 -72.319717 -112.49477 -83.851639 -124.40216 0.030596562 -107.82372
27513000000 -34.820038 14.927573 -71.913055 165.58461 -84.136787 -147.27345 0.024831476 -107.89133
27514000000 -33.987625 16.904751 -86.088257 176.82982 -72.475502 -2.8946691 0.026587704 -108.01878
27515000000 -33.198841 17.839108 -87.254753 42.574062 -71.284752 41.438541 0.030335443 -108.03741
27516000000 -32.538494 20.181482 -77.373764 -29.230841 -78.259575 -19.528452 0.035374399 -108.12718
27517000000 -31.899855 21.457836 -88.837227 -7.3664813 -75.468643 57.093891 0.032211848 -108.22192
27518000000 -31.351828 21.488659 -82.589714 74.338135 -72.300949 -166.07202 0.035666235 -108.27183
27519000000 -30.683928 22.512688 -85.344894 -171.36581 -77.275963 -170.10321 0.038038656 -108.32763
27520000000 -30.189707 22.766022 -78.450836 -170.37402 -84.961746 -34.883762 0.027288985 -108.43849
27521000000 -29.598557 22.869192 -76.314461 -44.37957 -76.726654 5.6508489 0.025966788 -108.52042
27522000000 -29.134474 23.092157 -79.885658 -134.82259 -75.87188 -52.873951 0.030688608 -108.54585
27523000000 -28.627352 23.363472 -77.899017 93.824326 -83.717239 130.87276 0.02565768 -108.62784
27524000000 -28.184381 23.437164 -82.713905 150.61615 -81.383492 63.051281 0.022916941 -108.72101
27525000000 -27.818556 22.847786 -74.902344 139.02478 -76.829285 -28.013748 0.023694899 -108.73275
27526000000 -27.403194 22.640268 -82.828072 -170.25069 -80.917641 -109.48949 0.026187327 -108.82123
27527000000 -26.959646 22.798801 -83.795319 73.066376 -73.083817 164.83415 0.0304703 -108.92175
27528000000 -26.658489 22.258957 -81.647614 -43.671413 -71.607933 -133.89044 0.030324318 -109.00406
27529000000 -26.299908 21.118488 -74.140327 12.914229 -79.857574 -81.757751 0.025055559 -109.02682
27530000000 -25.956175 21.005678 -87.860107 -8.5488176 -81.893456 22.670347 0.027751187 -109.12122
27531000000 -25.61866 20.674164 -79.998833 -31.291632 -76.624626 -118.33232 0.026323155 -109.20395
27532000000 -25.312706 20.319956 -84.053757 -160.62646 -72.442795 -45.47681 0.029595338 -109.32677
27533000000 -25.017879 19.792368 -77.663673 -97.974785 -74.267525 21.433985 0.023343602 -109.37231
27534000000 -24.826101 18.864241 -70.510445 -117.14697 -76.605827 33.548553 0.026700893 -109.43945
27535000000 -24.578926 18.255251 -75.611229 167.95993 -82.895744 74.688293 0.026022404 -109.46685
27536000000 -24.218342 17.249126 -76.66655 127.29285 -73.717094 -147.45032 0.025948886 -109.55096
27537000000 -23.94129 16.748196 -79.798409 29.775084 -74.732422 -71.186005 0.019973561 -109.62654
27538000000 -23.737219 15.960532 -86.539772 30.057201 -79.048439 140.47362 0.025471123 -109.72106
27539000000 -23.51293 15.262408 -81.881264 144.88812 -73.370857 -127.31036 0.030960398 -109.81931
27540000000 -23.262873 14.807551 -75.737221 102.76851 -71.252975 -99.612099 0.026381424 -109.85354
27541000000 -23.028538 13.820506 -84.918678 151.308 -87.936501 -57.402699 0.02468632 -109.91866
27542000000 -22.82696 12.795251 -78.229324 86.018593 -79.962555 52.258934 0.018628389 -109.99082
27543000000 -22.618027 11.738626 -77.218437 119.31103 -73.544449 90.154922 0.029576544 -110.104
27544000000 -22.41864 11.006444 -74.957504 -97.64521 -70.986694 93.176018 0.022251682 -110.15431
27545000000 -22.241802 10.141075 -77.083221 -133.91481 -78.621658 136.76761 0.023443321 -110.22061
27546000000 -22.016712 9.2634687 -75.313118 3.4596272 -72.708923 -102.92414 0.027414333 -110.33372
27547000000 -21.840162 8.4843721 -73.570114 17.13028 -81.676842 -11.476563 0.026546866 -110.43648
27548000000 -21.667757 7.5203447 -73.477051 -175.23218 -77.263443 78.672127 0.019849222 -110.50468
27549000000 -21.486837 6.7593813 -70.74501 -71.682404 -76.231613 25.133429 0.020797996 -110.54401
27550000000 -21.281715 5.6122165 -72.78688 123.62652 -77.121368 70.862541 0.019107915 -110.59766
27551000000 -21.201603 4.4483776 -81.65757 87.523285 -79.554634 135.576 0.015320059 -110.68105
27552000000 -21.017839 3.5806804 -77.657166 -7.7827315 -94.176064 83.978294 0.02187592 -110.72416
27553000000 -20.904821 2.2754986 -82.539955 -119.98123 -78.417206 143.63896 0.025137806 -110.85339
27554000000 -20.72728 1.4129269 -73.597595 -31.934803 -78.757751 137.81721 0.014517928 -110.93903
27555000000 -20.597668 0.21875542 -75.36203 -33.76762 -98.969032 -76.552841 0.020611662 -111.00899
27556000000 -20.469837 -1.02578 -77.69648 -177.82951 -85.717346 -41.077965 0.025244683 -111.06639
27557000000 -20.315603 -2.0840762 -84.04229 -147.50938 -75.169632 -128.49138 0.031408962 -111.15256
27558000000 -20.160931 -3.2101455 -73.901459 -98.103546 -75.580666 35.512707 0.021362998 -111.25941
27559000000 -20.023645 -4.3654704 -84.641548 110.88834 -72.206886 86.323662 0.021253252 -111.33819
27560000000 -19.889795 -5.4559407 -75.276268 114.37896 -73.191353 113.12942 0.019423211 -111.38724
27561000000 -19.76334 -6.6018591 -72.875938 102.73454 -73.789391 149.9339 0.020444455 -111.43165
27562000000 -19.663082 -7.7549071 -77.217606 63.45903 -75.198624 -164.65726 0.02373861 -111.50713
27563000000 -19.571804 -9.0909109 -85.461182 118.39413 -76.127953 -176.57098 0.026553137 -111.63338
27564000000 -19.441103 -10.263165 -73.549759 -3.7689967 -85.212715 44.72057 0.030572422 -111.68324
27565000000 -19.36816 -11.282798 -68.973282 -107.34953 -79.266418 -164.79268 0.033616185 -111.75854
27566000000 -19.266378 -12.750137 -80.921661 -49.797462 -81.057137 -2.3099377 0.031123433 -111.84011
27567000000 -19.153988 -14.094481 -75.077286 -145.25134 -75.402931 -80.731575 0.034910619 -111.92109
27568000000 -19.049175 -15.412802 -74.937767 -167.77655 -80.752357 -55.992626 0.024126533 -111.97255
27569000000 -18.973871 -16.863718 -85.067917 93.509003 -86.964615 54.594276 0.030065734 -112.07119
27570000000 -18.879086 -18.362505 -77.747391 -108.60326 -78.07148 -160.36507 0.038846429 -112.15542
27571000000 -18.780895 -19.632851 -84.695335 -99.029884 -73.597511 162.43626 0.033393335 -112.21748
27572000000 -18.726709 -21.067146 -72.970894 -125.98732 -82.370216 55.00272 0.032266304 -112.28146
27573000000 -18.679729 -22.670145 -74.472816 -136.58575 -77.449982 52.797604 0.033718601 -112.38338
27574000000 -18.599953 -24.266108 -87.159416 -79.859329 -75.290878 150.58299 0.040259626 -112.44997
27575000000 -18.545578 -25.892023 -81.21405 -3.9747348 -80.162956 123.2906 0.039006364 -112.51402
27576000000 -18.506416 -27.352192 -80.983231 -147.32303 -79.297531 133.90268 0.044569645 -112.57269
27577000000 -18.467768 -28.902468 -74.901932 173.46832 -78.544609 8.7666883 0.040715694 -112.60856
27578000000 -18.41354 -30.56926 -73.091156 -158.92046 -82.749474 159.4348 0.031059705 -112.70477
27579000000 -18.364784 -32.336037 -72.622993 -130.46707 -101.64237 28.604559 0.040392067 -112.7494
27580000000 -18.346613 -33.918598 -84.803764 -8.414484 -92.327675 -79.625626 0.04601609 -112.83572
27581000000 -18.322256 -35.463146 -83.306442 162.94696 -76.599205 -112.83698 0.041767474 -112.93993
27582000000 -18.331825 -37.419056 -79.852043 112.66788 -74.762085 -137.44316 0.045929804 -112.9688
27583000000 -18.322979 -39.056431 -93.26873 -122.31651 -76.233574 -56.920471 0.040952746 -113.02631
27584000000 -18.294132 -40.897621 -75.177879 13.601434 -72.491974 151.48233 0.03831758 -113.14267
27585000000 -18.333666 -42.903034 -76.850174 17.241253 -74.281319 97.495377 0.052161124 -113.2376
27586000000 -18.363508 -44.855385 -83.364159 3.3647122 -77.092026 101.7103 0.043907776 -113.26561
27587000000 -18.401941 -46.661713 -72.466171 108.4035 -75.139008 -115.09841 0.049635403 -113.30852
27588000000 -18.454544 -48.648735 -80.019958 -12.92875 -76.636757 -123.65586 0.047158111 -113.38602
27589000000 -18.539598 -50.608486 -83.71859 76.110359 -77.276352 -101.65499 0.04053472 -113.40095
27590000000 -18.63479 -52.544746 -76.156136 -10.988843 -75.367607 147.24655 0.041319914 -113.48785
27591000000 -18.745888 -54.229942 -83.844856 -24.65799 -76.816338 86.74411 0.04555814 -113.56691
27592000000 -18.890423 -56.103851 -83.112358 -29.427624 -76.316353 127.07589 0.037571993 -113.67886
27593000000 -19.114576 -57.65192 -86.776779 36.076225 -76.464798 -142.45609 0.047324091 -113.70233
27594000000 -19.306854 -59.206886 -96.982285 -48.653179 -74.234322 155.23665 0.050453626 -113.78038
27595000000 -19.491007 -60.524021 -71.890282 -7.7060733 -82.063965 -7.2955761 0.043126538 -113.81429
27596000000 -19.714436 -61.66433 -81.000481 -22.216394 -77.794868 -27.973606 0.041236512 -113.86975
27597000000 -19.932758 -62.565857 -77.503792 -117.04913 -82.148628 -60.610649 0.037772477 -113.94185
27598000000 -20.127893 -63.389095 -85.478432 22.27454 -81.68396 108.21651 0.036394037 -114.01032
27599000000 -20.341099 -63.577396 -86.466911 37.724617 -74.836578 85.353409 0.035301413 -114.08321
27600000000 -20.475651 -63.925941 -87.410065 157.42586 -71.52375 -93.632301 0.034324609 -114.18996
27601000000 -20.600023 -64.166595 -82.715706 154.65877 -70.740906 -54.290852 0.03508804 -114.23436
27602000000 -20.68144 -64.265884 -71.807816 -166.65091 -83.920448 54.726387 0.043629318 -114.31702
27603000000 -20.745447 -64.646019 -86.690399 -10.042861 -72.212715 -95.722923 0.038659837 -114.38557
27604000000 -20.82126 -65.107666 -73.349747 59.137753 -88.366837 137.31955 0.034511797 -114.45369
27605000000 -20.852945 -65.452881 -74.327377 -49.563187 -78.846245 146.62593 0.034328923 -114.55415
27606000000 -20.892614 -66.066238 -76.161659 159.51613 -88.53479 -133.99228 0.031512138 -114.62621
27607000000 -20.989168 -66.564758 -86.272957 -86.306358 -80.884674 37.318222 0.037207369 -114.68593
27608000000 -21.040531 -67.335968 -72.154404 -167.6629 -80.119781 -158.28072 0.033464316 -114.74999
27609000000 -21.114367 -68.460083 -73.394341 -65.511757 -74.040382 -123.3183 0.027963551 -114.8421
27610000000 -21.197363 -69.165222 -77.808319 36.223576 -90.239807 67.626709 0.026613509 -114.918
27611000000 -21.313217 -70.050407 -77.129074 8.4805803 -84.339127 -71.729645 0.029891707 -114.98596
27612000000 -21.396444 -71.03669 -69.546478 88.871185 -89.98278 16.197577 0.033281844 -115.07162
27613000000 -21.483829 -72.080124 -78.594002 144.20035 -82.768608 45.641621 0.032093603 -115.13268
27614000000 -21.63463 -72.915726 -77.102791 59.416084 -75.337334 58.613052 0.031551778 -115.17638
27615000000 -21.741297 -73.495064 -72.001587 175.57234 -75.604736 5.4112778 0.030972645 -115.24403
27616000000 -21.886465 -74.217369 -80.671463 45.837502 -69.179245 -17.780758 0.02899429 -115.29916
27617000000 -22.13018 -75.023567 -73.225952 65.322563 -75.578247 -61.901665 0.028032199 -115.4081
27618000000 -22.266392 -75.510765 -78.538025 -96.892952 -82.827614 35.669552 0.024391655 -115.46932
27619000000 -22.438038 -75.94416 -74.745728 -100.38341 -81.499672 161.63766 0.02200968 -115.5273
27620000000 -22.652216 -76.26107 -72.604286 -12.450631 -81.100052 179.94954 0.020712629 -115.57244
27621000000 -22.852213 -76.666412 -75.383179 6.8198009 -82.758118 -104.57338 0.020975785 -115.65876
27622000000 -23.047562 -76.772324 -76.005707 157.21924 -85.740013 -89.222626 0.024391124 -115.76555
27623000000 -23.221523 -76.787621 -81.845818 8.400775 -83.108627 9.2383356 0.025266333 -115.83616
27624000000 -23.468298 -76.640961 -79.484894 20.676428 -78.094818 -9.6956615 0.026999092 -115.9212
27625000000 -23.659618 -76.336655 -86.658051 -156.19693 -84.280602 126.94998 0.027034998 -115.98914
27626000000 -23.86236 -75.948929 -88.370399 -111.37392 -75.104378 -91.799522 0.02106918 -116.00078
27627000000 -24.074652 -75.185722 -79.746994 138.81302 -75.297478 -170.73935 0.025116632 -116.13486
27628000000 -24.188385 -74.504395 -77.610237 -174.66661 -74.537285 11.445045 0.021118455 -116.22022
27629000000 -24.377857 -73.999901 -75.904381 77.670921 -73.462166 -51.727177 0.025321754 -116.3269
27630000000 -24.52035 -73.528534 -69.876877 58.937366 -75.344124 -7.1745777 0.022499515 -116.3682
27631000000 -24.617695 -72.306351 -76.918671 -165.35333 -83.801804 151.39601 0.024151444 -116.42036
27632000000 -24.713291 -71.311813 -77.404884 -173.43649 -72.94091 -112.28321 0.021082295 -116.48094
27633000000 -24.798601 -70.173363 -77.946587 176.90961 -74.382843 -70.474792 0.027761813 -116.55131
27634000000 -24.854267 -69.131081 -78.445831 41.364628 -82.084656 106.1105 0.025412796 -116.62473
27635000000 -24.852474 -68.424217 -79.57856 -106.56863 -77.090897 22.983408 0.020038789 -116.65306
27636000000 -24.879087 -67.30069 -77.239624 -157.54735 -83.590042 136.45279 0.024110869 -116.7429
27637000000 -24.883009 -65.99369 -75.829514 -87.786049 -79.615089 74.138123 0.016626859 -116.85697
27638000000 -24.908888 -65.17038 -74.768738 16.253956 -75.069839 18.640091 0.025196053 -116.89769
27639000000 -24.876501 -64.207458 -73.845322 -110.66637 -78.389694 137.25227 0.024822792 -116.98473
27640000000 -24.847235 -63.330723 -74.749969 -90.378456 -78.723473 -169.46877 0.026738094 -117.08403
27641000000 -24.785303 -62.951107 -77.932564 -176.43781 -73.70787 -33.179951 0.020490579 -117.16292
27642000000 -24.606325 -62.445553 -81.422234 -175.41869 -73.554977 -76.338692 0.019853668 -117.20159
27643000000 -24.578341 -61.422478 -80.760338 -117.88254 -82.914742 167.92999 0.024308125 -117.24384
27644000000 -24.526131 -61.004913 -80.72477 117.94952 -79.337875 -131.92485 0.029776761 -117.33933
27645000000 -24.448807 -60.806087 -77.652985 -51.121861 -74.422699 -103.87345 0.020646811 -117.44737
27646000000 -24.37467 -60.273888 -75.812439 54.000675 -81.031456 174.74916 0.018921647 -117.5042
27647000000 -24.225046 -60.014572 -67.319946 -18.288656 -72.937485 3.8358769 0.020392967 -117.55298
27648000000 -24.102873 -59.766457 -78.888618 105.94544 -77.18029 85.321129 0.010871731 -117.63091
27649000000 -24.069347 -59.734608 -80.661934 62.980122 -75.832939 -126.99565 0.01781005 -117.73515
27650000000 -23.944927 -60.112122 -78.91124 60.71627 -80.594246 127.14866 0.019051757 -117.81425
27651000000 -23.856771 -60.191631 -75.594406 42.087467 -78.335854 112.6214 0.02133414 -117.86063
27652000000 -23.731516 -60.288071 -76.7752 99.710732 -74.746094 -103.34415 0.019322585 -117.94965
27653000000 -23.675648 -60.210884 -69.053787 -145.75381 -74.186783 -37.240135 0.031403247 -118.02306
27654000000 -23.614532 -60.339756 -70.430176 155.35625 -94.574074 -35.361683 0.031096321 -118.07669
27655000000 -23.497524 -60.463234 -70.968521 135.29173 -75.895622 174.66083 0.016939383 -118.12834
27656000000 -23.382732 -61.029781 -75.188774 160.99098 -79.994469 -114.93868 0.02107629 -118.20805
27657000000 -23.330439 -61.303249 -93.636086 -29.271767 -77.123619 -38.42445 0.010530523 -118.27143
27658000000 -23.284721 -62.126099 -74.003235 134.05086 -76.937492 -87.888168 0.02051721 -118.33887
27659000000 -23.24025 -62.294701 -77.696754 148.15671 -86.61338 -126.08152 0.019761607 -118.42545
27660000000 -23.241371 -62.97047 -76.774979 -67.963455 -83.318916 -4.517869 0.016492313 -118.4947
27661000000 -23.143833 -63.145229 -81.54702 -154.53827 -76.620193 -157.98515 0.020219449 -118.54989
27662000000 -23.082878 -63.771606 -88.002106 -77.130043 -75.845184 103.00692 0.024471711 -118.6515
27663000000 -23.000816 -64.357132 -76.624077 -108.06257 -93.055382 22.028822 0.01500061 -118.74982
27664000000 -22.953835 -64.950134 -80.730064 -72.182274 -81.016159 -55.334705 0.013458313 -118.81339
27665000000 -22.956413 -65.902504 -87.082581 -76.7285 -80.337074 72.371513 0.012139511 -118.91623
27666000000 -22.907173 -66.641823 -87.013428 -141.4259 -71.781822 117.27271 0.016319284 -118.9899
27667000000 -22.873381 -66.816536 -78.711014 -131.9164 -83.683884 -26.671 0.0104112 -119.06659
27668000000 -22.864056 -67.432861 -76.394402 137.78908 -77.385239 35.379173 0.010853119 -119.14278
27669000000 -22.829903 -68.121742 -74.879555 70.405624 -74.529114 -28.501675 0.0063558915 -119.19575
27670000000 -22.813025 -68.981812 -75.421944 -117.92886 -88.177879 52.495121 0.014173506 -119.28571
27671000000 -22.780064 -69.547134 -90.66568 156.82298 -90.661003 164.94643 0.01002537 -119.37792
27672000000 -22.770111 -70.408829 -78.02137 -177.77171 -80.324097 -132.41502 0.013559795 -119.42515
27673000000 -22.773319 -71.166916 -74.779922 -127.91318 -79.145889 83.539337 0.0090621179 -119.53979
27674000000 -22.805492 -71.839973 -77.462914 168.82849 -80.548805 -34.637177 0.0048458339 -119.64487
27675000000 -22.783323 -72.553909 -81.127182 53.239513 -78.768669 -23.897837 0.0012442983 -119.7042
27676000000 -22.760777 -73.099831 -85.542244 43.660675 -73.579193 -36.825397 -0.00040755389 -119.75236
27677000000 -22.732147 -73.893738 -86.48307 36.009487 -78.326324 -30.363562 0.0086070364 -119.83996
27678000000 -22.716736 -74.68605 -75.012283 146.60173 -75.927902 24.243486 0.015053724 -119.899
27679000000 -22.700809 -75.699371 -69.589661 139.95468 -86.283089 -44.412846 0.015834086 -119.99393
27680000000 -22.709885 -76.051796 -72.413666 108.8764 -70.871429 -102.61071 0.0069761216 -120.0638
27681000000 -22.728273 -76.899841 -84.487839 -39.480648 -74.729622 12.672022 0.013861196 -120.17944
27682000000 -22.687656 -77.723869 -83.004814 10.453751 -73.150002 -156.76323 0.01101136 -120.27831
27683000000 -22.673025 -78.599419 -75.340569 -42.123711 -79.730133 -134.03622 0.010726875 -120.31705
27684000000 -22.717089 -79.184807 -78.024315 -45.421803 -78.083176 69.712692 0.0059256209 -120.39341
27685000000 -22.686966 -80.132935 -77.665993 103.64865 -78.058739 -136.3645 0.0081242286 -120.47261
27686000000 -22.679752 -81.160385 -78.240128 147.56657 -76.763451 64.683418 0.0035910544 -120.54355
27687000000 -22.67094 -81.909317 -80.158752 126.42487 -73.648041 64.384048 0.0034495734 -120.61655
27688000000 -22.661354 -82.957481 -82.141449 -12.535915 -77.275528 28.489861 0.0098290676 -120.72273
27689000000 -22.655602 -83.843109 -77.204971 57.136711 -77.678825 -138.55663 0.016652996 -120.76936
27690000000 -22.660971 -84.545105 -80.231583 6.3471947 -75.259193 33.591736 0.0097422348 -120.84245
27691000000 -22.664562 -85.441299 -79.529182 4.563992 -78.320351 -30.416407 0.018808944 -120.95316
27692000000 -22.635668 -86.50013 -69.506783 -8.5923615 -75.14579 94.502235 0.018517133 -121.02501
27693000000 -22.605824 -87.537216 -89.47715 -123.61971 -71.891373 -82.858849 0.017420465 -121.06126
27694000000 -22.572363 -88.482895 -82.445221 -37.690781 -77.026138 -148.42723 0.018422462 -121.14089
27695000000 -22.564121 -89.613144 -77.016022 156.51524 -82.896324 81.00351 0.018452084 -121.2458
27696000000 -22.568556 -90.611992 -78.9739 -95.385345 -79.288483 -0.36088115 0.019653901 -121.31136
27697000000 -22.55617 -91.670372 -85.992844 -177.61511 -77.702934 -33.599804 0.020329528 -121.40323
27698000000 -22.527378 -92.727386 -81.037971 -165.36223 -89.176804 34.536716 0.019312277 -121.47527
