!Keysight Technologies,N5234A,MY55441357,A.10.47.05
!Date: Sunday, November 19, 2017 13:17:45
!Correction: S11(Full 2 Port(1,2)) 
!S21(Full 2 Port(1,2)) 
!S12(Full 2 Port(1,2)) 
!S22(Full 2 Port(1,2)) 
!S2P File: Measurements: S11, S21, S12, S22:
# Hz S  dB   R 50
27500000000 -37.170937 -76.898544 -76.947823 25.936768 -74.710922 53.979988 0.064831741 -101.2882
27501000000 -38.176044 -72.55648 -77.070671 9.1399097 -74.873703 -92.309563 0.068473354 -101.37793
27502000000 -38.701508 -64.349556 -74.633682 46.317104 -84.895126 -103.85064 0.057884108 -101.44781
27503000000 -39.646778 -56.555885 -88.446983 -152.86212 -95.295746 -167.55922 0.062540255 -101.50079
27504000000 -39.858669 -48.790966 -71.751953 -137.83562 -76.750923 85.815414 0.065734111 -101.56691
27505000000 -39.974586 -37.710697 -78.963173 -79.130905 -73.787331 -130.86102 0.068438917 -101.64148
27506000000 -39.845592 -26.041002 -77.88369 -177.3351 -76.062599 120.1395 0.066540599 -101.69878
27507000000 -39.590027 -16.687117 -76.25116 6.1462536 -81.44313 77.939209 0.068596758 -101.78088
27508000000 -38.720467 -7.6696777 -78.630264 -30.827864 -80.049644 -81.900497 0.065129347 -101.83506
27509000000 -37.965168 -1.6017623 -72.386749 -142.50633 -71.643837 -65.743317 0.068862244 -101.87095
27510000000 -37.118 3.7670269 -76.535645 -152.83989 -74.89254 -97.737305 0.061462928 -101.94851
27511000000 -36.427547 8.6862659 -73.103699 118.65392 -75.221756 119.96989 0.067961842 -102.03966
27512000000 -35.319 11.54798 -79.878693 11.07939 -73.451866 -172.05693 0.079071298 -102.08572
27513000000 -34.5653 14.325887 -76.625519 -101.77263 -87.079704 -13.168781 0.070160381 -102.16632
27514000000 -33.733406 16.698439 -79.907654 -94.942314 -77.738525 -87.43644 0.065302104 -102.231
27515000000 -33.128834 17.578562 -75.32074 59.420425 -83.225136 -171.72218 0.074000604 -102.24945
27516000000 -32.492973 19.575649 -74.251595 84.006393 -80.660309 -175.4297 0.070882432 -102.3632
27517000000 -31.830648 20.046623 -73.735817 -66.892365 -75.284004 39.214924 0.07676433 -102.42538
27518000000 -31.270372 20.603788 -73.668983 -8.4404755 -75.623718 -66.316704 0.079455249 -102.48726
27519000000 -30.600348 21.555218 -108.22245 -17.606607 -90.03437 140.19244 0.079285711 -102.561
27520000000 -30.048517 21.667204 -81.538391 -131.70305 -79.04213 -38.019608 0.065997973 -102.60059
27521000000 -29.522835 21.663887 -71.018181 -33.810791 -79.180611 -9.1926384 0.06715022 -102.68004
27522000000 -28.979847 22.021727 -74.75515 -55.115704 -74.408913 35.977558 0.062777467 -102.74803
27523000000 -28.52566 22.174297 -82.113655 -107.40161 -80.838211 -27.987492 0.066794425 -102.82409
27524000000 -28.180832 21.868355 -75.425354 -18.349892 -84.075584 -146.08684 0.064724065 -102.87444
27525000000 -27.743338 21.824837 -86.254578 -147.72833 -74.723038 -128.57275 0.061026115 -102.89866
27526000000 -27.29973 21.444435 -74.704269 -70.637039 -84.233368 29.378908 0.071648657 -103.0048
27527000000 -26.9459 21.470219 -71.077599 -154.48586 -75.138969 -96.524406 0.071186818 -103.14668
27528000000 -26.662577 20.980801 -83.754974 -110.04159 -86.340126 -32.200245 0.070967011 -103.19566
27529000000 -26.239464 19.935406 -86.881813 -45.652405 -88.464775 -168.47212 0.06590692 -103.18311
27530000000 -25.869459 19.710394 -74.273575 58.671162 -93.239372 -101.38322 0.066394843 -103.29284
27531000000 -25.553295 19.753433 -72.441483 115.22924 -81.708244 77.807854 0.069365501 -103.40081
27532000000 -25.264616 19.103735 -73.301331 170.17482 -73.623924 -115.28822 0.07200364 -103.46064
27533000000 -24.950281 18.363062 -77.739723 65.42157 -73.234093 83.097961 0.071406059 -103.54172
27534000000 -24.734463 17.501856 -70.568214 167.51587 -80.670471 13.604568 0.0700408 -103.56988
27535000000 -24.469084 16.672485 -82.141342 -173.58714 -78.868927 20.941868 0.065996878 -103.61342
27536000000 -24.127357 15.973456 -86.28804 -82.753365 -84.028877 2.2422953 0.061251 -103.63916
27537000000 -23.900017 15.417316 -81.501915 -129.01401 -77.383286 -9.8097029 0.059551891 -103.71911
27538000000 -23.668797 14.689305 -81.611732 107.95586 -87.738098 77.611053 0.066001788 -103.81791
27539000000 -23.450981 14.334701 -90.678993 -120.97683 -76.786697 129.2337 0.07193137 -103.9388
27540000000 -23.181952 13.492245 -74.535995 125.75716 -74.883118 160.51736 0.067526601 -103.94285
27541000000 -22.977001 12.684241 -74.757828 130.61104 -77.157845 84.930611 0.067426771 -104.03008
27542000000 -22.716839 11.6092 -80.136604 69.676414 -76.238579 109.01708 0.070782259 -104.14619
27543000000 -22.543415 10.673132 -74.288513 6.0103464 -76.526367 -168.22992 0.071248211 -104.16375
27544000000 -22.35177 9.8119497 -73.145744 149.59203 -74.616493 43.346821 0.063983694 -104.24206
27545000000 -22.162498 8.8922234 -68.340118 -106.48491 -87.723671 -99.405205 0.065967269 -104.31345
27546000000 -21.961157 8.3351622 -76.390999 -46.376625 -74.66848 3.3854818 0.06476599 -104.45821
27547000000 -21.731138 7.2510734 -75.713974 72.087898 -80.641525 -25.558765 0.066501506 -104.52168
27548000000 -21.5581 6.6734385 -76.090698 -148.72342 -86.334831 -111.33576 0.069020681 -104.54215
27549000000 -21.392269 5.9317617 -70.272499 -110.03901 -74.590515 -156.75578 0.066156134 -104.58382
27550000000 -21.232157 4.706244 -70.962883 -156.54013 -93.865479 -114.18923 0.057802785 -104.67898
27551000000 -21.070749 3.4163065 -77.402809 -85.47316 -90.237755 -112.20166 0.060775705 -104.74385
27552000000 -20.928761 2.4404163 -74.779533 -161.24522 -80.760262 -39.837788 0.068084128 -104.80241
27553000000 -20.769112 1.464188 -79.374962 -50.030731 -72.133621 -4.8123159 0.067966327 -104.91193
27554000000 -20.617933 0.56626791 -79.836235 177.84161 -72.447502 -119.05537 0.062994473 -104.97028
27555000000 -20.486017 -0.50642675 -70.775894 32.434601 -73.399361 -37.234104 0.064324677 -105.02035
27556000000 -20.335665 -1.687382 -77.179016 -171.63467 -75.792587 110.18379 0.06778378 -105.09964
27557000000 -20.183321 -2.8975642 -78.072006 62.044209 -81.686394 121.84695 0.069807522 -105.17426
27558000000 -20.038559 -3.9307337 -77.715836 37.189674 -82.794785 130.06041 0.062391099 -105.24316
27559000000 -19.91761 -4.9071026 -68.776375 40.684406 -77.785469 142.64568 0.063039176 -105.33804
27560000000 -19.795174 -6.0723872 -77.592682 60.959377 -79.303795 -103.89647 0.064727403 -105.40728
27561000000 -19.67581 -7.2374301 -81.331245 -157.43459 -72.767319 -41.150524 0.065658107 -105.44843
27562000000 -19.556252 -8.4551382 -81.658211 -134.46745 -75.942589 79.622154 0.063155875 -105.52427
27563000000 -19.439583 -9.6574535 -75.111824 109.33997 -83.409691 52.83989 0.072945744 -105.61798
27564000000 -19.334469 -10.975392 -72.150894 78.738159 -76.376083 45.776394 0.072825454 -105.69139
27565000000 -19.257458 -11.965328 -89.043259 -143.08522 -72.986633 -138.10895 0.075101219 -105.73807
27566000000 -19.145489 -13.418993 -87.557381 -90.159065 -78.081276 135.78854 0.072064973 -105.81317
27567000000 -19.0249 -14.943668 -70.486664 172.8688 -83.643539 59.273346 0.074020438 -105.88274
27568000000 -18.948269 -16.016863 -82.292778 146.57111 -72.532227 88.701691 0.064473592 -105.89949
27569000000 -18.852339 -17.471155 -81.616096 36.163773 -73.111099 149.23801 0.072453432 -106.01733
27570000000 -18.77515 -18.878313 -79.571106 -175.3622 -78.034241 107.14246 0.075989291 -106.12354
27571000000 -18.676027 -20.126694 -77.119545 -39.530071 -87.077408 102.01494 0.071065538 -106.17325
27572000000 -18.615896 -21.471153 -71.921516 -81.245422 -76.071556 153.62874 0.068654746 -106.24999
27573000000 -18.571262 -23.130928 -76.67746 -142.31212 -77.828491 -82.667671 0.075835727 -106.31048
27574000000 -18.500849 -24.666353 -75.378647 -105.05425 -72.256149 -99.482109 0.078406312 -106.33728
27575000000 -18.43845 -26.148643 -77.855515 -2.2916505 -87.568893 91.590118 0.075967059 -106.42929
27576000000 -18.380785 -27.711966 -77.586365 114.30416 -82.241684 42.357094 0.082534559 -106.49132
27577000000 -18.352596 -29.250654 -74.289856 164.95573 -80.156822 177.1059 0.075921766 -106.55197
27578000000 -18.294296 -30.77002 -88.767677 -150.65442 -76.938995 -95.208031 0.075002067 -106.62601
27579000000 -18.25457 -32.441559 -76.568283 -65.275131 -84.689697 -155.77054 0.086903788 -106.67783
27580000000 -18.221727 -34.097378 -90.01609 -56.873642 -69.904587 105.48447 0.079850376 -106.73293
27581000000 -18.208897 -35.65554 -88.841713 82.491379 -79.39785 104.43378 0.076096803 -106.83919
27582000000 -18.219887 -37.397381 -79.700386 -12.789584 -71.963295 91.864662 0.083449692 -106.86122
27583000000 -18.192614 -39.174171 -74.765633 -1.254706 -77.498108 -73.101463 0.078278258 -106.94417
27584000000 -18.196888 -41.075459 -80.74781 28.431692 -75.128143 -132.37961 0.081771977 -107.02463
27585000000 -18.234161 -43.029057 -74.987587 -127.16753 -73.085495 -32.795063 0.087306879 -107.12571
27586000000 -18.258514 -44.891872 -82.651802 -124.58791 -79.902756 87.546074 0.084544934 -107.15784
27587000000 -18.29196 -46.75827 -70.950729 -179.50987 -86.264168 113.80453 0.088863485 -107.1839
27588000000 -18.374424 -48.55344 -77.614342 -117.19262 -74.462334 156.71852 0.087621026 -107.24989
27589000000 -18.435432 -50.623035 -74.906189 -52.650429 -75.114494 6.0943251 0.079713367 -107.31344
27590000000 -18.531668 -52.503052 -79.622681 98.070457 -81.573006 13.270474 0.086819522 -107.3548
27591000000 -18.648111 -54.35973 -79.063919 -160.82655 -76.261978 67.41996 0.084092416 -107.41763
27592000000 -18.804785 -56.056492 -75.658615 169.40033 -73.42128 111.96423 0.074879535 -107.54328
27593000000 -19.005714 -57.698933 -70.629951 -21.344296 -84.22049 134.84911 0.081609569 -107.56292
27594000000 -19.216614 -59.219982 -74.633049 57.082779 -78.471931 121.13007 0.083597295 -107.64169
27595000000 -19.420599 -60.483833 -74.640137 76.236336 -79.469292 -99.238289 0.085482076 -107.63332
27596000000 -19.629202 -61.626194 -74.222115 171.63101 -71.155403 -82.078873 0.075732417 -107.68558
27597000000 -19.835144 -62.59576 -82.89016 111.25685 -82.686333 -163.46948 0.075302541 -107.76305
27598000000 -20.033941 -63.215805 -75.552818 -166.40598 -75.418961 -150.02419 0.07646855 -107.83868
27599000000 -20.252939 -63.753616 -77.533081 109.2162 -75.829948 -91.729958 0.073449828 -107.92352
27600000000 -20.379253 -64.187172 -75.820427 -76.429138 -80.962166 -135.43332 0.073323265 -108.02101
27601000000 -20.506893 -64.594513 -84.89341 94.237587 -76.750931 -115.25438 0.07843931 -108.05513
27602000000 -20.623556 -64.696259 -101.82761 157.02306 -75.531082 -72.4813 0.080583386 -108.09873
27603000000 -20.730579 -65.178268 -73.723038 -47.171089 -75.314148 -89.70977 0.078776583 -108.17321
27604000000 -20.819386 -65.575523 -71.747795 39.049469 -75.334671 -43.628368 0.075028747 -108.26161
27605000000 -20.892181 -65.861298 -80.50882 -3.6340785 -71.381523 -63.188477 0.072727218 -108.32507
27606000000 -20.93622 -66.405617 -76.908134 35.393559 -73.255379 41.336056 0.07781186 -108.41244
27607000000 -20.998926 -67.151215 -84.908516 -158.22737 -87.324867 56.272449 0.078504004 -108.45263
27608000000 -21.092424 -67.799896 -79.833282 -61.088432 -86.222801 -153.47842 0.076448731 -108.50389
27609000000 -21.155981 -68.701729 -93.277946 -58.938496 -77.454575 175.58849 0.067964651 -108.57927
27610000000 -21.275507 -69.343185 -77.499756 126.76891 -76.092987 162.45886 0.064823352 -108.66033
27611000000 -21.377218 -70.378639 -75.76825 128.29568 -78.861465 -152.46603 0.06759847 -108.7258
27612000000 -21.459332 -71.155807 -80.761406 135.28278 -74.485268 73.390839 0.074771129 -108.78403
27613000000 -21.55567 -72.288292 -76.940247 25.888493 -79.211716 116.33069 0.072812885 -108.8241
27614000000 -21.677843 -72.785179 -98.937347 157.45055 -76.584236 -53.328346 0.067331485 -108.87262
27615000000 -21.818794 -73.533943 -82.03997 -134.07962 -88.159081 174.19089 0.0668047 -108.96146
27616000000 -21.964481 -74.190933 -70.956238 28.460007 -85.687386 -130.39073 0.062016491 -109.03089
27617000000 -22.190498 -74.805481 -75.105125 34.320702 -79.650314 155.85979 0.068698056 -109.09177
27618000000 -22.308735 -75.286919 -77.638222 -131.28484 -85.778648 -110.59274 0.060911294 -109.13897
27619000000 -22.46567 -75.561783 -76.394875 -22.618168 -79.744308 95.955536 0.059980527 -109.19892
27620000000 -22.669374 -75.707787 -73.705727 0.41049781 -77.582283 114.12868 0.060738768 -109.24197
27621000000 -22.858427 -76.367958 -85.338997 -45.228317 -76.678642 170.47549 0.061270189 -109.34077
27622000000 -23.025223 -76.569542 -78.076691 10.933376 -77.577324 -115.86568 0.058469262 -109.41966
27623000000 -23.22196 -76.676933 -92.418633 176.86818 -89.043381 -43.990795 0.063859142 -109.48363
27624000000 -23.421131 -76.412979 -77.36351 4.5429201 -76.161324 164.50313 0.062484361 -109.55561
27625000000 -23.60268 -76.093422 -84.911362 -111.06655 -77.088943 48.978302 0.06486275 -109.60219
27626000000 -23.752064 -76.013206 -74.438919 -60.176311 -85.405251 109.18441 0.064239383 -109.66055
27627000000 -23.959122 -75.099632 -74.378998 -17.777641 -79.138771 92.902359 0.064958461 -109.75819
27628000000 -24.083897 -74.846558 -90.103889 118.22578 -79.049446 51.143017 0.063428976 -109.82242
27629000000 -24.233322 -74.267815 -81.668831 -126.00061 -80.119095 -161.59619 0.068044387 -109.87103
27630000000 -24.392273 -73.800041 -74.750351 18.032568 -79.475967 2.7636144 0.066988505 -109.9703
27631000000 -24.479425 -72.942574 -76.827293 -141.79997 -73.413872 -105.02967 0.061030913 -110.02146
27632000000 -24.590704 -72.073448 -73.970612 -160.30594 -83.367523 80.00415 0.065335304 -110.08572
27633000000 -24.648094 -71.412758 -72.70826 56.064548 -78.341667 36.041615 0.061962951 -110.1538
27634000000 -24.67198 -70.396042 -81.629204 112.14767 -88.472 54.390423 0.060873713 -110.20644
27635000000 -24.660286 -69.726936 -80.338112 68.438141 -85.275192 -159.22452 0.066411145 -110.22961
27636000000 -24.741629 -68.667374 -76.948608 16.630669 -82.578186 -16.478769 0.063465834 -110.31886
27637000000 -24.75536 -67.923531 -71.941483 -123.51012 -74.598007 -98.414223 0.058291726 -110.42612
27638000000 -24.765995 -67.156525 -76.950249 93.402588 -70.122681 42.967052 0.068629496 -110.49866
27639000000 -24.770184 -66.273308 -76.005539 -19.615732 -78.445328 37.142117 0.065007165 -110.5514
27640000000 -24.710314 -65.784531 -77.458496 3.0111725 -74.372078 -95.067085 0.065276138 -110.6254
27641000000 -24.679937 -65.442955 -90.17218 -131.31416 -74.765297 133.0939 0.065452576 -110.68397
27642000000 -24.605057 -64.751793 -80.600441 -113.29602 -80.178535 62.656658 0.056438088 -110.7171
27643000000 -24.551876 -64.1548 -74.588089 3.2621958 -79.041237 -105.33397 0.063336186 -110.80527
27644000000 -24.551846 -63.695095 -79.405083 -46.836864 -80.791458 -115.70745 0.069774263 -110.88221
27645000000 -24.470444 -63.382885 -76.526985 99.786865 -77.421082 -105.24332 0.067486756 -110.9907
27646000000 -24.353437 -63.296047 -95.533737 -174.698 -81.185509 -159.49292 0.06260702 -111.05096
27647000000 -24.289606 -62.819721 -75.414604 -120.86863 -72.654846 127.70174 0.060239371 -111.105
27648000000 -24.188976 -62.574764 -74.344872 136.19785 -79.198494 140.26823 0.054573491 -111.1411
27649000000 -24.120237 -62.801945 -77.269791 -131.9622 -74.90638 -138.82005 0.065357015 -111.25098
27650000000 -24.057758 -62.865334 -71.995598 27.613737 -78.107712 -155.17455 0.065481193 -111.2917
27651000000 -23.969452 -62.924137 -85.366592 53.903576 -74.082207 -104.8753 0.06273514 -111.3809
27652000000 -23.88468 -63.068096 -82.289146 -127.70754 -78.35321 -119.22523 0.06000137 -111.44325
27653000000 -23.826677 -63.156334 -91.182327 -147.41217 -73.878777 -123.16183 0.068402566 -111.52724
27654000000 -23.753008 -63.126877 -78.481369 143.0717 -86.367264 -90.728302 0.070471302 -111.56573
27655000000 -23.682602 -63.316402 -81.203003 -46.016888 -75.842583 8.5745993 0.061399899 -111.65268
27656000000 -23.592548 -63.705303 -73.995491 -127.79935 -78.076294 160.66507 0.058710407 -111.67767
27657000000 -23.510763 -64.05542 -76.341988 27.880442 -89.119644 93.717186 0.060004525 -111.73318
27658000000 -23.484785 -64.865463 -88.815697 75.049446 -83.35482 -18.448904 0.059949104 -111.80045
27659000000 -23.447422 -65.111351 -79.172997 -8.4770308 -89.549919 -150.05498 0.060585406 -111.87868
27660000000 -23.429804 -65.357483 -71.083969 -125.6369 -80.13726 107.73065 0.05995601 -111.95465
27661000000 -23.406576 -65.788116 -74.127968 53.313648 -78.672081 128.19826 0.056815069 -112.01752
27662000000 -23.313011 -66.237289 -77.648209 14.376512 -80.244598 155.75937 0.055823132 -112.10612
27663000000 -23.240271 -66.678543 -81.41169 -9.6827402 -81.177521 -75.771011 0.057524953 -112.1871
27664000000 -23.218212 -67.172981 -84.574028 -74.949692 -74.573372 62.882378 0.055806343 -112.27886
27665000000 -23.193293 -67.951698 -75.509933 97.777473 -76.678024 -103.94357 0.061065521 -112.34314
27666000000 -23.184883 -68.219788 -79.784447 72.006409 -79.839752 -24.666788 0.060704831 -112.38229
27667000000 -23.178978 -68.658485 -77.709045 51.979481 -74.900383 -96.617546 0.053961199 -112.4443
27668000000 -23.127092 -69.096718 -81.957588 158.82462 -86.323608 -131.10922 0.049218494 -112.52599
27669000000 -23.064615 -69.59433 -80.41098 -69.373604 -72.705902 82.280746 0.042646073 -112.58376
27670000000 -23.045738 -70.536606 -79.16111 -156.53362 -80.448975 44.253597 0.046446044 -112.66846
27671000000 -23.034853 -71.042244 -74.12793 -108.3931 -77.667351 -119.21295 0.05319871 -112.75564
27672000000 -23.034655 -71.580299 -75.083344 -94.905807 -76.034508 -75.143356 0.053885732 -112.80523
27673000000 -23.036963 -72.043633 -82.984802 148.27295 -86.578598 -2.7392683 0.047988433 -112.90276
27674000000 -23.022932 -72.946945 -89.693802 92.800201 -87.323837 -81.937202 0.050116356 -113.03905
27675000000 -23.028122 -73.63192 -82.64492 -133.16945 -82.886246 -28.131573 0.047736838 -113.05585
27676000000 -22.995975 -73.929337 -85.394501 -33.970177 -91.875908 67.239281 0.043261457 -113.10842
27677000000 -22.924969 -74.73069 -84.91713 54.924496 -79.633034 36.106174 0.044497371 -113.15134
27678000000 -22.920647 -75.326927 -75.202881 -11.309958 -85.761383 -164.11914 0.053242359 -113.24802
27679000000 -22.915997 -76.408218 -74.16983 -177.49648 -96.021828 158.5088 0.057833429 -113.35735
27680000000 -22.911106 -76.77211 -79.504486 37.664013 -76.32917 91.0448 0.050786614 -113.40792
27681000000 -22.897093 -77.53199 -79.383675 158.64049 -74.985313 -116.25449 0.047903128 -113.47526
27682000000 -22.905846 -78.187462 -70.075188 -55.513321 -77.305573 45.966694 0.051334318 -113.57365
27683000000 -22.870104 -78.91555 -84.518181 63.422138 -84.148293 -35.768959 0.04816192 -113.63628
27684000000 -22.897936 -79.766861 -74.35289 -40.891121 -75.613197 -30.154192 0.050865352 -113.71078
27685000000 -22.859373 -80.499794 -77.049126 -137.86963 -73.446976 -6.8594179 0.046279076 -113.75499
27686000000 -22.799526 -81.477592 -80.608536 160.01488 -79.546928 25.934935 0.041042 -113.8478
27687000000 -22.814142 -82.220978 -78.01577 -4.235754 -70.744843 118.78052 0.049926486 -113.89921
27688000000 -22.794859 -83.089104 -85.512268 165.16673 -86.506935 51.499371 0.055034839 -114.01288
27689000000 -22.78874 -83.888863 -81.21035 178.89207 -77.357529 75.808868 0.054154318 -114.07972
27690000000 -22.774885 -84.552689 -82.080383 -179.3024 -85.867455 -91.334084 0.056565583 -114.12755
27691000000 -22.753824 -85.508263 -73.840302 -50.851608 -73.670746 26.689743 0.056986962 -114.20081
27692000000 -22.704798 -86.681419 -81.540985 22.711943 -73.674583 2.629287 0.059974708 -114.25862
27693000000 -22.670488 -87.824226 -85.93277 -4.9850855 -73.491982 -40.782787 0.060915653 -114.32629
27694000000 -22.63031 -88.544662 -71.012787 75.04184 -81.848053 -65.948273 0.056215081 -114.38905
27695000000 -22.619106 -89.599289 -78.98938 -146.65399 -86.906471 171.71284 0.060793128 -114.4996
27696000000 -22.624153 -90.501984 -80.120796 94.464607 -88.986351 -88.731148 0.063072085 -114.59521
27697000000 -22.593313 -91.582962 -85.061279 -49.499493 -76.134346 -51.47504 0.058797281 -114.63134
27698000000 -22.569979 -92.821075 -75.716316 -57.5289 -80.679848 -100.19669 0.061306693 -114.72815
