!Keysight Technologies,N5234A,MY55441357,A.10.47.05
!Date: Sunday, November 19, 2017 17:34:04
!Correction: S11(Full 2 Port(1,2)) 
!S21(Full 2 Port(1,2)) 
!S12(Full 2 Port(1,2)) 
!S22(Full 2 Port(1,2)) 
!S2P File: Measurements: S11, S21, S12, S22:
# Hz S  dB   R 50
27500000000 -35.235813 -0.56796515 -71.194328 11.426917 -75.938522 179.23393 -0.073316246 -123.43076
27501000000 -34.742828 0.057171006 -74.801811 62.806942 -85.990112 175.5336 -0.069223419 -123.46966
27502000000 -34.17976 2.4431772 -69.293938 -129.11415 -84.633675 -15.017749 -0.066887051 -123.55644
27503000000 -33.292046 3.907454 -75.652786 -157.89217 -78.222168 -36.664131 -0.072804831 -123.56845
27504000000 -32.859016 4.352963 -77.997437 137.96976 -81.254822 -129.35522 -0.069802418 -123.71548
27505000000 -32.226616 4.5938058 -74.830818 -157.60402 -79.730385 86.214584 -0.082928665 -123.75628
27506000000 -31.772652 5.4416504 -77.818779 -132.19693 -69.154724 49.179764 -0.077115864 -123.85077
27507000000 -31.326948 6.4330993 -69.78537 -132.36435 -83.133667 -175.14934 -0.077945985 -123.96693
27508000000 -30.544344 7.7703023 -69.619003 -165.44206 -85.493721 -26.78429 -0.078176022 -124.06203
27509000000 -30.137611 7.1854811 -71.756416 -174.08952 -77.993225 98.646317 -0.081611052 -124.16373
27510000000 -29.86978 6.516664 -81.411301 -150.98128 -75.660149 89.006462 -0.075907193 -124.17497
27511000000 -29.373285 7.5255632 -76.345467 164.68254 -77.844833 -36.434303 -0.078074619 -124.26453
27512000000 -29.011694 7.8896303 -71.93438 -99.215965 -83.596008 -93.828407 -0.069722734 -124.41041
27513000000 -28.541162 7.3554955 -69.475861 -74.035744 -69.860611 23.853842 -0.082725719 -124.43064
27514000000 -28.241968 7.7581677 -72.218979 -90.246811 -73.668983 -55.761261 -0.075647369 -124.5462
27515000000 -27.834377 6.5827579 -85.701653 6.2394571 -81.54734 46.491379 -0.073827766 -124.65104
27516000000 -27.507767 7.0996108 -81.409103 175.11923 -78.877647 -155.96017 -0.08701583 -124.71538
27517000000 -27.116705 6.4513054 -76.149773 -85.455048 -77.300713 94.012825 -0.080350369 -124.81298
27518000000 -26.865974 6.216094 -75.999672 -133.64766 -73.143799 155.09073 -0.085042357 -124.91251
27519000000 -26.522898 5.9380865 -69.804413 -137.2601 -76.463989 167.39067 -0.078386538 -125.02885
27520000000 -26.16408 5.9469891 -74.27359 -105.7496 -81.836708 -79.583015 -0.093056798 -125.11646
27521000000 -25.875771 5.4495549 -74.218048 -162.76115 -80.431442 -129.65097 -0.083298333 -125.2028
27522000000 -25.597816 4.9690237 -75.648308 -143.14323 -78.143784 -80.78727 -0.078872979 -125.28361
27523000000 -25.355885 4.2209353 -72.986061 168.17435 -74.072975 113.49449 -0.073721245 -125.3074
27524000000 -25.091242 3.6445112 -70.444183 153.85239 -94.174805 -83.700775 -0.078800991 -125.42792
27525000000 -24.864077 3.684062 -73.763878 -175.7281 -76.000015 -155.24072 -0.076525167 -125.57975
27526000000 -24.600388 2.5400851 -71.120995 -132.20322 -91.717354 -69.325523 -0.07791914 -125.67379
27527000000 -24.338865 2.0062652 -74.484558 -152.93361 -79.196739 -164.8792 -0.080218747 -125.74883
27528000000 -24.103958 1.2990379 -80.089211 -152.80881 -71.129021 20.205809 -0.084292427 -125.84377
27529000000 -23.934723 0.80021316 -72.574539 -145.47693 -78.049973 76.112122 -0.081027582 -125.9175
27530000000 -23.680504 0.063960046 -72.892723 -178.90652 -78.348602 130.71747 -0.07623864 -126.0056
27531000000 -23.475941 -0.25668427 -73.594742 -176.13023 -73.294586 -65.297226 -0.083101451 -126.11249
27532000000 -23.292551 -1.150023 -67.90638 170.15207 -71.024055 -1.9230018 -0.08248549 -126.21886
27533000000 -23.118996 -1.9074082 -78.698639 151.94167 -83.436378 91.43396 -0.080225393 -126.30045
27534000000 -22.87079 -2.4035509 -71.475136 163.78221 -76.186241 -79.276283 -0.079112381 -126.44183
27535000000 -22.714041 -3.0346682 -66.311943 166.9214 -72.118599 176.38913 -0.081701547 -126.51603
27536000000 -22.542942 -3.8847394 -69.270088 -148.78703 -80.708725 -148.34798 -0.074923232 -126.61522
27537000000 -22.39352 -4.7422314 -81.324516 136.56564 -71.957748 -25.82119 -0.080786288 -126.72251
27538000000 -22.214571 -5.2432761 -72.737671 -143.36308 -78.749039 -15.047723 -0.071028143 -126.80304
27539000000 -22.025314 -6.2825027 -74.949677 156.61211 -70.196281 -6.8117237 -0.076720208 -126.88696
27540000000 -21.848122 -7.0873141 -73.026573 -124.65478 -86.128746 164.69618 -0.071822375 -127.02142
27541000000 -21.745346 -7.8229761 -73.190025 -141.23997 -73.218132 159.12973 -0.079151422 -127.10342
27542000000 -21.53755 -8.6133394 -70.315323 -167.26216 -86.63546 178.74762 -0.077498138 -127.14626
27543000000 -21.360167 -9.5790634 -73.211296 169.9043 -77.803619 96.329216 -0.074871413 -127.23933
27544000000 -21.275913 -10.257789 -72.063759 -161.28644 -76.354256 -8.3915834 -0.079185195 -127.35303
27545000000 -21.109333 -11.22068 -76.399818 -148.51042 -83.354111 170.77788 -0.083276883 -127.44871
27546000000 -21.001284 -11.815993 -76.801239 -65.748436 -72.551262 127.60014 -0.077546507 -127.50919
27547000000 -20.813812 -12.917209 -79.814812 109.21964 -87.173782 131.29915 -0.075691387 -127.60757
27548000000 -20.780859 -14.139569 -75.478539 -175.12956 -74.953918 -142.92143 -0.077074982 -127.66975
27549000000 -20.578075 -15.019395 -69.539238 -135.49857 -83.847664 -171.21927 -0.086964235 -127.77989
27550000000 -20.47513 -15.874753 -69.833183 -168.86636 -86.751968 -135.47971 -0.080401294 -127.88309
27551000000 -20.312693 -16.781136 -85.967178 -95.531448 -78.822929 6.4891019 -0.084307231 -128.02356
27552000000 -20.230057 -17.968178 -73.495171 -108.05686 -81.692108 -41.182625 -0.077716894 -128.05191
27553000000 -20.118889 -18.809706 -70.313072 -127.95384 -75.822655 -96.764709 -0.075873293 -128.18509
27554000000 -20.016941 -19.955267 -71.792038 -153.46193 -72.796562 -177.44708 -0.073934428 -128.25639
27555000000 -19.951305 -21.009569 -74.722725 -130.29993 -74.76741 58.977169 -0.075269975 -128.37906
27556000000 -19.799894 -22.069662 -69.690842 152.56215 -74.072685 -61.487831 -0.074749738 -128.46017
27557000000 -19.746719 -23.297798 -69.670746 -163.99562 -77.043633 55.207439 -0.079711869 -128.5661
27558000000 -19.627201 -24.564501 -72.986374 -142.94202 -92.187592 8.5758944 -0.078246661 -128.60486
27559000000 -19.524437 -25.567507 -84.050072 170.28444 -77.560822 -11.376423 -0.066475168 -128.73189
27560000000 -19.467264 -26.726128 -70.764679 -160.12547 -84.177246 82.685646 -0.06242029 -128.80322
27561000000 -19.394272 -27.815168 -73.544128 -121.71406 -76.196663 -119.62574 -0.05960631 -128.84966
27562000000 -19.318298 -29.16835 -72.492592 -161.50204 -82.135063 -5.0782681 -0.065144919 -128.95348
27563000000 -19.241835 -30.406042 -80.114227 69.296089 -83.152359 117.68661 -0.063858375 -129.08884
27564000000 -19.195024 -31.672157 -80.063103 -151.40714 -75.295746 46.687347 -0.062038384 -129.18996
27565000000 -19.095016 -32.988735 -75.518661 -136.93053 -79.877815 102.80833 -0.063985579 -129.24121
27566000000 -19.030739 -34.349068 -78.706085 102.49373 -76.034935 63.25206 -0.073534273 -129.32869
27567000000 -18.987017 -35.626167 -74.768814 -130.41841 -80.243347 141.75197 -0.063972279 -129.43095
27568000000 -18.913956 -36.932407 -70.485008 -170.34904 -78.800308 120.14127 -0.065355994 -129.59822
27569000000 -18.852734 -38.550461 -69.928558 -150.17398 -74.027267 -146.01332 -0.065913536 -129.61801
27570000000 -18.793737 -39.908295 -70.80809 135.77547 -74.001854 178.79408 -0.064647399 -129.68076
27571000000 -18.756466 -41.362362 -73.382156 149.97246 -81.718994 5.4802384 -0.065771759 -129.82228
27572000000 -18.71546 -42.893833 -75.592255 -175.97249 -74.649307 -31.653761 -0.061560582 -129.91718
27573000000 -18.657766 -44.317394 -71.323578 -117.58448 -78.990601 -116.34985 -0.070500061 -129.99998
27574000000 -18.626659 -46.046574 -70.451981 -162.20193 -85.526604 -105.62528 -0.066188984 -130.09288
27575000000 -18.605881 -47.933891 -71.174736 -163.93407 -73.13649 160.95775 -0.056799013 -130.17822
27576000000 -18.54899 -49.131187 -68.998352 167.72905 -75.86618 -152.55949 -0.064336725 -130.26495
27577000000 -18.51058 -51.148335 -74.001732 -165.20427 -70.037849 -146.24638 -0.061197869 -130.37617
27578000000 -18.506388 -52.80825 -73.34066 -162.96877 -75.76963 -95.20179 -0.059221923 -130.43512
27579000000 -18.556276 -54.444248 -67.932068 -155.19839 -75.09066 117.80341 -0.06201927 -130.57243
27580000000 -18.528589 -56.263943 -78.4048 -114.22189 -77.669189 151.38837 -0.070700116 -130.64296
27581000000 -18.473074 -58.211891 -71.523041 -170.9369 -75.635109 118.33469 -0.064996891 -130.74669
27582000000 -18.512548 -60.178619 -71.649055 -171.40018 -72.211082 143.72188 -0.059594754 -130.85944
27583000000 -18.581696 -62.212124 -73.912315 166.68877 -74.770569 42.915817 -0.059454095 -130.93179
27584000000 -18.598135 -64.091858 -80.362564 39.58255 -76.717789 106.85171 -0.065662585 -131.02916
27585000000 -18.673952 -66.085434 -74.545982 125.06586 -77.932945 66.162529 -0.067747876 -131.14487
27586000000 -18.734903 -68.086182 -67.274231 136.34874 -76.471977 -0.58156353 -0.06175172 -131.23463
27587000000 -18.811499 -70.095055 -71.770271 73.491371 -74.360802 136.65047 -0.067600287 -131.29993
27588000000 -18.949732 -72.106606 -74.302338 95.433479 -76.846802 -90.189011 -0.066830613 -131.44461
27589000000 -19.082582 -74.245117 -71.957695 -177.91199 -77.841263 131.3671 -0.065995581 -131.51643
27590000000 -19.18845 -76.481171 -66.049545 -125.38736 -75.953606 30.2078 -0.071738727 -131.6217
27591000000 -19.37258 -77.847679 -67.431671 158.84337 -76.394188 116.84113 -0.068646409 -131.69476
27592000000 -19.585793 -79.827583 -71.279716 164.22687 -81.232368 26.413383 -0.057939123 -131.80714
27593000000 -19.801811 -81.526665 -67.348969 160.30444 -70.887619 -154.39642 -0.069092236 -131.8611
27594000000 -19.989635 -82.6381 -75.265907 158.22639 -82.193161 11.551733 -0.065677166 -131.98251
27595000000 -20.236526 -84.055199 -78.904457 -129.67763 -73.69223 64.290619 -0.069062233 -132.09961
27596000000 -20.488329 -84.951958 -74.370087 159.53935 -79.426628 -130.98409 -0.068123162 -132.17819
27597000000 -20.686028 -85.90799 -77.776077 149.00681 -78.909592 88.140732 -0.061636571 -132.29158
27598000000 -20.923576 -86.288513 -70.858345 112.93369 -82.519684 3.1437843 -0.061894707 -132.3602
27599000000 -21.091291 -86.963074 -68.572609 137.12439 -83.652794 134.85803 -0.062908158 -132.44313
27600000000 -21.253811 -87.107094 -75.896049 110.76978 -79.442184 99.326904 -0.061201967 -132.55151
27601000000 -21.372202 -87.525253 -67.699127 126.13738 -76.130722 39.767498 -0.068727836 -132.66222
27602000000 -21.511766 -87.679695 -73.923409 124.68495 -77.138969 -122.5715 -0.069865793 -132.68074
27603000000 -21.613478 -88.337402 -74.122177 -158.13164 -77.284508 163.38943 -0.059512623 -132.78133
27604000000 -21.644709 -88.798195 -69.289139 176.53265 -76.786209 130.33824 -0.064788833 -132.92635
27605000000 -21.737841 -89.133919 -66.110283 113.90929 -79.353546 0.057061054 -0.061366815 -133.00005
27606000000 -21.789885 -89.94175 -74.884018 86.849136 -77.3778 0.63538265 -0.061510488 -133.11842
27607000000 -21.897547 -90.679604 -74.252037 103.26323 -78.892639 117.2299 -0.064706229 -133.21092
27608000000 -21.997129 -91.228546 -73.905022 -141.61374 -76.402229 -103.9026 -0.067670509 -133.30029
27609000000 -22.060766 -92.229073 -75.866135 140.00764 -72.533188 -108.18256 -0.065799549 -133.37242
27610000000 -22.124659 -92.919762 -71.8853 -6.2065334 -81.745598 86.553947 -0.059953537 -133.48096
27611000000 -22.245644 -93.677223 -73.971054 -149.50999 -74.501244 151.61896 -0.068954185 -133.58408
27612000000 -22.410551 -94.423668 -76.527321 160.15903 -75.008224 -41.434929 -0.05737133 -133.6485
27613000000 -22.530373 -95.207336 -77.428139 156.80582 -87.268326 -41.543015 -0.062283326 -133.78993
27614000000 -22.631359 -95.949219 -73.145416 172.70711 -75.425117 -90.401138 -0.061884064 -133.89359
27615000000 -22.817911 -96.262634 -77.81089 -163.83733 -84.376778 -160.05896 -0.064788967 -133.97032
27616000000 -22.895012 -97.154839 -80.543022 170.13724 -75.065605 -162.75345 -0.060703684 -134.0625
27617000000 -23.08967 -97.772942 -67.957329 177.39412 -76.824112 20.05299 -0.065459825 -134.15038
27618000000 -23.203026 -97.892403 -69.549515 158.36131 -86.406113 152.74782 -0.060592193 -134.20512
27619000000 -23.455296 -98.16201 -72.485802 161.1519 -81.704353 101.72827 -0.069479935 -134.34402
27620000000 -23.597677 -98.741447 -70.031746 126.74196 -71.982979 37.321327 -0.062945701 -134.44928
27621000000 -23.771656 -98.776955 -69.040649 142.49742 -71.226707 47.183765 -0.065777577 -134.50902
27622000000 -23.955458 -98.694023 -84.430931 -169.16429 -91.51088 -173.27721 -0.072641253 -134.67981
27623000000 -24.095722 -98.897224 -67.752983 179.99895 -74.974693 50.218334 -0.062180202 -134.74785
27624000000 -24.280556 -98.741425 -75.50956 161.32565 -78.894226 139.01483 -0.060980774 -134.87358
27625000000 -24.442495 -97.99057 -73.734642 173.89034 -84.143768 76.417297 -0.076412089 -134.95016
27626000000 -24.596407 -98.274551 -77.859276 141.46599 -81.386879 -79.469856 -0.06533052 -135.06801
27627000000 -24.737621 -97.671013 -71.832726 175.40674 -70.736214 -34.620129 -0.05955603 -135.12073
27628000000 -24.85845 -97.188759 -73.16568 -165.50941 -72.301582 16.481102 -0.06269215 -135.21425
27629000000 -24.992773 -96.237259 -69.615059 -157.55824 -81.134178 21.326292 -0.06957645 -135.35074
27630000000 -25.145208 -95.924011 -72.776787 168.77824 -72.316551 -21.234745 -0.067098893 -135.41336
27631000000 -25.187424 -95.112129 -72.257843 161.48636 -73.376656 -3.4007356 -0.064879842 -135.54782
27632000000 -25.338713 -94.479866 -67.77523 133.18013 -79.753754 33.756691 -0.072422549 -135.63408
27633000000 -25.359167 -93.623894 -72.774879 155.8866 -77.027611 106.47019 -0.063690603 -135.71465
27634000000 -25.429811 -93.452873 -75.209488 129.14203 -82.073387 84.315559 -0.058746338 -135.81088
27635000000 -25.42705 -92.256981 -71.736862 164.28947 -84.765785 104.29971 -0.067856044 -135.94405
27636000000 -25.425362 -92.015182 -66.963455 163.76314 -78.995796 179.76436 -0.077984191 -135.97356
27637000000 -25.478662 -91.098816 -65.940125 142.25398 -71.332695 56.865406 -0.070788793 -136.09505
27638000000 -25.457136 -90.17981 -65.864723 140.80594 -74.520088 32.871819 -0.071424879 -136.20529
27639000000 -25.432785 -89.772987 -68.997726 146.0495 -73.062653 -31.719557 -0.079825267 -136.31227
27640000000 -25.375895 -89.464523 -67.62899 155.90982 -72.452721 -38.191448 -0.065508172 -136.36894
27641000000 -25.358738 -88.670982 -69.171272 148.5892 -74.414558 16.297337 -0.06664253 -136.58087
27642000000 -25.340834 -87.892235 -74.714447 167.53378 -81.726456 -67.585426 -0.070016675 -136.59256
27643000000 -25.291166 -87.724403 -72.848328 137.27905 -73.40596 20.07929 -0.066824861 -136.69101
27644000000 -25.28064 -87.318687 -66.413139 123.20506 -77.903671 171.32724 -0.073578529 -136.75372
27645000000 -25.202639 -86.747482 -68.037567 -177.09004 -76.493279 -87.645409 -0.078362867 -136.91603
27646000000 -25.108307 -86.725136 -69.548401 149.8763 -79.384331 -61.684471 -0.073569834 -137.05768
27647000000 -25.141928 -86.535301 -68.446922 148.9873 -78.354988 -105.69164 -0.075307608 -137.12349
27648000000 -25.054504 -86.525688 -69.082062 -177.58652 -89.43808 -101.07961 -0.061134599 -137.30382
27649000000 -25.017998 -86.206192 -69.318916 147.70845 -79.26693 -63.984367 -0.07418602 -137.35104
27650000000 -24.973925 -85.990501 -72.221817 159.13945 -74.2985 -117.5348 -0.071109556 -137.44615
27651000000 -24.934811 -86.366974 -66.592316 131.63431 -97.403534 -87.644424 -0.06394349 -137.54431
27652000000 -24.797712 -86.028687 -67.94088 125.81355 -82.399124 16.150345 -0.065118372 -137.64964
27653000000 -24.8265 -85.892532 -67.408615 137.22437 -75.545166 -36.932556 -0.06683027 -137.81436
27654000000 -24.705254 -85.739372 -68.468437 127.33009 -74.85482 41.21629 -0.074970499 -137.87819
27655000000 -24.665329 -86.49292 -70.753021 131.62547 -80.286247 53.968464 -0.069822371 -137.98627
27656000000 -24.64123 -86.360588 -65.317101 151.34451 -82.265121 -43.074051 -0.075089179 -138.10437
27657000000 -24.586826 -87.081474 -65.068535 147.23885 -77.743423 15.33606 -0.066677518 -138.2063
27658000000 -24.562626 -87.005989 -68.106827 123.49261 -83.488091 -100.16602 -0.066756353 -138.35532
27659000000 -24.527815 -87.044731 -63.569057 147.34863 -86.871246 -119.22575 -0.080181561 -138.44765
27660000000 -24.455261 -87.594353 -65.555687 143.45813 -80.302345 -155.0688 -0.067353226 -138.52267
27661000000 -24.491697 -87.647301 -72.50312 139.73105 -88.50927 -77.800087 -0.067005262 -138.65826
27662000000 -24.453203 -87.720177 -67.595367 111.38033 -76.636909 137.32755 -0.068989478 -138.74963
27663000000 -24.418592 -88.520798 -67.812683 144.00116 -84.852493 -151.27533 -0.07046783 -138.85976
27664000000 -24.390108 -88.929604 -67.752602 156.91037 -79.463516 -126.93996 -0.064964302 -138.97849
27665000000 -24.385063 -88.923927 -85.770996 -17.180454 -75.785469 8.8326988 -0.072740525 -139.06705
27666000000 -24.30813 -89.440826 -71.05555 110.52681 -76.966858 -73.15834 -0.063454323 -139.11784
27667000000 -24.226717 -89.804108 -68.201515 121.23456 -73.632637 114.04636 -0.07017161 -139.25777
27668000000 -24.229481 -90.602821 -67.568619 150.04507 -77.308563 97.159111 -0.06601353 -139.37335
27669000000 -24.241602 -90.73555 -66.898262 138.76086 -75.087639 -142.54453 -0.073135585 -139.49516
27670000000 -24.254242 -91.220787 -72.91111 167.56944 -79.505295 -151.0589 -0.067801751 -139.59814
27671000000 -24.174023 -91.793617 -68.760704 152.87715 -96.739693 -9.1659584 -0.075978562 -139.69255
27672000000 -24.209969 -92.103012 -67.893791 132.75151 -78.232574 165.60847 -0.074396022 -139.74377
27673000000 -24.17531 -92.951584 -66.22242 121.5178 -76.60675 -167.798 -0.073148064 -139.88477
27674000000 -24.153795 -93.824196 -68.704094 81.672897 -79.388901 26.346394 -0.072330952 -140.02989
27675000000 -24.10675 -93.967461 -67.600693 123.84689 -75.081017 -85.110992 -0.078716956 -140.15213
27676000000 -24.118145 -94.709908 -64.775444 122.38474 -74.530075 -92.458641 -0.072908781 -140.24127
27677000000 -24.103678 -95.323273 -67.613976 100.09295 -83.247803 98.550552 -0.079282694 -140.29527
27678000000 -24.161934 -96.111557 -67.514854 119.03291 -83.745132 -17.209908 -0.071543805 -140.44409
27679000000 -24.064386 -97.251671 -68.153992 119.06892 -82.617523 43.378094 -0.082865 -140.56139
27680000000 -24.083384 -97.715134 -70.528313 169.71579 -73.482414 -4.7690368 -0.080401011 -140.63795
27681000000 -24.10014 -98.352142 -69.748741 144.758 -76.654671 -72.569206 -0.07849554 -140.75513
27682000000 -24.074465 -99.266075 -70.592453 125.03836 -70.296715 -90.708755 -0.078151338 -140.90195
27683000000 -24.019381 -99.776253 -72.50547 119.36409 -76.189323 -37.43343 -0.078929074 -140.95667
27684000000 -24.045 -100.97484 -66.214775 157.98911 -78.187538 -69.801018 -0.069068141 -141.07765
27685000000 -24.073376 -101.70049 -65.959839 127.26434 -78.261673 37.562885 -0.075732067 -141.18121
27686000000 -24.008684 -102.70542 -67.786926 120.2332 -81.385681 -114.92235 -0.077164568 -141.30504
27687000000 -23.955978 -103.50848 -66.851547 135.97295 -71.931259 -48.638508 -0.080811456 -141.39893
27688000000 -23.996523 -104.47813 -69.594955 120.23701 -84.820801 -27.705923 -0.076424278 -141.54425
27689000000 -23.98328 -105.62888 -65.603622 95.207726 -90.779434 -133.04095 -0.07420031 -141.61349
27690000000 -23.947433 -106.94086 -68.711586 109.08337 -77.534546 179.72876 -0.076789416 -141.7419
27691000000 -23.951956 -108.03138 -65.209488 101.59921 -73.128426 -164.3235 -0.076342404 -141.84299
27692000000 -23.978344 -109.2272 -64.691177 138.24316 -89.694603 -40.128384 -0.075084828 -141.92868
27693000000 -23.936537 -110.05811 -69.884491 103.47124 -81.608414 103.34178 -0.073151611 -142.03073
27694000000 -23.960993 -111.11299 -65.480515 78.408897 -80.848587 -38.817616 -0.075578026 -142.17
27695000000 -23.926487 -112.71422 -67.5252 77.478088 -82.978127 -56.754192 -0.070094369 -142.26169
27696000000 -23.964495 -113.83233 -69.530853 121.55437 -71.624908 -70.818314 -0.081335835 -142.39224
