!Keysight Technologies,N5234A,MY55441357,A.10.47.05
!Date: Sunday, November 19, 2017 17:34:47
!Correction: S11(Full 2 Port(1,2)) 
!S21(Full 2 Port(1,2)) 
!S12(Full 2 Port(1,2)) 
!S22(Full 2 Port(1,2)) 
!S2P File: Measurements: S11, S21, S12, S22:
# Hz S  dB   R 50
27500000000 -37.530773 -7.6621456 -68.257225 79.260391 -82.978874 -113.04102 0.0062774527 -112.56271
27501000000 -36.872307 -5.9377694 -71.31723 150.98273 -82.646545 48.921429 0.0067832335 -112.57568
27502000000 -36.296741 -2.7300739 -75.646576 96.984955 -82.207573 166.72635 0.0045357593 -112.61079
27503000000 -35.330978 1.0362272 -92.572128 -99.603561 -74.088623 -176.40446 0.0045860251 -112.66131
27504000000 -34.661518 1.652392 -72.484444 111.28284 -80.043427 10.510501 0.0017299504 -112.7793
27505000000 -34.034908 2.6364472 -79.148262 113.0519 -73.508667 -144.00455 -0.012784266 -112.83943
27506000000 -33.394337 4.7264776 -72.321037 33.624508 -74.867455 -41.847393 -0.00135345 -112.91139
27507000000 -32.881622 5.3488884 -77.475624 19.820471 -68.915581 -3.1043797 -0.0048282044 -112.98989
27508000000 -31.947586 6.6618943 -74.76683 -170.64865 -87.713196 -30.293604 -0.0025966796 -113.0422
27509000000 -31.489565 6.7707601 -74.725403 100.04933 -88.026184 -137.68474 -0.0082723759 -113.13979
27510000000 -31.069504 6.1839709 -74.726067 59.859955 -72.500984 17.494612 -0.0048859897 -113.14233
27511000000 -30.61842 6.9410691 -88.617302 109.08477 -73.940529 -91.993507 -0.0063650049 -113.22289
27512000000 -30.185652 7.4529352 -79.439499 158.31271 -78.014824 31.721252 0.0016855758 -113.32119
27513000000 -29.560936 6.89183 -73.140022 -16.562967 -83.194664 25.818176 -0.010191566 -113.3717
27514000000 -29.231525 7.4741359 -81.853577 -5.0032606 -76.846397 -161.71771 -0.0013151125 -113.44125
27515000000 -28.860937 7.1412349 -85.967644 -19.916416 -95.011658 -38.372082 -0.001321956 -113.53278
27516000000 -28.424648 6.9838982 -77.96698 -18.441925 -78.986305 11.251218 -0.010661202 -113.58398
27517000000 -28.040037 6.4251928 -83.540695 86.407188 -73.824898 58.984024 -0.010628805 -113.63811
27518000000 -27.729078 6.535089 -92.452202 -111.40874 -77.275589 106.19328 -0.017153334 -113.75289
27519000000 -27.354515 6.4639025 -79.953743 -89.394623 -73.411369 117.07117 -0.0066679786 -113.83799
27520000000 -26.932283 6.5375156 -76.471428 -130.27377 -86.053925 155.40858 -0.018655052 -113.90884
27521000000 -26.640459 5.9829106 -77.611847 57.540607 -76.723816 -74.044754 -0.012493402 -113.98218
27522000000 -26.294636 5.3172421 -74.908882 26.953156 -84.336853 -39.219059 -0.014015629 -114.03463
27523000000 -26.027021 4.6286201 -74.875885 -59.054363 -80.462311 68.860596 -0.0052694562 -114.06126
27524000000 -25.740934 4.4204483 -79.322098 65.217567 -79.615891 -176.19615 -0.0096827261 -114.16817
27525000000 -25.48192 4.2554445 -75.768387 123.50358 -74.867943 -105.34673 -0.013385548 -114.31368
27526000000 -25.176273 3.1471686 -75.015892 -138.06119 -74.044594 -94.405022 -0.0086109731 -114.34878
27527000000 -24.949017 2.427614 -77.125023 -85.278206 -77.245522 -9.6499386 -0.018425029 -114.4436
27528000000 -24.677271 1.8801361 -71.766014 -133.68832 -77.136101 -87.626762 -0.01824954 -114.52062
27529000000 -24.463232 1.3644562 -78.646164 59.359386 -72.641083 -168.61407 -0.0094205337 -114.58949
27530000000 -24.263418 0.89143622 -73.506851 -32.370678 -75.340981 -133.21848 -0.014940927 -114.60615
27531000000 -23.996862 0.26484445 -76.010544 -162.65977 -76.33564 -11.336326 -0.019263033 -114.71172
27532000000 -23.784212 -0.44146413 -75.898659 -126.54881 -95.277802 150.02577 -0.017182924 -114.81357
27533000000 -23.570618 -1.0960156 -77.229256 179.85373 -75.005875 78.132919 -0.016838092 -114.86665
27534000000 -23.364086 -1.8398347 -81.354652 -130.39496 -77.898613 117.35226 -0.019375512 -114.98535
27535000000 -23.186634 -2.6113691 -82.376831 -177.69923 -81.896423 -138.3793 -0.014378784 -115.00875
27536000000 -22.974785 -3.2280126 -78.046875 62.521297 -85.183693 -42.891937 -0.0068143192 -115.11726
27537000000 -22.840935 -4.1483541 -77.947739 -12.593949 -82.51915 -110.19167 -0.017121129 -115.19898
27538000000 -22.635496 -4.7146878 -70.879517 163.72333 -76.839462 5.3259974 -0.0072885505 -115.24799
27539000000 -22.40136 -5.5317326 -78.578362 -0.43624842 -75.445366 -154.23235 -0.010119037 -115.3038
27540000000 -22.239597 -6.2710028 -73.59845 43.592602 -77.037231 -110.17861 -0.012411495 -115.40367
27541000000 -22.095631 -7.1181798 -80.813042 -111.57172 -75.329796 -35.954876 -0.014113832 -115.50411
27542000000 -21.931242 -7.8360634 -81.619553 19.84787 -74.186935 -63.487564 -0.011541015 -115.55053
27543000000 -21.708025 -9.0436134 -72.755363 -13.657145 -89.30056 -125.79882 -0.0085723605 -115.59819
27544000000 -21.609531 -9.7910509 -80.74308 -63.554119 -76.672607 23.866758 -0.016199002 -115.70873
27545000000 -21.43511 -10.608319 -77.29541 -35.527737 -80.393417 -122.10455 -0.012037898 -115.79263
27546000000 -21.316069 -11.22218 -74.906586 130.36549 -97.361481 -122.77473 -0.01046012 -115.85004
27547000000 -21.156101 -12.36282 -76.97953 -169.3652 -75.869125 12.914433 -0.015828392 -115.92428
27548000000 -21.067896 -13.433914 -74.524437 -30.869038 -76.105629 -33.113949 -0.0070675192 -115.94921
27549000000 -20.876381 -14.375638 -75.528305 68.759712 -88.488449 178.83105 -0.017117444 -116.05643
27550000000 -20.777512 -15.172926 -75.49614 72.627251 -79.458984 -170.22935 -0.0017040507 -116.15453
27551000000 -20.610935 -16.218699 -75.084167 -83.376961 -74.354385 -143.49683 -0.012799709 -116.25182
27552000000 -20.513735 -17.435146 -77.881241 -175.27386 -93.164146 27.413334 -0.011726912 -116.28919
27553000000 -20.401047 -18.390049 -77.184128 -177.55461 -80.507401 -143.09926 -0.007594212 -116.38659
27554000000 -20.281609 -19.218613 -91.948097 60.719269 -77.972282 -154.77188 -0.0087654619 -116.43478
27555000000 -20.201376 -20.294559 -79.919579 137.57469 -80.237961 -140.62276 -0.0083466657 -116.54063
27556000000 -20.0653 -21.546476 -81.464378 16.746529 -85.579697 107.59412 -0.0090164924 -116.57185
27557000000 -19.979332 -22.84973 -77.535378 -10.007893 -88.8526 -67.604507 -0.011824871 -116.67794
27558000000 -19.876907 -23.860584 -72.855034 171.83087 -85.622826 -140.71443 -0.015637636 -116.74325
27559000000 -19.747944 -24.796904 -72.25354 98.78389 -82.833511 12.682725 -0.005895819 -116.82727
27560000000 -19.683172 -26.024822 -79.329117 -63.429756 -78.633461 -176.55597 0.00097226136 -116.83371
27561000000 -19.584711 -27.198751 -81.620529 94.249054 -70.54496 7.6540995 0.0027262168 -116.87215
27562000000 -19.519184 -28.481489 -75.576241 30.159605 -91.798691 -46.313812 0.0036435537 -116.98174
27563000000 -19.425163 -29.720892 -85.907242 -48.189972 -97.320679 -104.93971 0.0010781478 -117.08128
27564000000 -19.366276 -31.144175 -77.763771 -39.385056 -72.072014 88.05677 0.0023169874 -117.16753
27565000000 -19.280199 -32.391411 -71.657684 -29.577343 -79.597588 8.0265665 -0.001066669 -117.19061
27566000000 -19.203327 -33.616318 -78.656265 179.53029 -85.644279 31.006987 -0.0056376234 -117.26744
27567000000 -19.130688 -35.153767 -73.976677 -145.11975 -79.261589 -95.049644 0.0057496177 -117.34198
27568000000 -19.048 -36.219589 -76.47657 -81.9636 -73.823784 -125.10844 -0.0027247188 -117.4739
27569000000 -18.996784 -37.788654 -70.493423 -20.240986 -74.817673 -89.454521 0.0056839762 -117.5017
27570000000 -18.929548 -39.305962 -78.93045 -129.88205 -75.86985 -56.954308 0.0028458184 -117.53725
27571000000 -18.870768 -40.806816 -84.11869 120.44482 -77.228043 -123.15186 0.0071666175 -117.60806
27572000000 -18.829895 -42.176857 -77.078911 97.634193 -75.295647 44.516037 0.0067531979 -117.70171
27573000000 -18.758564 -43.759556 -75.981812 -64.563957 -76.874519 59.498688 -0.0054136403 -117.77332
27574000000 -18.714943 -45.538803 -71.955727 97.030518 -77.671272 178.7403 -0.0016377642 -117.86739
27575000000 -18.689636 -47.201828 -76.309464 95.709091 -89.480179 30.027903 0.008677626 -117.90181
27576000000 -18.638294 -48.307976 -75.132736 -28.944908 -75.265289 9.0306139 -0.00022638595 -117.98216
27577000000 -18.606104 -50.317265 -78.448952 -141.8271 -82.13826 -72.036179 0.003963151 -118.07729
27578000000 -18.582659 -52.190048 -74.42067 73.206207 -79.43132 106.56211 0.0041080476 -118.12635
27579000000 -18.603642 -53.70858 -79.810707 85.541695 -88.723434 -79.085274 0.00087977061 -118.23972
27580000000 -18.583914 -55.510536 -77.962379 -122.59583 -85.57328 128.36317 -0.0068728137 -118.2711
27581000000 -18.544138 -57.48243 -75.710144 146.75604 -74.288162 -152.41451 0.0024377042 -118.35099
27582000000 -18.556747 -59.534321 -77.786797 -174.68492 -76.624054 -14.874166 0.010394951 -118.38403
27583000000 -18.612349 -61.466743 -75.222626 88.092499 -78.522179 86.664703 0.006807894 -118.47723
27584000000 -18.629221 -63.221298 -81.806046 172.87839 -76.913307 45.590694 0.0059390776 -118.59463
27585000000 -18.691011 -65.092102 -75.218826 -119.09629 -79.235176 -0.73314631 0.0012249717 -118.66467
27586000000 -18.757261 -67.179985 -80.895073 -63.574512 -76.902321 -163.62735 0.0055276197 -118.70564
27587000000 -18.788042 -69.167877 -73.598488 99.057793 -72.622681 25.224258 0.000403096 -118.78771
27588000000 -18.922094 -71.300468 -71.534317 -144.28648 -82.094566 85.382286 -0.0011879543 -118.86356
27589000000 -19.033419 -73.333504 -77.810646 79.915184 -87.638359 134.703 0.00021469466 -118.92197
27590000000 -19.126303 -75.394165 -77.696297 58.809902 -87.96344 -85.094681 -0.0078334706 -118.98083
27591000000 -19.316277 -76.928192 -69.872375 65.971619 -73.227577 -137.35373 -0.008478648 -119.07913
27592000000 -19.48646 -78.840668 -77.824081 99.332314 -73.79818 -13.071475 0.0085788202 -119.12914
27593000000 -19.705515 -80.578232 -72.050217 147.86716 -70.925598 -14.759836 0.00027680953 -119.17527
27594000000 -19.893757 -81.686707 -77.913521 -14.873871 -75.556366 -136.77773 0.00037676265 -119.2471
27595000000 -20.095613 -83.063332 -72.571152 -7.3554955 -72.588768 -47.986305 -0.0028153595 -119.32188
27596000000 -20.33267 -83.947861 -69.063744 21.567705 -78.303238 77.547493 -0.0058436156 -119.42995
27597000000 -20.536348 -84.826538 -76.069725 57.409325 -80.431129 -140.69019 -0.00056727958 -119.51088
27598000000 -20.75515 -85.217422 -76.64769 82.114899 -77.346527 87.72361 0.0022146557 -119.53461
27599000000 -20.861719 -85.785851 -85.68248 -46.154411 -75.168938 -129.34563 0.0041254582 -119.59775
27600000000 -21.044504 -86.032776 -77.689217 -116.12843 -77.008217 -106.42999 0.0071223406 -119.6888
27601000000 -21.136143 -86.472351 -70.578934 -4.7080879 -81.738213 56.90353 0.0015268234 -119.76947
27602000000 -21.190958 -86.951271 -75.577812 -152.05876 -79.842514 169.00488 0.0064328513 -119.80843
27603000000 -21.257654 -87.542206 -75.334953 -63.406109 -75.58017 -137.18246 0.0060234261 -119.86749
27604000000 -21.296137 -88.336472 -71.216415 150.74586 -83.147484 86.248657 0.0071518547 -119.99315
27605000000 -21.37554 -88.986938 -79.850433 66.924911 -94.224724 85.519928 0.0045201173 -120.04723
27606000000 -21.437778 -89.747704 -75.828262 -76.864441 -79.667503 110.82629 0.0095692929 -120.12653
27607000000 -21.542727 -90.871269 -86.540321 -102.84322 -71.577049 -22.925564 0.011727598 -120.21908
27608000000 -21.614346 -91.355499 -79.751724 -112.81767 -84.154472 -46.806149 0.006666088 -120.3325
27609000000 -21.672424 -92.634254 -81.443375 56.040874 -80.012527 -74.296715 0.0063116751 -120.37473
27610000000 -21.767433 -93.276825 -70.825684 150.24872 -80.445641 121.58539 0.011141731 -120.4377
27611000000 -21.912443 -94.632729 -69.247025 112.28463 -76.678627 143.55696 0.00037803274 -120.54012
27612000000 -22.075008 -95.372612 -77.664597 175.33455 -90.096413 -6.6335955 0.018395459 -120.66022
27613000000 -22.209436 -96.622612 -74.748322 -128.50754 -82.047119 171.81473 0.020179469 -120.6963
27614000000 -22.345266 -97.168343 -74.197151 -158.04771 -87.631989 -112.10596 0.016663017 -120.77265
27615000000 -22.542227 -97.729118 -75.523041 52.289577 -92.553894 78.761314 0.0094561428 -120.81173
27616000000 -22.678978 -98.592415 -74.240105 129.05548 -75.839783 25.535439 0.01030008 -120.88844
27617000000 -22.88096 -99.25309 -80.123322 -150.45894 -80.21254 -0.31526253 0.014146478 -120.92307
27618000000 -23.033724 -99.453293 -75.41716 -170.10931 -93.995834 152.28094 0.0059651271 -120.97321
27619000000 -23.290394 -99.827187 -80.64682 -152.00771 -74.883553 162.43237 0.0042502009 -121.07059
27620000000 -23.445971 -100.29691 -78.853836 -66.586472 -78.833244 115.27985 0.0087172883 -121.15182
27621000000 -23.646654 -100.23119 -77.057198 97.500671 -100.76237 127.83437 0.0167966 -121.21743
27622000000 -23.90237 -100.07613 -74.837379 29.170294 -81.777977 145.30765 0.0052186558 -121.33408
27623000000 -24.03632 -99.998253 -68.937309 -32.088238 -72.179543 112.40783 0.0052062841 -121.35851
27624000000 -24.256386 -99.274986 -70.238075 -27.105022 -79.394478 -103.93649 0.016658127 -121.48866
27625000000 -24.446379 -98.831116 -98.261154 95.841835 -81.60173 -148.86128 -0.00066077569 -121.55605
27626000000 -24.630568 -98.676567 -89.496246 72.063705 -74.890205 -135.9838 0.014819739 -121.62775
27627000000 -24.757132 -97.981255 -73.257896 -19.231087 -75.598785 35.382858 0.0081058256 -121.69172
27628000000 -24.890308 -97.283653 -72.928535 76.419304 -78.824638 142.59601 0.014453925 -121.72661
27629000000 -25.036049 -96.175049 -84.224098 162.21423 -85.82534 -29.20727 0.006222826 -121.81998
27630000000 -25.165154 -95.319992 -85.745216 98.263023 -77.238297 -56.798512 0.0082404027 -121.89909
27631000000 -25.221434 -94.485519 -69.581192 -11.397928 -75.088867 158.66342 0.015807947 -121.91486
27632000000 -25.318233 -93.661774 -76.020927 -76.867447 -75.338318 -133.31004 0.0025613692 -122.03018
27633000000 -25.320728 -92.350693 -78.137543 -36.638851 -80.01445 -112.32816 0.0046873642 -122.07658
27634000000 -25.389526 -91.808105 -79.554207 -139.94038 -80.906136 63.075977 0.0092583857 -122.14452
27635000000 -25.351002 -90.413567 -77.344116 -74.161903 -75.411301 -5.1195245 0.0054976088 -122.2701
27636000000 -25.330185 -90.064636 -73.732307 -53.769596 -85.36821 170.0349 0.0028177092 -122.29007
27637000000 -25.343803 -89.57518 -68.810463 -31.546101 -82.464317 177.53844 0.0020297682 -122.40613
27638000000 -25.270887 -88.410179 -76.232239 -77.154366 -79.127083 -83.245834 -4.7275531e-005 -122.47932
27639000000 -25.189648 -87.470917 -75.696609 -108.45525 -80.25766 -1.699098 -0.0031779788 -122.54185
27640000000 -25.111216 -87.348022 -98.282242 71.607712 -78.462288 112.00924 0.010789106 -122.55437
27641000000 -25.104916 -86.321022 -75.949905 21.380838 -75.387184 -3.5772638 -0.0048362352 -122.69962
27642000000 -24.962898 -85.796127 -74.798531 -3.5245638 -73.20295 24.944878 -0.0031323663 -122.78508
27643000000 -24.87528 -85.721046 -76.111404 -157.77751 -81.090256 103.05814 -0.0046938066 -122.83127
27644000000 -24.823103 -85.618896 -70.008621 -69.07608 -74.143318 87.313126 -0.0027087755 -122.88755
27645000000 -24.730593 -85.302368 -71.422218 -153.62088 -75.872559 116.21741 -0.00621616 -122.95004
27646000000 -24.594713 -85.039131 -74.266754 -127.57001 -74.013992 120.21289 -0.0073076114 -123.06824
27647000000 -24.609278 -84.91394 -71.109009 -69.981262 -75.632004 110.45317 -0.005048228 -123.14165
27648000000 -24.478891 -85.001137 -72.680305 -71.42318 -76.075172 51.668728 0.003954283 -123.2687
27649000000 -24.394081 -84.765099 -77.110466 -107.87322 -76.455605 41.293243 -0.012246436 -123.35227
27650000000 -24.315996 -84.959007 -70.661995 -89.44989 -80.560013 78.443161 -0.015482401 -123.36689
27651000000 -24.24695 -85.389923 -77.159042 -48.986774 -83.278442 173.86575 -0.0072645671 -123.44341
27652000000 -24.126305 -85.332001 -74.230461 176.88135 -72.313072 -90.258797 -0.0064177122 -123.52228
27653000000 -24.096214 -85.677284 -72.966759 -68.574722 -75.095543 -140.95059 -0.0075132255 -123.59695
27654000000 -24.004995 -85.528725 -72.879768 -36.680294 -79.464462 74.103958 -0.012568622 -123.65361
27655000000 -23.923248 -86.182152 -72.875481 48.60503 -80.490074 -117.00557 -0.010025544 -123.75513
27656000000 -23.906075 -86.722137 -78.00193 178.88748 -82.099693 -97.444382 -0.012477795 -123.87418
27657000000 -23.828302 -87.151085 -74.377357 -12.378895 -73.198341 -122.48854 -0.0049718954 -123.92534
27658000000 -23.818068 -87.351509 -78.415573 -48.300823 -76.800697 5.442946 -0.012766957 -124.01478
27659000000 -23.770287 -87.657005 -75.530556 16.830173 -81.872139 162.39119 -0.019671049 -124.08539
27660000000 -23.72777 -88.535019 -81.355034 28.517681 -80.015862 150.63622 -0.0076496862 -124.13305
27661000000 -23.7041 -88.95134 -74.537895 -93.798615 -77.37336 163.94292 -0.0081868535 -124.20564
27662000000 -23.709295 -88.977692 -75.004509 -83.392929 -80.121338 -121.09361 -0.014348893 -124.30216
27663000000 -23.664703 -89.914848 -78.518539 123.42018 -88.29673 -144.09335 -0.011060184 -124.34628
27664000000 -23.667988 -90.607216 -71.101997 135.15715 -80.486496 -131.86801 -0.0064233635 -124.42702
27665000000 -23.670637 -90.991341 -72.291328 132.07291 -82.119431 -74.927849 -0.012176387 -124.52444
27666000000 -23.579426 -91.586067 -89.217216 167.64803 -75.023712 -164.49667 -0.0048546395 -124.518
27667000000 -23.616669 -91.941429 -88.572319 -9.4747849 -86.281227 -78.901184 -0.0030225501 -124.64748
27668000000 -23.569139 -92.707245 -73.529831 108.56765 -74.033951 73.103294 -0.0062826867 -124.69577
27669000000 -23.587029 -92.961288 -74.5354 -107.12046 -99.356583 35.127262 -0.014278394 -124.78927
27670000000 -23.600683 -93.912575 -75.056854 22.302437 -79.546326 39.053188 -0.0038225118 -124.87867
27671000000 -23.552681 -94.592163 -71.441925 142.9281 -85.578003 -37.264191 -0.0035019347 -124.90305
27672000000 -23.615561 -94.816864 -75.812363 68.460068 -80.711456 20.567308 -0.0040173624 -125.03022
27673000000 -23.629223 -95.448776 -71.549019 172.92375 -77.066299 -106.71071 -0.011326629 -125.09179
27674000000 -23.611849 -96.433701 -83.516472 -43.388588 -67.281799 -113.58694 -0.0052685221 -125.18182
27675000000 -23.575092 -96.538284 -76.837547 -86.028709 -80.330086 -43.558117 -0.0033320317 -125.26756
27676000000 -23.595133 -97.456711 -76.288918 -95.130386 -73.512642 -80.258102 -0.0026722352 -125.34048
27677000000 -23.638868 -98.187317 -74.961143 102.21046 -73.648041 -58.754093 0.000422121 -125.38654
27678000000 -23.689026 -99.01429 -83.626602 30.140522 -80.687149 148.87424 -0.0037939036 -125.4464
27679000000 -23.657024 -99.956833 -78.350464 43.424381 -82.904488 -80.413277 -0.020164493 -125.52528
27680000000 -23.661383 -100.34776 -76.758675 -147.72983 -76.24118 -131.06181 -0.013328794 -125.64317
27681000000 -23.683876 -101.04933 -79.766129 111.12604 -72.350891 -153.91737 -0.015061654 -125.70623
27682000000 -23.706287 -101.9047 -78.196831 98.321892 -72.966049 -72.00238 -0.0048707933 -125.78572
27683000000 -23.664646 -102.21785 -77.99379 -166.26904 -85.904022 64.795029 -0.0095145237 -125.85256
27684000000 -23.700747 -103.19559 -81.83828 65.269073 -74.619186 11.906283 -0.0034685791 -125.93977
27685000000 -23.732992 -103.9982 -90.673126 -125.92899 -79.159065 -41.092392 -0.0071876375 -125.99904
27686000000 -23.685389 -104.87464 -78.711235 122.88125 -74.856323 105.11969 -0.0084069492 -126.08442
27687000000 -23.669706 -105.76336 -76.312042 162.47496 -81.974541 -119.65583 -0.011949512 -126.12461
27688000000 -23.692209 -106.54639 -70.501663 -83.063545 -79.677933 -76.203537 0.00046614977 -126.22718
27689000000 -23.691162 -107.6311 -72.402473 94.520561 -79.660278 57.683388 -0.0038301088 -126.26293
27690000000 -23.698574 -108.58398 -80.792747 -62.823971 -77.578163 128.13522 -0.0030909893 -126.34444
27691000000 -23.70923 -109.34727 -77.997162 -99.914932 -78.993004 78.242157 -0.0039782445 -126.43776
27692000000 -23.718679 -110.66008 -84.592896 55.689651 -80.601791 57.111187 -0.0026157459 -126.49842
27693000000 -23.709055 -111.28941 -83.511269 -166.25395 -79.509949 139.4729 -0.0020166582 -126.55522
27694000000 -23.743006 -112.48733 -80.618439 -116.50415 -83.642792 179.70372 -0.0087995324 -126.65192
27695000000 -23.675682 -113.71409 -72.834656 97.786591 -75.032593 -159.04337 -0.0046131141 -126.71445
