!Keysight Technologies,N5234A,MY55441357,A.10.47.05
!Date: Sunday, November 19, 2017 17:35:06
!Correction: S11(Full 2 Port(1,2)) 
!S21(Full 2 Port(1,2)) 
!S12(Full 2 Port(1,2)) 
!S22(Full 2 Port(1,2)) 
!S2P File: Measurements: S11, S21, S12, S22:
# Hz S  dB   R 50
27500000000 -40.436413 -19.843172 -77.881119 84.688148 -74.461884 -159.14256 -0.0048635812 -121.42538
27501000000 -39.580856 -14.876104 -74.907242 121.96696 -82.309059 41.265835 0.0038968842 -121.45045
27502000000 -38.801819 -8.8289461 -74.554817 12.13744 -71.423965 135.34674 0.0045648566 -121.5202
27503000000 -37.614758 -5.8809509 -94.95723 11.551147 -96.130127 -141.7383 -0.00037929064 -121.5686
27504000000 -36.87273 -3.6881711 -80.00988 -67.463402 -80.319244 151.81978 0.0041597974 -121.71256
27505000000 -35.814743 -1.2763392 -79.204857 86.078918 -74.966164 174.44489 -0.013531622 -121.74624
27506000000 -35.086128 1.2399637 -80.340652 131.69788 -72.391876 123.95243 -0.0052218218 -121.85065
27507000000 -34.467365 2.9507191 -72.144081 16.45215 -83.729912 -148.00485 -0.0033427617 -121.9304
27508000000 -33.519398 4.5560689 -78.32251 123.71776 -78.540085 -46.104836 -0.006853783 -122.01907
27509000000 -32.924519 4.6188545 -77.005981 -14.901492 -80.835464 -134.1924 -0.011395422 -122.119
27510000000 -32.477386 3.6378138 -70.977486 35.230282 -70.603302 -128.87769 -0.010032281 -122.14622
27511000000 -31.85605 4.7975907 -76.761627 -118.66199 -79.237892 38.27211 -0.0078324601 -122.20387
27512000000 -31.392952 5.8343897 -80.25209 -150.55589 -83.691582 137.27264 -0.00027032234 -122.32822
27513000000 -30.676136 5.2870116 -83.109261 -21.93626 -80.28344 -124.32552 -0.01304682 -122.39516
27514000000 -30.317162 6.039835 -81.770653 44.04628 -87.243439 162.87051 -0.0097132642 -122.48017
27515000000 -29.814667 5.2179775 -70.884407 68.584137 -79.589241 144.3997 -0.011571901 -122.55985
27516000000 -29.342491 5.5365229 -74.992302 22.831877 -81.955208 -117.89744 -0.015240709 -122.64229
27517000000 -28.891178 4.835804 -77.420158 138.33417 -79.397217 -94.780304 -0.013314206 -122.73434
27518000000 -28.481422 4.7798762 -82.884552 165.10376 -73.273842 -72.23378 -0.018833941 -122.8018
27519000000 -28.147516 4.7518954 -69.826675 -8.0804987 -80.08387 -109.29222 -0.01314266 -122.89902
27520000000 -27.740173 5.1151905 -71.488998 -59.606728 -71.933685 -110.27096 -0.017822517 -122.98997
27521000000 -27.435101 4.4232326 -83.283295 102.59261 -75.271599 -126.96856 -0.016783254 -123.0712
27522000000 -26.982227 3.5619807 -78.302277 -26.16678 -73.865677 -57.99791 -0.018791175 -123.17398
27523000000 -26.71505 3.2339423 -73.460457 7.346941 -96.26226 171.43138 -0.013532993 -123.17789
27524000000 -26.388004 2.9354429 -77.674698 -79.484276 -81.905449 -86.776764 -0.013482939 -123.29288
27525000000 -26.157061 2.5265808 -98.072937 -114.19401 -73.682716 -151.29694 -0.019347303 -123.41827
27526000000 -25.818768 1.361389 -81.21788 126.57458 -83.713898 13.103481 -0.014439949 -123.48923
27527000000 -25.503899 1.0083227 -72.543053 -68.302322 -71.412476 158.92268 -0.016513905 -123.5619
27528000000 -25.268999 0.39864859 -71.812744 -6.0960474 -77.893883 -175.99072 -0.020929489 -123.64478
27529000000 -24.979404 0.099264406 -78.712082 85.230354 -74.43808 -143.5657 -0.017352642 -123.71154
27530000000 -24.733885 -0.81946176 -71.625259 110.58614 -74.383141 116.61439 -0.013535433 -123.78963
27531000000 -24.478352 -1.1540887 -74.033699 -41.659729 -72.327423 77.011368 -0.019810423 -123.88354
27532000000 -24.252087 -2.0452373 -76.85881 -99.204704 -77.428902 72.692253 -0.021295851 -123.98243
27533000000 -24.07556 -2.4118326 -73.608955 -52.922573 -89.589363 28.546711 -0.026936365 -124.05412
27534000000 -23.836277 -3.3121228 -79.486031 -2.2294631 -75.306862 -73.710022 -0.027348474 -124.16241
27535000000 -23.659603 -4.0752835 -78.804512 -104.59835 -74.532547 -19.415407 -0.020556754 -124.23321
27536000000 -23.375397 -4.7760329 -72.515808 8.8214684 -89.659248 -169.84805 -0.014099711 -124.33506
27537000000 -23.24004 -5.5672855 -86.177925 24.268673 -79.915649 -40.741192 -0.022470897 -124.42828
27538000000 -23.043837 -6.0527978 -82.373703 -61.521645 -78.700783 136.03572 -0.013702701 -124.50388
27539000000 -22.852386 -6.845068 -74.972961 66.068184 -79.109116 79.520287 -0.014285069 -124.54034
27540000000 -22.634714 -7.6840191 -72.354195 121.7681 -87.830269 -134.2106 -0.018972499 -124.66516
27541000000 -22.457182 -8.6568384 -76.613091 65.553772 -78.258102 -120.83785 -0.022503657 -124.77474
27542000000 -22.293495 -9.4161596 -79.599617 -68.303055 -75.864052 116.94364 -0.014260462 -124.81182
27543000000 -22.055527 -10.479542 -78.923149 -20.226183 -83.216682 117.17757 -0.010343982 -124.92778
27544000000 -21.95048 -11.135979 -69.20842 -39.013046 -76.872177 77.497475 -0.018128967 -125.01626
27545000000 -21.756636 -12.08623 -93.611458 -43.946426 -77.317139 -166.07144 -0.024692481 -125.07832
27546000000 -21.637758 -12.637361 -72.405052 27.304167 -79.359871 -101.06696 -0.014856806 -125.13898
27547000000 -21.451357 -13.787662 -81.401413 19.943901 -78.731903 2.8170304 -0.014587372 -125.21623
27548000000 -21.359631 -14.916282 -72.194916 -35.350258 -83.653076 110.60517 -0.022448957 -125.2796
27549000000 -21.181747 -15.813315 -82.323837 73.329758 -84.548256 -150.38953 -0.023690738 -125.36211
27550000000 -21.063581 -16.677212 -76.392281 -47.087925 -79.445335 -100.536 -0.012454052 -125.49032
27551000000 -20.901979 -17.659786 -77.102676 -28.649717 -72.475197 152.52521 -0.02131075 -125.60239
27552000000 -20.792452 -18.763874 -82.522568 -35.573517 -81.311241 -57.077381 -0.013005957 -125.61961
27553000000 -20.643108 -19.709906 -88.036629 -116.14443 -79.069794 -52.487499 -0.015941035 -125.72536
27554000000 -20.550314 -20.588398 -79.538177 33.94939 -72.235374 3.2785332 -0.016080759 -125.78778
27555000000 -20.426126 -21.712015 -81.365166 72.355988 -76.555244 119.46071 -0.013604519 -125.87901
27556000000 -20.30382 -22.905565 -74.23896 26.85507 -74.430183 -171.65216 -0.015910119 -125.95179
27557000000 -20.188942 -24.248552 -82.649071 121.26804 -76.096046 18.912367 -0.016116828 -126.09261
27558000000 -20.086424 -25.1437 -75.428772 71.699631 -74.179192 86.287292 -0.02307356 -126.12344
27559000000 -19.995535 -26.404583 -71.070885 47.610428 -84.029297 -77.659355 -0.01286675 -126.21586
27560000000 -19.873749 -27.514378 -80.751892 -60.787952 -73.495087 69.652031 -0.0099252863 -126.26091
27561000000 -19.785233 -28.568047 -77.643204 109.52065 -74.576279 126.01136 -0.0041148793 -126.28567
27562000000 -19.683462 -29.940298 -71.443153 -103.34787 -78.176788 -47.679867 -0.0056401561 -126.39824
27563000000 -19.613928 -31.235046 -76.236755 11.250088 -81.153305 -172.58804 -0.012275732 -126.53047
27564000000 -19.513666 -32.42078 -86.847496 30.107718 -76.093666 120.91846 -0.0020171255 -126.63358
27565000000 -19.447401 -33.87141 -90.992332 112.12807 -73.35672 164.08282 -0.0038066679 -126.63657
27566000000 -19.33629 -35.279213 -79.151886 137.11226 -75.133209 61.297855 -0.0080004614 -126.72658
27567000000 -19.291553 -36.479725 -80.054359 -99.859863 -85.523857 -70.399605 -0.0016515843 -126.84344
27568000000 -19.205853 -37.601219 -71.753532 -126.46978 -91.858856 -158.71037 -0.0032916691 -126.95145
27569000000 -19.141773 -39.259193 -83.054253 -30.582623 -80.597771 36.708614 -0.0013797974 -127.0033
27570000000 -19.09984 -40.799732 -79.906532 152.44057 -72.160988 -52.245686 -0.003138856 -127.0355
27571000000 -19.018824 -42.214046 -95.149506 -65.524071 -72.421364 -26.986643 -0.00020212558 -127.14128
27572000000 -18.946003 -43.811749 -73.989944 -1.9442739 -75.575569 -9.9935598 0.0031196717 -127.22198
27573000000 -18.890358 -45.216717 -78.308449 -64.016701 -77.937767 73.340591 -0.0014048003 -127.30244
27574000000 -18.836981 -46.913654 -75.196724 -133.67314 -71.599686 177.92188 0.00067119161 -127.39068
27575000000 -18.792597 -48.812263 -86.407249 122.61102 -85.89772 85.573097 0.014000908 -127.46395
27576000000 -18.733761 -49.973877 -72.122719 -82.414047 -77.493294 94.077263 0.0015734503 -127.52842
27577000000 -18.673687 -51.83226 -74.277374 -118.79448 -71.275581 117.49294 0.004720903 -127.6237
27578000000 -18.6441 -53.627731 -73.618179 -50.284748 -77.346176 -21.212511 0.0047936495 -127.72195
27579000000 -18.668896 -55.230064 -79.81945 98.922539 -85.563614 68.784508 0.001750757 -127.85493
27580000000 -18.626219 -57.098831 -88.979309 -31.977306 -81.267891 -158.31583 -0.0049167625 -127.91492
27581000000 -18.584396 -58.921783 -77.67466 -146.26616 -72.760742 -141.04979 0.0043417024 -127.97546
27582000000 -18.607052 -60.902737 -77.190125 54.444912 -75.289574 133.52478 0.011566386 -128.06256
27583000000 -18.640648 -62.905525 -78.500763 175.04617 -78.828239 101.33383 0.0056578899 -128.19504
27584000000 -18.628277 -64.710579 -75.538033 50.852119 -72.376457 -53.337257 0.0071725277 -128.27646
27585000000 -18.68874 -66.703346 -70.712425 53.59938 -74.986641 -39.859634 0.0014123254 -128.37878
27586000000 -18.717897 -68.640335 -88.647797 49.914608 -74.456017 -65.870308 0.0052325111 -128.44774
27587000000 -18.754496 -70.565056 -74.354042 -18.050676 -79.4375 31.824017 -0.001090877 -128.50754
27588000000 -18.867266 -72.674973 -83.008507 -18.444637 -78.646736 -130.93105 0.0026574226 -128.63474
27589000000 -18.957541 -74.817955 -76.092087 -33.530289 -76.913887 -107.16737 -0.0024726451 -128.71411
27590000000 -19.053856 -76.903748 -70.763954 10.933826 -69.866989 -68.602234 0.0034895453 -128.75699
27591000000 -19.220081 -78.359337 -69.956055 -71.461777 -81.66185 -92.126869 -0.0071582282 -128.85617
27592000000 -19.367285 -80.441879 -74.323105 -148.22067 -81.857948 105.89846 0.0036759716 -128.95103
27593000000 -19.574791 -82.232712 -75.473923 -14.983187 -81.536804 132.03658 -0.00068221946 -129.00159
27594000000 -19.745893 -83.53093 -73.266617 -3.4073241 -69.778915 -145.53477 0.0024074521 -129.09233
27595000000 -19.973562 -84.830566 -75.267036 -71.993851 -80.183693 122.84425 -0.00024568499 -129.21144
27596000000 -20.199139 -85.835732 -71.353394 -90.975426 -73.260994 155.44003 -0.0041842507 -129.26213
27597000000 -20.385595 -86.883438 -85.045494 171.55927 -78.874229 103.05518 0.0024915282 -129.39586
27598000000 -20.585823 -87.42234 -78.011963 -153.85933 -73.568672 61.931335 0.0030111861 -129.46956
27599000000 -20.726917 -88.082657 -69.848793 -6.1413646 -87.320473 -15.450378 0.0068135867 -129.50378
27600000000 -20.87228 -88.134048 -85.729057 12.094025 -84.738487 66.417076 0.005654166 -129.61508
27601000000 -20.964518 -88.780914 -75.688774 -110.5975 -76.168396 -26.438061 0.0032869875 -129.70795
27602000000 -21.037594 -89.241158 -80.511681 22.389549 -70.939232 84.16552 0.0031837923 -129.75867
27603000000 -21.130051 -89.842964 -87.76265 25.256786 -76.389984 -64.434631 0.004544863 -129.80556
27604000000 -21.166626 -90.483582 -85.932571 116.22401 -74.896576 -49.085186 0.0028847794 -129.96167
27605000000 -21.212097 -90.996635 -72.1782 -4.5963936 -74.677582 -157.12207 -0.00076184253 -130.04346
27606000000 -21.280018 -91.804352 -73.117424 -164.1519 -76.551338 -130.48659 0.0046793958 -130.13911
27607000000 -21.397858 -92.808723 -84.582397 -137.49265 -88.49514 177.24162 -0.0013823311 -130.20609
27608000000 -21.473207 -93.553581 -82.324173 -89.082893 -84.74601 -109.80585 -0.0011970452 -130.30426
27609000000 -21.472559 -94.640053 -76.818733 40.19437 -78.831154 -32.996799 -0.0016254446 -130.37733
27610000000 -21.595444 -95.288513 -77.682159 53.19973 -88.45002 -73.200371 0.0050817123 -130.4599
27611000000 -21.692259 -96.42897 -80.957832 22.180851 -77.982468 -53.601917 0.00054331764 -130.54506
27612000000 -21.85639 -97.22126 -69.349937 -105.19305 -76.294487 116.71602 0.0073510874 -130.63206
27613000000 -21.980095 -98.338219 -70.860939 -11.961425 -92.289078 -23.957981 0.012051831 -130.73293
27614000000 -22.059738 -99.027328 -75.510201 8.43929 -75.809311 38.227596 0.0054237437 -130.81134
27615000000 -22.233496 -99.354599 -75.461983 52.359886 -73.177551 55.040695 0.0024305803 -130.86723
27616000000 -22.374943 -100.28094 -72.041573 7.644896 -84.113899 -26.979828 0.0028042488 -130.9325
27617000000 -22.555983 -100.86575 -74.299477 14.344511 -71.330406 162.51308 0.0056349798 -131.0258
27618000000 -22.671249 -101.08417 -73.548576 18.987619 -79.388435 86.485802 0.004682072 -131.07217
27619000000 -22.903313 -101.50955 -76.531738 166.17583 -86.438698 -0.082726367 0.0018722794 -131.20242
27620000000 -23.077183 -101.92413 -79.508476 -55.953094 -84.994263 -92.894012 0.0060574505 -131.27795
27621000000 -23.227133 -101.97255 -80.53093 -19.108664 -77.075165 118.73656 0.0034791811 -131.3443
27622000000 -23.423914 -101.97346 -74.597275 -69.194046 -82.011284 69.330383 -0.0049496642 -131.47194
27623000000 -23.588037 -102.01621 -82.0158 -82.673973 -75.608078 -171.65477 -0.0019467633 -131.51077
27624000000 -23.771685 -101.58623 -70.733681 0.92098612 -76.476891 -126.6813 0.0099003697 -131.61343
27625000000 -23.899942 -101.22247 -78.486298 77.647835 -84.407578 109.97977 -0.0098043298 -131.71536
27626000000 -24.106695 -100.95573 -83.980598 -23.402832 -75.356026 -106.90793 0.0075290604 -131.80824
27627000000 -24.281462 -100.46168 -81.14167 23.67001 -76.439133 -56.599369 0.0029779489 -131.88075
27628000000 -24.361687 -99.960365 -73.84066 -93.192589 -85.625374 -53.240753 0.0092368107 -131.95184
27629000000 -24.486698 -98.829437 -67.918655 -60.040237 -77.169853 150.57443 -0.00034161718 -132.03821
27630000000 -24.618158 -98.441582 -74.328827 -41.549015 -77.875687 145.1127 0.0033259408 -132.11687
27631000000 -24.674025 -97.680519 -75.213028 -130.98444 -78.993828 -132.34749 0.0061985268 -132.23055
27632000000 -24.748491 -96.873825 -71.375359 -40.303967 -81.304321 160.70045 -0.0052782726 -132.32195
27633000000 -24.743927 -95.759239 -80.132935 109.66461 -81.127602 69.235779 -0.0029399623 -132.34663
27634000000 -24.828077 -95.435059 -75.034187 -72.824051 -83.00576 42.882214 0.0013797678 -132.43015
27635000000 -24.826725 -94.038551 -78.585503 134.12488 -73.862465 3.922514 0.0018085433 -132.55797
27636000000 -24.769232 -93.751602 -74.985092 -59.999416 -78.211662 -128.86591 -0.0067706676 -132.60324
27637000000 -24.828997 -93.306427 -77.550369 -55.199963 -78.999664 -105.59552 -0.0032866716 -132.7236
27638000000 -24.805727 -92.263054 -88.685883 170.29979 -78.459938 -77.525162 -0.0010786328 -132.80562
27639000000 -24.67725 -91.754578 -75.350037 176.10686 -77.961983 -30.816404 -0.010842795 -132.90474
27640000000 -24.633974 -91.383461 -74.217888 -122.24255 -87.219162 -21.240181 0.0020085261 -132.95049
27641000000 -24.638103 -90.506287 -76.750526 1.1937631 -71.716888 -74.318192 -0.0048832679 -133.11481
27642000000 -24.506451 -90.049805 -78.522469 -108.45057 -78.750191 -114.19864 -0.0044541089 -133.16029
27643000000 -24.484518 -89.984352 -81.371498 -74.851593 -78.075668 14.303072 -0.0035526953 -133.25
27644000000 -24.433655 -89.512177 -81.211571 -71.123901 -84.785652 -53.40863 -0.0070089204 -133.3019
27645000000 -24.359922 -89.268509 -71.632629 -99.58017 -76.426842 -12.136521 -0.012005154 -133.39658
27646000000 -24.238174 -88.990219 -74.925392 -150.68851 -80.839417 135.47705 -0.011449137 -133.52379
27647000000 -24.253498 -89.026199 -70.69101 6.6567402 -76.913826 100.61834 -0.012669973 -133.6037
27648000000 -24.154448 -89.226624 -76.027634 -28.952572 -76.581818 130.13898 -0.0063790972 -133.75262
27649000000 -24.085192 -88.869247 -77.432793 -117.59399 -84.652824 124.93198 -0.015491062 -133.83696
27650000000 -24.024343 -88.962891 -77.823723 -42.151272 -73.772324 -105.2616 -0.017094119 -133.87758
27651000000 -23.96073 -89.431015 -85.625229 -42.044624 -76.752144 -132.84961 -0.0057489215 -133.94733
27652000000 -23.851555 -89.077888 -77.100342 -42.880375 -80.134613 -127.12946 -0.0095802844 -134.05609
27653000000 -23.800894 -89.31134 -74.44194 -106.23189 -75.918259 -154.19675 -0.011938576 -134.15724
27654000000 -23.72364 -89.425446 -73.197723 -59.183754 -81.401054 75.367722 -0.018053776 -134.2224
27655000000 -23.648666 -89.644257 -68.559265 -38.007923 -78.143379 78.319572 -0.012179208 -134.31491
27656000000 -23.586145 -90.013496 -76.37178 -108.98373 -71.631256 60.1982 -0.017528547 -134.4301
27657000000 -23.540024 -90.854347 -88.850067 156.05006 -83.237373 109.04488 -0.0071099652 -134.51292
27658000000 -23.551323 -91.144623 -76.239014 -47.312408 -83.102577 -166.35188 -0.014265856 -134.63091
27659000000 -23.493458 -91.168762 -74.218208 -13.67349 -80.049202 -128.41255 -0.0200004 -134.70035
27660000000 -23.452221 -91.760994 -85.565994 -0.69291592 -74.415718 159.49028 -0.011077962 -134.79285
27661000000 -23.448214 -92.15332 -73.131569 -125.07164 -73.464569 -128.72447 -0.0094039282 -134.8943
27662000000 -23.407625 -92.419243 -74.926109 -97.964706 -75.952225 2.2161288 -0.017662616 -134.96739
27663000000 -23.368713 -93.193169 -77.868568 -153.52356 -83.136101 -19.29542 -0.017233074 -135.07031
27664000000 -23.371914 -93.673126 -76.184906 -154.30449 -70.875313 39.809582 -0.0097849891 -135.13982
27665000000 -23.35647 -93.847878 -76.947113 -107.982 -72.450752 -62.840199 -0.01745462 -135.25246
27666000000 -23.285698 -94.238579 -73.027229 99.995277 -84.594368 177.20049 -0.010992229 -135.28139
27667000000 -23.294586 -94.836403 -81.846474 -139.09181 -70.260735 -5.9208589 -0.015331737 -135.37997
27668000000 -23.275915 -95.317818 -73.881248 -42.139271 -73.082893 -74.004128 -0.011613995 -135.46892
27669000000 -23.282051 -95.749725 -72.203064 -154.17534 -81.156876 50.002281 -0.021259619 -135.56706
27670000000 -23.277 -96.499718 -73.807442 104.78329 -75.271843 129.02625 -0.011093858 -135.65355
27671000000 -23.242519 -97.165131 -79.134453 -37.039001 -74.044548 53.054668 -0.017103234 -135.70151
27672000000 -23.287724 -97.370575 -71.444237 -92.276512 -71.100052 -149.46834 -0.022740483 -135.79906
27673000000 -23.300297 -97.993858 -75.171959 -79.846603 -89.377525 -153.58189 -0.019383648 -135.91302
27674000000 -23.280964 -99.054947 -79.129364 -73.184334 -77.869217 151.81143 -0.021094257 -136.01785
27675000000 -23.258022 -99.209312 -80.917091 -158.91125 -83.810715 -64.347588 -0.024859829 -136.08934
27676000000 -23.288563 -99.955345 -75.367218 160.03444 -78.645088 -86.9776 -0.015845951 -136.15558
27677000000 -23.271746 -100.50995 -76.736397 123.93527 -81.515633 127.95692 -0.018550165 -136.21548
27678000000 -23.312586 -101.11588 -82.444672 12.106574 -78.498024 -128.46193 -0.016211616 -136.32147
27679000000 -23.294165 -102.16718 -83.72625 -60.42609 -86.334373 -0.43689656 -0.024862777 -136.40776
27680000000 -23.276941 -102.764 -83.60537 -4.7234211 -77.250542 -56.326767 -0.027850037 -136.51511
27681000000 -23.326475 -103.18641 -72.667526 -3.481415 -88.676033 52.969448 -0.024565844 -136.59351
27682000000 -23.32712 -103.9631 -72.707039 -32.003632 -82.059845 -144.78857 -0.015140795 -136.70015
27683000000 -23.281233 -104.37521 -76.2062 -116.95232 -77.853157 171.37163 -0.023037383 -136.75075
27684000000 -23.279697 -105.48978 -77.105682 -130.64851 -81.138855 107.48253 -0.0076315934 -136.85185
27685000000 -23.30455 -106.12564 -80.408745 121.44321 -75.41452 36.944714 -0.019452119 -136.94479
27686000000 -23.238609 -106.79476 -82.941345 -161.17101 -76.093781 -89.544769 -0.01529649 -137.03136
27687000000 -23.190163 -107.67124 -74.272041 4.6635442 -83.890381 108.11927 -0.015295357 -137.09096
27688000000 -23.288513 -108.45773 -81.013878 -78.539734 -74.050751 -4.1883278 -0.010268447 -137.20683
27689000000 -23.290834 -109.70337 -70.379021 134.7159 -75.526123 -75.29052 -0.013308682 -137.26392
27690000000 -23.237392 -110.69942 -77.249519 -179.82045 -80.229362 59.265205 -0.011522788 -137.38493
27691000000 -23.250965 -111.26722 -75.202896 170.5551 -81.745949 13.759439 -0.012162881 -137.4599
27692000000 -23.266939 -112.10326 -96.79496 74.2248 -70.585815 30.166395 -0.015884593 -137.51785
27693000000 -23.223248 -113.21014 -84.017776 -123.51692 -80.218018 -144.39064 -0.017225375 -137.61592
27694000000 -23.237682 -114.11684 -68.831322 -53.842255 -73.80999 -153.05681 -0.01594667 -137.72311
27695000000 -23.183762 -115.32933 -74.777977 -123.01895 -83.894348 74.025566 -0.016463362 -137.77881
