!Keysight Technologies,N5234A,MY55441357,A.10.47.05
!Date: Sunday, November 19, 2017 17:34:38
!Correction: S11(Full 2 Port(1,2)) 
!S21(Full 2 Port(1,2)) 
!S12(Full 2 Port(1,2)) 
!S22(Full 2 Port(1,2)) 
!S2P File: Measurements: S11, S21, S12, S22:
# Hz S  dB   R 50
27500000000 -36.886124 -6.9230452 -88.141655 -132.82043 -84.839737 22.392658 0.051583383 -106.67982
27501000000 -36.364124 -5.9181113 -82.640419 153.53867 -82.337692 -45.079578 0.062949926 -106.66693
27502000000 -35.806339 -2.2957911 -81.165329 35.611679 -76.774376 57.188404 0.059750728 -106.7288
27503000000 -34.828796 -0.13260832 -75.876953 130.34453 -82.675072 -150.66777 0.054314431 -106.75538
27504000000 -34.305901 1.0172282 -77.102615 -37.798809 -75.922607 79.126503 0.057636976 -106.8725
27505000000 -33.578728 2.0376582 -73.310875 -120.66436 -72.807686 39.370731 0.040592585 -106.90202
27506000000 -32.933865 3.4424164 -84.409286 -57.099689 -72.012276 -42.18808 0.050718617 -106.97596
27507000000 -32.547859 5.0019393 -71.188095 151.18092 -80.082367 -33.073994 0.052923635 -107.06746
27508000000 -31.679405 6.1038847 -74.414215 -149.60172 -85.771019 172.06851 0.043879107 -107.14011
27509000000 -31.174824 6.315104 -72.610039 114.53233 -78.508072 122.06786 0.040756669 -107.21237
27510000000 -30.791212 6.1515036 -74.854927 -120.45092 -82.006165 -17.057869 0.043271981 -107.20525
27511000000 -30.243267 6.5876298 -75.202118 -92.636292 -79.703201 -98.211693 0.049508952 -107.271
27512000000 -29.935009 7.255919 -85.035446 126.33048 -74.04995 -176.85823 0.0547029 -107.38612
27513000000 -29.391657 7.0024762 -74.416397 -9.4029942 -80.98909 72.982574 0.039783042 -107.42874
27514000000 -29.084629 7.2916865 -81.596992 61.051441 -81.760124 -144.5258 0.046604648 -107.51189
27515000000 -28.597588 6.5920472 -76.845703 96.31102 -74.183472 -94.822525 0.044741932 -107.58087
27516000000 -28.237852 6.9680185 -76.904335 29.919319 -77.241493 -107.96069 0.037183393 -107.64397
27517000000 -27.821646 6.3144989 -76.490875 91.453659 -77.821335 -99.509933 0.048052784 -107.69928
27518000000 -27.516644 6.3660879 -81.05143 164.88605 -75.690598 -113.35802 0.034616102 -107.78188
27519000000 -27.151676 6.2252212 -79.170746 -11.549211 -89.091835 -31.351959 0.040497828 -107.88287
27520000000 -26.768757 6.189322 -75.779099 53.23016 -75.558739 -124.93945 0.029415658 -107.92802
27521000000 -26.444078 5.4231882 -81.428314 -104.97923 -75.413597 -91.096397 0.031338476 -107.98003
27522000000 -26.177483 4.9774394 -75.175621 143.05713 -72.375389 -21.866991 0.031775273 -108.0451
27523000000 -25.859585 4.4886508 -72.77256 -116.04118 -74.054794 -41.464367 0.040982831 -108.05895
27524000000 -25.604927 4.0905056 -79.220322 -66.716156 -86.010719 -17.169561 0.035825208 -108.16795
27525000000 -25.382492 3.7517145 -77.742188 -23.420204 -73.676628 -119.24092 0.025497409 -108.25854
27526000000 -25.043142 2.6450958 -77.350098 -10.050012 -94.089935 -25.257578 0.035080675 -108.32838
27527000000 -24.820747 2.1989417 -81.151016 -50.815807 -72.263512 47.970058 0.030320646 -108.3594
27528000000 -24.55884 1.7453524 -84.177376 62.914116 -94.70417 -134.33929 0.029329771 -108.46456
27529000000 -24.33572 1.1847569 -73.902527 140.89072 -83.986137 -160.09502 0.031130699 -108.50359
27530000000 -24.151951 0.61700636 -75.044609 -142.00916 -80.619682 -72.087318 0.032346003 -108.58742
27531000000 -23.906107 -0.080021486 -83.681 -130.42532 -78.113472 140.74956 0.025814965 -108.66692
27532000000 -23.719103 -0.7971127 -71.752663 38.837605 -76.840622 -171.09779 0.03185863 -108.73826
27533000000 -23.515858 -1.4324024 -71.722923 13.488549 -74.30481 46.916153 0.029136449 -108.78978
27534000000 -23.300886 -2.0506458 -78.701607 116.61369 -84.706268 -114.59824 0.02316059 -108.93404
27535000000 -23.105404 -2.860723 -81.197029 -0.94869292 -80.987076 6.9467106 0.02440289 -108.95435
27536000000 -22.929224 -3.5875854 -78.846184 -33.483097 -74.991386 95.287956 0.035258695 -109.02778
27537000000 -22.752665 -4.33426 -70.08609 -111.43043 -81.038445 76.836884 0.024144234 -109.09257
27538000000 -22.552055 -4.7910895 -77.252304 -94.267052 -79.081139 110.0295 0.030955 -109.1889
27539000000 -22.319923 -5.6871552 -74.047897 -72.309418 -75.789406 151.86513 0.031270307 -109.19746
27540000000 -22.170414 -6.3671942 -86.100693 -125.31193 -84.389076 82.002838 0.034667503 -109.3056
27541000000 -22.006937 -7.3304057 -81.157387 155.75372 -78.769226 -34.951977 0.02381639 -109.37312
27542000000 -21.857574 -8.1743975 -77.079605 116.61942 -74.89904 -130.08246 0.032500427 -109.41736
27543000000 -21.651449 -9.0822868 -75.022324 109.61824 -81.135925 29.418642 0.030786779 -109.48819
27544000000 -21.540123 -9.8846674 -83.075798 -90.252617 -81.084656 19.354382 0.027928917 -109.55939
27545000000 -21.381699 -10.959563 -75.424744 112.58658 -85.915771 123.82127 0.027351536 -109.64253
27546000000 -21.277187 -11.604075 -76.650528 168.18439 -78.060463 142.40662 0.034741417 -109.70961
27547000000 -21.107227 -12.620568 -70.057587 -147.21176 -78.625954 167.51396 0.029901331 -109.7712
27548000000 -20.996233 -13.499534 -84.771698 -136.22211 -83.571762 -53.189339 0.034769766 -109.81839
27549000000 -20.825254 -14.482158 -76.937309 -171.37466 -78.957573 -48.492363 0.022883892 -109.84035
27550000000 -20.733875 -15.306304 -71.500206 130.61551 -75.885269 -16.438639 0.039347086 -109.97714
27551000000 -20.571381 -16.397556 -79.961021 120.97258 -83.296776 172.27785 0.028494809 -110.08101
27552000000 -20.496574 -17.483114 -76.866135 145.33562 -81.005318 18.042669 0.035078894 -110.11236
27553000000 -20.31601 -18.503345 -74.483795 14.809863 -74.391212 -26.875652 0.033046782 -110.1731
27554000000 -20.246906 -19.316105 -82.119774 86.552864 -91.131523 164.13571 0.036403336 -110.24553
27555000000 -20.15872 -20.49061 -75.507607 70.021484 -77.991241 -45.757496 0.034238998 -110.31744
27556000000 -20.035261 -21.673716 -69.852936 103.32183 -93.596169 -56.391209 0.033681728 -110.36622
27557000000 -19.948807 -22.827219 -69.544563 100.97004 -89.554771 -100.5551 0.03147056 -110.47994
27558000000 -19.839804 -23.987156 -70.262886 -73.398819 -76.558388 178.93922 0.036740892 -110.5143
27559000000 -19.706059 -25.089743 -75.475891 -63.068691 -85.269775 -14.308234 0.035962418 -110.57404
27560000000 -19.64109 -26.265823 -74.348076 71.536514 -83.701073 102.92918 0.041752052 -110.60973
27561000000 -19.544308 -27.296864 -77.452988 -166.84599 -85.458832 162.42915 0.051869098 -110.64211
27562000000 -19.473068 -28.612724 -81.791321 -95.970535 -83.520218 74.346764 0.045455631 -110.72167
27563000000 -19.406153 -29.951603 -76.556519 -74.537209 -74.592476 147.79843 0.044085015 -110.81236
27564000000 -19.34148 -31.22047 -78.282204 -23.272932 -73.229637 -28.71166 0.049524847 -110.93957
27565000000 -19.238724 -32.511265 -85.962044 -20.47463 -79.39225 -105.39527 0.042766321 -110.89873
27566000000 -19.156147 -33.95575 -78.100403 38.50631 -75.005539 102.20393 0.04341884 -110.98217
27567000000 -19.111122 -35.196156 -71.411285 -173.52878 -78.072304 99.404343 0.052065078 -111.07861
27568000000 -19.036026 -36.404652 -82.089706 104.01074 -80.697235 -176.38019 0.049200874 -111.20738
27569000000 -18.985332 -37.970215 -90.42585 152.04312 -72.252594 -165.74565 0.047440663 -111.21548
27570000000 -18.916626 -39.547985 -75.938118 -82.405449 -87.90213 -121.13488 0.043907225 -111.25797
27571000000 -18.849001 -40.907097 -76.664482 179.85878 -75.788589 -96.28331 0.051755533 -111.32711
27572000000 -18.811171 -42.327259 -79.012299 -173.81464 -82.948013 -105.79162 0.051813725 -111.39852
27573000000 -18.751331 -43.91655 -79.799614 -58.456352 -95.041573 160.15535 0.038494624 -111.45647
27574000000 -18.70537 -45.63002 -74.362534 -68.684113 -94.926483 -37.050583 0.046027906 -111.57285
27575000000 -18.677168 -47.404625 -79.30558 -66.580673 -78.181152 -0.50330687 0.054150432 -111.61417
27576000000 -18.640821 -48.482105 -77.529991 -96.625 -78.763046 66.64003 0.043446574 -111.65741
27577000000 -18.586008 -50.560539 -79.749146 -167.64664 -75.29966 -121.95318 0.04606007 -111.73127
27578000000 -18.557737 -52.313637 -80.546745 -65.143051 -90.486504 151.87309 0.049535744 -111.73866
27579000000 -18.602755 -53.859764 -79.994774 89.465927 -71.822937 -163.58122 0.048864901 -111.88973
27580000000 -18.558853 -55.673958 -88.355881 -55.972057 -85.37545 -171.23654 0.039404079 -111.9052
27581000000 -18.52124 -57.68111 -74.58828 -123.36077 -82.241837 120.46334 0.050310679 -111.98064
27582000000 -18.545355 -59.607651 -76.249435 -176.13466 -75.474678 -133.78705 0.051964011 -112.05463
27583000000 -18.599649 -61.620548 -70.305206 149.24619 -77.018204 68.439201 0.052781973 -112.13158
27584000000 -18.610336 -63.542759 -75.046082 -26.444073 -75.324028 95.27636 0.047599953 -112.21406
27585000000 -18.689625 -65.530914 -84.913887 -96.319145 -76.735069 -23.329075 0.04370654 -112.23927
27586000000 -18.735722 -67.545952 -80.28566 149.02925 -80.731949 152.76268 0.050986856 -112.32025
27587000000 -18.778187 -69.469681 -71.567451 65.340996 -74.77858 107.97771 0.0472189 -112.35078
27588000000 -18.901991 -71.636162 -75.839966 -157.9472 -75.42643 -22.317463 0.051182546 -112.47603
27589000000 -19.025202 -73.658592 -74.972954 -45.898659 -76.782349 104.43156 0.039199706 -112.55426
27590000000 -19.115238 -75.743317 -82.598396 22.630602 -73.672226 170.13239 0.041294452 -112.56306
27591000000 -19.302408 -77.249023 -73.698013 22.771418 -74.719963 146.2928 0.034820501 -112.6419
27592000000 -19.491701 -79.170082 -87.553551 -125.98039 -79.873436 142.99841 0.05321908 -112.70403
27593000000 -19.679306 -80.868332 -74.991447 -159.42699 -79.728523 152.26616 0.042358708 -112.76934
27594000000 -19.920343 -81.954979 -73.067238 -156.52957 -74.107285 -153.85115 0.044653352 -112.81561
27595000000 -20.104162 -83.417892 -79.157043 -12.515852 -71.771004 -127.77329 0.042526018 -112.88412
27596000000 -20.360605 -84.340401 -75.361053 -41.301922 -68.340439 -25.223085 0.042868141 -112.9775
27597000000 -20.541683 -85.198067 -89.753662 109.44979 -80.589951 124.1972 0.042404518 -113.04725
27598000000 -20.762968 -85.62133 -91.343819 151.63687 -85.01046 72.529297 0.049440194 -113.11997
27599000000 -20.871954 -86.244209 -75.586411 -2.4756942 -76.452538 86.148094 0.049630895 -113.15265
27600000000 -21.052095 -86.453133 -86.426178 140.01784 -81.815865 -1.1112608 0.049777877 -113.23562
27601000000 -21.149025 -87.049171 -79.618172 53.664448 -77.527016 -9.053133 0.047629163 -113.33022
27602000000 -21.230881 -87.411339 -75.524811 -0.55602759 -80.928146 174.46158 0.046714827 -113.32672
27603000000 -21.301701 -88.124779 -74.948601 -21.749943 -87.762489 120.71304 0.049816772 -113.39261
27604000000 -21.358595 -88.78614 -77.248039 51.881031 -83.189117 59.252064 0.052380957 -113.51061
27605000000 -21.424328 -89.32988 -79.713898 140.00633 -78.640915 59.868134 0.045232352 -113.56972
27606000000 -21.50478 -90.245392 -76.246979 -159.22238 -77.655403 20.940975 0.050883852 -113.64202
27607000000 -21.623419 -91.292412 -73.734749 104.49046 -81.12468 -58.322052 0.053818926 -113.70045
27608000000 -21.69883 -91.940948 -77.730682 115.72682 -73.207321 -89.999031 0.046106547 -113.79442
27609000000 -21.778608 -92.940323 -72.030037 167.74745 -72.591103 124.83745 0.046522759 -113.82179
27610000000 -21.872438 -93.604294 -86.368919 -29.28351 -83.628532 34.497017 0.05234322 -113.88876
27611000000 -21.999908 -94.870224 -68.488068 -153.77075 -72.419632 43.108997 0.044075757 -113.97774
27612000000 -22.195374 -95.852341 -74.439339 84.871422 -81.07579 145.66104 0.053669374 -114.05576
27613000000 -22.346752 -96.715355 -75.397575 125.81268 -78.563644 6.4081345 0.059820704 -114.11615
27614000000 -22.448244 -97.484787 -80.248322 160.17427 -70.2658 4.5610967 0.056195553 -114.1886
27615000000 -22.642498 -97.722488 -83.913406 2.1637239 -77.366219 -92.105453 0.051940322 -114.23579
27616000000 -22.774626 -98.831886 -76.327843 137.70709 -82.334084 111.21059 0.054208588 -114.29848
27617000000 -23.017454 -99.243828 -73.791656 147.7496 -81.399139 166.89275 0.057751738 -114.34952
27618000000 -23.126608 -99.70546 -77.971138 45.030449 -82.674728 172.43973 0.056142505 -114.36438
27619000000 -23.413347 -99.838165 -76.269852 31.96908 -75.516998 179.64337 0.052762985 -114.46751
27620000000 -23.596096 -100.18923 -82.920395 5.7313905 -81.17601 93.563026 0.057858434 -114.53577
27621000000 -23.772385 -99.984962 -79.646782 46.214615 -72.597191 125.69418 0.056751408 -114.55564
27622000000 -24.004152 -100.06675 -84.800842 -63.175331 -70.387627 -152.31007 0.046329159 -114.69193
27623000000 -24.158085 -99.964249 -96.175812 56.422222 -78.602638 141.4071 0.049696308 -114.72015
27624000000 -24.347561 -99.390533 -72.591164 55.123806 -72.002228 -8.7598906 0.059346482 -114.83121
27625000000 -24.54089 -98.621391 -81.620461 -97.223618 -74.687645 -118.33241 0.050914563 -114.8779
27626000000 -24.71022 -98.423775 -70.152367 -170.1286 -79.185715 -5.7474685 0.056388814 -114.93635
27627000000 -24.857738 -97.634193 -70.798515 134.0153 -95.360352 114.97696 0.054009136 -114.99963
27628000000 -25.012251 -96.861046 -82.330475 72.671448 -78.232376 172.40773 0.064490221 -115.03846
27629000000 -25.097116 -95.546539 -90.764832 130.42876 -76.488907 135.47638 0.050268676 -115.12704
27630000000 -25.230865 -95.213638 -75.208946 -87.210121 -72.441772 -84.83094 0.05913645 -115.16041
27631000000 -25.294819 -94.537712 -76.143433 115.05667 -75.105743 23.731611 0.065978497 -115.24841
27632000000 -25.376575 -93.147202 -69.381783 112.99425 -82.984825 20.990004 0.0596007 -115.33578
27633000000 -25.357216 -92.167809 -72.084801 -154.91873 -86.164711 -104.42202 0.060221277 -115.38511
27634000000 -25.456062 -91.694969 -72.910591 -90.680428 -72.303017 148.56702 0.061323751 -115.43099
27635000000 -25.381313 -90.548813 -76.347984 169.64305 -88.884064 -29.878939 0.056580998 -115.57474
27636000000 -25.31426 -89.926292 -82.253242 166.2393 -83.755806 -91.857368 0.04566595 -115.5899
27637000000 -25.370779 -89.150658 -72.748611 160.62093 -88.483231 -91.537209 0.057043165 -115.69394
27638000000 -25.292578 -88.281464 -93.895363 -109.7412 -75.534851 123.23605 0.055884127 -115.76361
27639000000 -25.227751 -87.644928 -80.147873 -74.325134 -82.968544 37.111126 0.048180848 -115.83517
27640000000 -25.157408 -87.400574 -87.449936 40.46904 -81.040207 -51.07172 0.061391212 -115.85266
27641000000 -25.1492 -86.706795 -79.937126 -132.21625 -79.188957 178.50908 0.051834453 -115.97546
27642000000 -25.072729 -86.014114 -69.985619 176.48563 -83.389915 17.570604 0.048438959 -116.04822
27643000000 -25.000307 -86.001518 -94.37957 17.64957 -74.679314 170.88315 0.042905722 -116.1134
27644000000 -24.932232 -85.64801 -74.723351 -144.28188 -75.273483 177.05275 0.043114852 -116.14048
27645000000 -24.826427 -85.444107 -71.09388 -48.840557 -79.796745 88.509933 0.041362658 -116.19484
27646000000 -24.720009 -85.309601 -80.343925 -162.02789 -72.718407 -13.356341 0.040221784 -116.29404
27647000000 -24.736166 -85.280327 -79.975128 5.5562301 -81.366379 67.435165 0.038623732 -116.35545
27648000000 -24.630709 -85.42765 -76.555603 -43.228687 -80.233093 48.964378 0.049531449 -116.48808
27649000000 -24.522947 -85.307442 -77.541275 -124.09064 -87.083992 52.332115 0.037505988 -116.54729
27650000000 -24.489958 -85.164093 -74.845573 110.9479 -77.251953 -19.732718 0.039253622 -116.57758
27651000000 -24.389765 -85.697151 -75.005913 -64.1138 -84.925766 -106.10126 0.040937528 -116.63165
27652000000 -24.305918 -85.58886 -74.694443 -19.086658 -76.205612 120.61284 0.036340717 -116.74168
27653000000 -24.304939 -85.871758 -77.443596 -110.34531 -89.920235 -175.74333 0.03763121 -116.79427
27654000000 -24.213741 -85.694969 -86.952568 131.79877 -90.121574 129.11179 0.029505428 -116.87835
27655000000 -24.121981 -86.388138 -87.977753 94.417191 -76.35672 173.99976 0.041751582 -116.97165
27656000000 -24.073961 -86.418358 -77.049751 -15.520383 -72.284164 111.21289 0.030951345 -117.04494
27657000000 -24.058512 -87.39473 -84.201736 -90.961388 -91.065689 -71.702003 0.040961023 -117.08195
27658000000 -24.045223 -87.590263 -75.961502 -167.56398 -73.465187 18.026966 0.032061037 -117.19714
27659000000 -23.981686 -87.847206 -81.053581 110.24097 -80.596855 119.83795 0.025367148 -117.22134
27660000000 -23.97057 -88.62706 -81.789848 161.88155 -79.99559 -71.098953 0.03754561 -117.26857
27661000000 -23.961424 -88.838364 -87.876312 13.770984 -83.765945 -9.0099125 0.032764897 -117.3194
27662000000 -23.944372 -89.321632 -82.65451 121.83041 -81.77829 -79.463074 0.030464314 -117.41724
27663000000 -23.892202 -89.999893 -71.359238 -40.937416 -76.456024 -93.124481 0.029863864 -117.45805
27664000000 -23.885714 -90.546463 -78.7733 78.782677 -76.970596 146.1958 0.036012307 -117.52614
27665000000 -23.940928 -90.742592 -80.862396 -109.66283 -82.072334 60.3895 0.026115512 -117.62186
27666000000 -23.876637 -91.228241 -84.17749 85.722931 -88.464455 28.891407 0.038253937 -117.63039
27667000000 -23.835291 -91.731956 -80.75177 -152.60242 -78.623314 25.280922 0.037895896 -117.73766
27668000000 -23.833143 -92.385666 -74.576485 143.73436 -77.24353 -25.567259 0.04257318 -117.79401
27669000000 -23.856686 -92.808502 -76.321236 163.85358 -79.303139 -59.113014 0.033149615 -117.87649
27670000000 -23.866297 -93.689941 -74.160309 -145.29018 -72.603477 -153.77267 0.043075047 -117.96126
27671000000 -23.851976 -94.290245 -78.001427 2.8820775 -79.976471 96.726578 0.034302879 -117.99229
27672000000 -23.889597 -94.548256 -83.216904 152.88121 -77.493492 118.13301 0.031261288 -118.05046
27673000000 -23.892292 -95.189453 -86.25116 6.1718154 -72.93293 72.75766 0.035238978 -118.15527
27674000000 -23.914282 -96.128082 -69.665794 -84.071716 -75.864227 -108.49965 0.03486665 -118.22835
27675000000 -23.872471 -96.267792 -80.85656 106.72871 -73.556 -162.45071 0.030315887 -118.29919
27676000000 -23.888058 -96.860611 -71.721405 -62.41312 -85.351395 -38.005119 0.036277097 -118.36082
27677000000 -23.878853 -97.402573 -69.850777 80.971718 -79.829048 75.07785 0.03146822 -118.40807
27678000000 -23.934832 -98.193092 -87.90522 35.187973 -74.18734 123.52354 0.040331922 -118.4742
27679000000 -23.930321 -99.25148 -80.864296 -16.764969 -77.630455 -85.494637 0.02656099 -118.51253
27680000000 -23.944 -99.732964 -77.938148 42.072796 -75.977104 -59.356495 0.0272693 -118.62618
27681000000 -23.956226 -100.16272 -75.760429 -177.1301 -76.584427 -161.92599 0.035295743 -118.71432
27682000000 -23.968073 -101.22819 -76.867592 -16.23904 -76.230171 101.65502 0.039864216 -118.78053
27683000000 -23.935545 -101.41651 -93.138214 122.29491 -72.837944 8.3358641 0.03527163 -118.80022
27684000000 -23.992722 -102.35422 -75.247505 130.64735 -68.85199 35.033024 0.044223312 -118.86525
27685000000 -23.982847 -103.01214 -74.659477 92.773232 -78.337433 -128.6416 0.036240295 -118.92183
27686000000 -23.919735 -104.08762 -74.405273 -8.9126244 -71.108856 -33.174484 0.035335388 -119.0111
27687000000 -23.874008 -104.90945 -79.092712 -40.770084 -78.628235 83.006805 0.035880189 -119.04453
27688000000 -23.926142 -105.8445 -94.095596 -115.68915 -82.388847 -16.017418 0.042797092 -119.11427
27689000000 -23.931908 -106.666 -79.891785 -170.96423 -78.965935 -145.86917 0.037354536 -119.18961
27690000000 -23.881584 -107.89761 -70.772408 -174.23425 -70.673119 -145.79352 0.043320443 -119.2836
27691000000 -23.8923 -108.41372 -82.454506 165.32968 -72.196358 -31.32091 0.043565467 -119.31103
27692000000 -23.925287 -109.53769 -71.344086 87.448303 -72.92984 31.167725 0.045361139 -119.38146
27693000000 -23.907341 -110.55197 -80.446541 -72.802696 -93.296722 90.668312 0.038144063 -119.44364
27694000000 -23.915907 -111.53903 -78.985527 -141.22659 -86.465652 49.170734 0.041719783 -119.51315
27695000000 -23.862492 -112.68992 -81.684433 -28.562008 -69.147957 -128.93039 0.042541713 -119.57858
27696000000 -23.912706 -113.69688 -74.927094 -141.11417 -69.061234 -91.912979 0.037966598 -119.6578
27697000000 -23.869797 -115.23714 -84.153969 -99.001022 -75.466042 9.4423723 0.042338874 -119.72887
27698000000 -23.88483 -116.10109 -77.07254 -153.55545 -77.389091 -42.640785 0.046756364 -119.72179
