!Keysight Technologies,N5234A,MY55441357,A.10.47.05
!Date: Sunday, November 19, 2017 17:35:25
!Correction: S11(Full 2 Port(1,2)) 
!S21(Full 2 Port(1,2)) 
!S12(Full 2 Port(1,2)) 
!S22(Full 2 Port(1,2)) 
!S2P File: Measurements: S11, S21, S12, S22:
# Hz S  dB   R 50
27500000000 -38.53664 -15.590418 -62.628712 6.2165885 -71.897705 148.19495 0.045759223 -136.04935
27501000000 -37.929691 -12.779113 -63.820614 -2.297204 -71.157532 147.97752 0.051914986 -136.10168
27502000000 -37.430275 -7.9691138 -64.812637 -19.716215 -80.373039 109.25499 0.051775273 -136.23709
27503000000 -36.244518 -3.5297813 -69.453148 -2.5278993 -80.841385 -50.06839 0.047540691 -136.30276
27504000000 -35.692574 -2.7034192 -65.120476 -17.988134 -77.905914 121.9976 0.04863755 -136.45496
27505000000 -34.884819 -1.5252502 -62.788738 0.21304378 -79.265572 124.76694 0.037064962 -136.56879
27506000000 -34.266357 0.70978588 -63.55442 -8.4829617 -78.402817 -14.896976 0.048859704 -136.7079
27507000000 -33.597179 2.39678 -62.292442 1.0043722 -70.873009 138.98552 0.043190718 -136.83154
27508000000 -32.614815 4.2847986 -60.431297 6.255199 -79.761986 109.51041 0.043590914 -136.9623
27509000000 -32.157722 5.1688724 -60.402027 -11.51438 -69.537247 132.28206 0.038721729 -137.08774
27510000000 -31.689062 4.79423 -61.889027 13.764304 -76.147041 135.09372 0.042091615 -137.1713
27511000000 -31.170279 5.5394034 -63.75082 -13.21422 -75.530663 -165.0873 0.036485109 -137.28073
27512000000 -30.770546 5.8560839 -64.209778 -19.930498 -76.517654 -155.53325 0.052456975 -137.45297
27513000000 -30.11816 6.174356 -62.147045 -9.5889978 -73.531715 -121.48302 0.038186505 -137.55016
27514000000 -29.786577 6.672369 -62.411232 -10.01532 -75.788551 -148.61469 0.046592239 -137.66788
27515000000 -29.373131 6.2135916 -61.264656 -3.2647774 -69.267746 78.441734 0.043931559 -137.78145
27516000000 -28.834024 6.6022034 -62.472496 -1.4713354 -72.643562 126.07305 0.037500687 -137.90218
27517000000 -28.458641 5.7013903 -60.373466 7.5903978 -69.605171 129.2693 0.041282367 -138.04686
27518000000 -28.10977 5.3035669 -62.171917 -2.6804595 -80.363564 159.98163 0.039101459 -138.15097
27519000000 -27.737446 5.3698635 -62.103821 -15.435167 -74.370338 135.40169 0.042239543 -138.30286
27520000000 -27.333685 5.7222414 -62.216003 -1.8151218 -79.663536 104.90199 0.036789589 -138.42366
27521000000 -27.022291 5.0117311 -61.011959 -18.021158 -75.584511 134.77014 0.041915555 -138.56273
27522000000 -26.661585 5.0398622 -60.073502 -1.5195503 -74.0616 -175.51485 0.042257279 -138.67819
27523000000 -26.378359 4.0632229 -60.778835 -9.8742962 -83.303665 -169.92354 0.047794491 -138.75467
27524000000 -26.094439 3.8455925 -61.701389 -9.3225269 -76.323593 124.16317 0.047647871 -138.95117
27525000000 -25.855539 3.5677519 -61.017014 -13.274012 -75.015663 49.992809 0.041701842 -139.12895
27526000000 -25.487358 2.6217175 -59.408638 -13.299911 -73.712471 144.75191 0.042318061 -139.22115
27527000000 -25.243401 2.0768504 -59.873024 -9.2930536 -77.661194 175.05107 0.040240303 -139.35687
27528000000 -24.958038 1.5444547 -63.731533 -20.168505 -74.383766 122.73991 0.036097929 -139.52991
27529000000 -24.715443 1.2767435 -61.899487 -31.587471 -74.965668 79.26741 0.040178459 -139.63991
27530000000 -24.473381 0.5434975 -61.319893 -24.230917 -78.051941 -105.34878 0.044555973 -139.73486
27531000000 -24.217022 0.21043533 -61.972294 -15.378545 -78.364212 132.76782 0.036697995 -139.89249
27532000000 -24.02092 -0.47401518 -62.863083 -18.404434 -68.836433 104.85685 0.039121717 -140.0341
27533000000 -23.827284 -1.2290521 -60.817444 -13.495811 -77.591019 -161.40735 0.039055295 -140.14032
27534000000 -23.589479 -1.8260473 -59.587543 -27.784601 -89.989426 54.321762 0.032838315 -140.33614
27535000000 -23.421217 -2.6657951 -60.119713 -23.149954 -80.455124 112.32927 0.036875352 -140.43138
27536000000 -23.209389 -3.5546861 -61.287983 -31.895184 -75.201416 -162.85657 0.043461125 -140.5723
27537000000 -22.996223 -4.0861516 -59.305096 -32.401642 -75.740303 167.27945 0.03337061 -140.74191
27538000000 -22.817556 -4.5494576 -59.514713 -28.660072 -78.775589 146.62895 0.044544164 -140.86401
27539000000 -22.592833 -5.6816149 -60.778984 -24.756365 -74.658134 154.34229 0.040862869 -140.94978
27540000000 -22.402956 -6.2035747 -59.512875 -22.96983 -70.87075 152.14729 0.04008605 -141.12065
27541000000 -22.258041 -7.4217477 -60.611225 -38.192699 -90.184647 33.1605 0.033623762 -141.27255
27542000000 -22.063137 -7.8795333 -59.127762 -18.636885 -72.643402 81.615417 0.035989925 -141.37859
27543000000 -21.8599 -8.9402695 -58.826675 -27.935396 -73.084488 61.981606 0.033280067 -141.51291
27544000000 -21.749443 -9.6040077 -61.161194 -30.23023 -72.667847 98.726677 0.038246457 -141.64456
27545000000 -21.575487 -10.458755 -58.583351 -32.095596 -73.231537 82.466835 0.032910585 -141.81232
27546000000 -21.443012 -11.1083 -59.051262 -29.865061 -75.187622 141.82829 0.036196753 -141.91216
27547000000 -21.293915 -12.136082 -60.579292 -34.655617 -75.103798 22.050886 0.03329381 -142.0399
27548000000 -21.164515 -13.175313 -60.452251 -30.702036 -80.217125 146.72685 0.038601983 -142.13631
27549000000 -21.003197 -14.061053 -60.227818 -37.85569 -79.628487 4.0510631 0.024048731 -142.28703
27550000000 -20.898067 -15.025296 -59.190773 -38.489563 -76.746262 -101.69552 0.037303187 -142.46964
27551000000 -20.719992 -16.070282 -58.843735 -30.556541 -92.024857 1.6610667 0.026732685 -142.63409
27552000000 -20.600405 -17.076763 -58.190681 -39.880405 -78.421089 -158.86642 0.031650897 -142.72708
27553000000 -20.468262 -18.049862 -59.435326 -34.547577 -78.51001 109.87353 0.0404162 -142.89445
27554000000 -20.391363 -19.128744 -59.438671 -35.705147 -68.567101 117.50689 0.033535842 -143.02357
27555000000 -20.304615 -19.896358 -59.380905 -27.123283 -67.82502 118.75182 0.030149985 -143.18916
27556000000 -20.143202 -21.172115 -58.913795 -43.488499 -76.93203 154.27682 0.029416647 -143.26434
27557000000 -20.039835 -22.409508 -59.766914 -36.280666 -74.672897 -4.3054972 0.034181003 -143.46291
27558000000 -19.929714 -23.470373 -58.191109 -32.271385 -68.181122 69.890358 0.030593736 -143.55469
27559000000 -19.808352 -24.521778 -59.442303 -44.677803 -67.264 110.27043 0.040211271 -143.71899
27560000000 -19.743185 -25.654247 -59.023712 -54.642998 -69.803299 81.248924 0.037590224 -143.84436
27561000000 -19.648592 -26.754461 -57.574116 -46.053322 -70.566978 49.988552 0.040997811 -143.94289
27562000000 -19.571182 -28.146479 -58.267742 -35.050026 -70.150604 140.40126 0.04618356 -144.11873
27563000000 -19.491121 -29.21232 -59.291885 -48.987267 -68.881699 135.20456 0.038068641 -144.28586
27564000000 -19.408535 -30.538551 -59.182014 -47.777988 -77.066055 102.78144 0.044308279 -144.43083
27565000000 -19.324305 -32.010933 -59.012497 -49.244297 -79.54628 138.50751 0.030921407 -144.52721
27566000000 -19.238316 -33.17094 -57.750301 -41.710236 -68.618546 144.72415 0.032913066 -144.67613
27567000000 -19.169514 -34.600895 -58.858799 -42.586658 -86.697083 68.723801 0.041526392 -144.83269
27568000000 -19.104971 -35.719032 -58.829159 -43.760704 -75.436256 133.03825 0.039648041 -145.02736
27569000000 -19.037777 -37.315006 -59.101776 -52.670166 -72.793335 111.87148 0.033263564 -145.14964
27570000000 -18.956974 -38.754349 -58.634537 -52.819454 -72.444832 78.238052 0.039157473 -145.26338
27571000000 -18.893579 -40.193878 -58.45599 -43.576931 -77.849007 57.948898 0.041161999 -145.43556
27572000000 -18.853813 -41.59259 -58.125069 -45.925236 -69.867538 104.88696 0.035029054 -145.56706
27573000000 -18.790487 -43.094978 -56.753952 -51.837673 -71.826996 89.830635 0.035698377 -145.71194
27574000000 -18.754145 -44.886135 -56.487087 -47.299236 -69.248573 106.72267 0.037088841 -145.88135
27575000000 -18.70175 -46.607929 -56.384708 -41.977211 -66.168381 135.31151 0.042883355 -146.01245
27576000000 -18.642782 -47.669174 -58.058491 -59.932247 -67.326324 117.40042 0.038613021 -146.14372
27577000000 -18.602043 -49.616791 -57.849846 -53.062504 -70.884033 113.06323 0.039170079 -146.32971
27578000000 -18.571901 -51.314449 -57.180557 -49.506947 -68.605415 78.069649 0.035274837 -146.46675
27579000000 -18.584873 -52.809509 -56.407818 -61.087711 -78.006226 100.61643 0.036024697 -146.62856
27580000000 -18.550154 -54.787945 -56.120922 -53.165775 -81.459831 110.67801 0.03183439 -146.75508
27581000000 -18.51276 -56.806232 -56.310284 -56.546501 -85.352783 92.86776 0.037482955 -146.91441
27582000000 -18.53651 -58.633034 -57.049225 -57.490631 -72.726746 139.70982 0.047242638 -147.06702
27583000000 -18.579105 -60.481174 -54.910686 -63.629147 -70.622917 144.3694 0.037384696 -147.21365
27584000000 -18.567642 -62.300587 -56.657707 -66.762756 -70.805275 115.26181 0.037716709 -147.35739
27585000000 -18.638584 -64.103294 -55.664513 -60.757648 -69.698616 82.329056 0.034051593 -147.51805
27586000000 -18.68939 -66.231216 -55.561283 -59.814247 -68.681458 111.71622 0.036663681 -147.65733
27587000000 -18.720974 -68.127319 -55.686234 -63.263187 -69.31469 83.696991 0.03444368 -147.79686
27588000000 -18.834999 -70.349602 -57.082413 -62.091187 -66.182098 86.606598 0.034476731 -147.99153
27589000000 -18.940126 -72.345139 -55.603909 -70.661095 -67.974365 96.647049 0.032610416 -148.15001
27590000000 -19.027723 -74.342377 -56.719261 -71.148582 -75.770576 49.20422 0.028161567 -148.27219
27591000000 -19.192362 -75.928322 -57.833019 -68.74041 -73.365753 112.39951 0.022385769 -148.41313
27592000000 -19.364113 -77.920792 -57.489719 -70.340096 -73.72644 113.60952 0.038284123 -148.55429
27593000000 -19.557137 -79.631638 -56.150558 -57.637119 -73.661873 69.126831 0.031777173 -148.7251
27594000000 -19.74555 -80.802124 -56.965618 -68.561462 -71.62175 75.202415 0.028592097 -148.86195
27595000000 -19.931637 -82.275269 -56.245201 -74.539932 -75.384132 46.883331 0.026572071 -149.05739
27596000000 -20.178104 -83.227539 -55.650921 -73.20327 -68.202507 94.665672 0.026246617 -149.18552
27597000000 -20.338547 -84.338921 -55.159348 -70.026894 -69.712212 127.8205 0.028425537 -149.36279
27598000000 -20.541704 -84.751732 -55.913136 -74.890526 -67.989044 61.182636 0.033309359 -149.53403
27599000000 -20.689999 -85.269562 -56.428814 -69.713509 -74.904465 105.06456 0.029440181 -149.65672
27600000000 -20.841221 -85.477196 -56.065796 -73.664551 -68.613533 90.55748 0.034511723 -149.84151
27601000000 -20.966843 -86.147133 -55.100697 -73.453369 -69.11953 87.610954 0.029014418 -149.9653
27602000000 -21.045246 -86.686012 -54.438915 -67.039879 -66.165382 87.718369 0.023472307 -150.10986
27603000000 -21.081217 -87.271072 -54.362713 -73.815704 -68.405807 71.154343 0.030064687 -150.26808
27604000000 -21.139025 -88.097466 -53.813198 -76.784058 -66.393623 97.319916 0.032931659 -150.47182
27605000000 -21.241825 -88.390594 -54.442913 -68.523674 -71.465424 117.62911 0.027096502 -150.64052
27606000000 -21.278078 -89.366058 -54.649048 -76.492447 -67.527451 56.944908 0.023646785 -150.79764
27607000000 -21.374016 -90.323036 -53.930328 -82.297913 -74.346779 34.100143 0.027466586 -150.95731
27608000000 -21.463181 -90.906242 -53.517048 -78.356003 -71.768784 47.191132 0.017367031 -151.1321
27609000000 -21.52482 -92.218651 -54.740582 -79.599915 -70.772064 77.04351 0.016107159 -151.26535
27610000000 -21.598848 -92.978577 -55.252285 -77.611 -66.137238 76.192795 0.022661773 -151.43506
27611000000 -21.729483 -94.103081 -54.052319 -86.893791 -70.484406 60.583984 0.014420224 -151.61139
27612000000 -21.876787 -94.959511 -54.569912 -76.75515 -76.022942 122.28084 0.026576053 -151.7861
27613000000 -22.032501 -95.932251 -53.842915 -85.36116 -69.211143 81.565018 0.022575367 -151.97353
27614000000 -22.151222 -96.583626 -55.384777 -82.663971 -69.685028 89.779083 0.022371907 -152.13693
27615000000 -22.31119 -97.193733 -54.009949 -86.485611 -71.877335 89.150658 0.01621558 -152.26718
27616000000 -22.427864 -98.101021 -54.08886 -93.358223 -72.459465 76.873764 0.018787485 -152.41321
27617000000 -22.612822 -98.73275 -53.719254 -83.83316 -84.872688 79.723793 0.021515656 -152.57887
27618000000 -22.796082 -99.031616 -54.560936 -88.059875 -73.727737 61.222408 0.014786078 -152.72112
27619000000 -23.019922 -99.394562 -53.813919 -92.302597 -69.762169 80.433731 0.018804785 -152.90889
27620000000 -23.193562 -100.04524 -52.949944 -85.552498 -69.214989 52.757946 0.016627587 -153.10414
27621000000 -23.391335 -99.838219 -53.364887 -91.331161 -66.870949 47.162247 0.020033425 -153.26852
27622000000 -23.596294 -99.879295 -52.907803 -89.393356 -67.640373 80.039078 0.013600595 -153.45944
27623000000 -23.75712 -99.646362 -53.16457 -90.839088 -66.947891 78.557777 0.01025821 -153.59827
27624000000 -23.974932 -99.381966 -52.891071 -88.593773 -72.887444 93.665771 0.018331788 -153.77507
27625000000 -24.100176 -98.623253 -54.030048 -86.562088 -67.633751 61.76506 0.0087632379 -153.95319
27626000000 -24.348358 -98.78566 -52.892673 -89.606407 -70.057716 66.584213 0.020747581 -154.10519
27627000000 -24.471487 -97.917595 -52.46479 -91.790527 -68.14193 50.341995 0.015862189 -154.30147
27628000000 -24.576574 -97.286812 -52.812283 -91.638298 -68.447876 52.610981 0.021593727 -154.48709
27629000000 -24.677158 -96.293045 -52.185368 -88.897614 -69.569145 38.950199 0.016343243 -154.67574
27630000000 -24.846441 -95.725777 -51.846165 -90.641731 -64.104782 44.738312 0.013911839 -154.8437
27631000000 -24.891577 -94.968628 -51.345036 -96.70771 -67.085945 79.960236 0.017390149 -155.01331
27632000000 -24.983469 -93.950058 -52.089573 -101.58856 -71.239388 44.569084 0.012486871 -155.18927
27633000000 -24.984478 -93.090195 -51.694572 -96.329201 -72.512222 37.561413 0.011953512 -155.36043
27634000000 -25.044729 -92.583 -52.359707 -97.60022 -67.861694 75.609367 0.01814024 -155.57158
27635000000 -25.022655 -91.254311 -51.857498 -101.16695 -67.667221 64.002686 0.015036674 -155.78128
27636000000 -24.982046 -90.76754 -51.467697 -99.587982 -68.172981 56.610256 0.0055313548 -155.93204
27637000000 -25.032877 -90.24472 -51.223682 -98.464172 -65.537033 67.579971 0.0091197602 -156.16846
27638000000 -24.982342 -89.340096 -51.668121 -99.439377 -67.177696 59.823635 0.006550245 -156.34489
27639000000 -24.901907 -88.317108 -51.197857 -105.09712 -69.111504 74.663742 0.0062086019 -156.52425
27640000000 -24.793856 -88.474289 -51.192738 -99.414955 -67.561485 42.628105 0.011681397 -156.66472
27641000000 -24.816692 -87.250031 -51.268875 -103.07383 -65.522926 60.061752 0.0071366658 -156.94247
27642000000 -24.727514 -86.8209 -51.127869 -102.3521 -66.834053 47.192604 0.0027586415 -157.11543
27643000000 -24.628263 -86.903336 -50.618252 -100.7784 -66.51339 69.930862 0.0032053178 -157.26163
27644000000 -24.60533 -86.627213 -50.80365 -103.63943 -66.646805 80.791611 0.0018063675 -157.43213
27645000000 -24.501825 -86.206894 -50.405849 -110.63856 -67.010574 62.667095 -0.004126606 -157.6636
27646000000 -24.391569 -86.240082 -50.236904 -103.76263 -66.825615 59.868362 -0.0047407998 -157.86722
27647000000 -24.409628 -86.171799 -49.7878 -103.72065 -68.222771 72.08313 0.0019474332 -158.063
27648000000 -24.279722 -86.308586 -50.010784 -105.62293 -68.187729 58.54509 0.0044175726 -158.30302
27649000000 -24.20372 -86.20562 -50.46822 -110.94762 -65.078499 77.910469 -0.0061716363 -158.48619
27650000000 -24.135094 -86.015869 -49.648323 -112.56187 -64.102715 60.77977 -0.0024513153 -158.63954
27651000000 -24.09067 -86.507042 -50.136421 -109.46014 -62.330833 58.222454 -0.0016463681 -158.83902
27652000000 -24.021267 -86.249176 -49.790466 -111.04604 -64.742821 58.467808 -0.0031393089 -159.05725
27653000000 -23.961527 -86.677216 -50.020592 -112.24211 -64.091156 39.012943 -0.0044309306 -159.28787
27654000000 -23.864599 -86.719849 -50.275215 -116.3813 -64.635391 51.408146 -0.0098278085 -159.41241
27655000000 -23.790243 -87.049591 -49.70348 -110.96221 -68.137108 40.60033 -0.011037197 -159.67441
27656000000 -23.76141 -87.141975 -49.199463 -115.15363 -67.500427 21.639326 -0.012641271 -159.86182
27657000000 -23.706745 -88.02494 -49.018139 -116.70229 -65.152855 55.945217 -0.0025879766 -160.07832
27658000000 -23.728502 -88.248344 -48.647339 -118.52367 -64.128258 50.712555 -0.0096291658 -160.27089
27659000000 -23.656124 -88.188927 -49.044315 -117.06084 -61.531673 67.012573 -0.021166794 -160.48741
27660000000 -23.598577 -89.063705 -48.904926 -120.38259 -64.304207 43.753254 -0.004086622 -160.64027
27661000000 -23.616003 -89.491562 -48.457138 -118.01218 -63.988483 56.121262 -0.010428322 -160.86278
27662000000 -23.589334 -89.625481 -48.572903 -123.65727 -64.484558 36.390358 -0.016068054 -161.09866
27663000000 -23.546501 -90.759132 -48.375546 -121.08887 -66.273125 38.721191 -0.017803354 -161.28572
27664000000 -23.590963 -91.134377 -48.100655 -123.62666 -65.412437 26.680367 -0.012795221 -161.48633
27665000000 -23.565598 -91.483383 -48.264515 -122.31547 -63.290501 54.36121 -0.023433205 -161.71742
27666000000 -23.498549 -91.919189 -48.166245 -121.69015 -65.374413 57.063805 -0.014799918 -161.8784
27667000000 -23.469118 -92.235603 -48.306999 -128.4364 -64.376183 39.537113 -0.0096927276 -162.11122
27668000000 -23.499468 -92.939529 -47.81588 -124.92931 -64.486954 44.611526 -0.014873551 -162.32108
27669000000 -23.534134 -93.427788 -47.283043 -124.13058 -63.088245 36.588593 -0.023604469 -162.54178
27670000000 -23.507414 -94.086899 -47.651253 -128.89149 -63.749046 26.470373 -0.02137501 -162.7655
27671000000 -23.45326 -94.733009 -47.547283 -125.89011 -63.548134 44.840569 -0.024165258 -162.98711
27672000000 -23.533352 -95.019821 -47.465469 -130.25917 -62.753304 20.273022 -0.030171039 -163.16341
27673000000 -23.532553 -95.547256 -47.248501 -129.52513 -62.429111 31.379211 -0.028161244 -163.42441
27674000000 -23.543587 -96.701332 -46.94236 -130.30342 -65.566528 29.348368 -0.028150646 -163.67744
27675000000 -23.512804 -96.854218 -47.232521 -130.09482 -62.133469 46.643021 -0.036368251 -163.89328
27676000000 -23.553001 -97.694748 -46.8936 -131.51816 -63.037922 46.467224 -0.026148191 -164.0696
27677000000 -23.54414 -98.027817 -46.737522 -131.8882 -63.901825 46.500626 -0.034162432 -164.30354
27678000000 -23.608984 -98.898125 -46.621063 -130.97078 -63.839077 33.862137 -0.033080775 -164.5175
27679000000 -23.581884 -99.545624 -46.15728 -134.84729 -63.783833 45.681469 -0.04292129 -164.7738
27680000000 -23.578083 -100.14475 -46.298656 -137.17682 -62.751034 40.77776 -0.040052827 -165.02556
27681000000 -23.555233 -100.71956 -46.654663 -135.51511 -61.049858 28.759441 -0.038269024 -165.23781
27682000000 -23.636116 -101.49677 -46.41404 -136.52205 -60.294926 41.785103 -0.036838133 -165.49626
27683000000 -23.614883 -101.82887 -46.088516 -138.34642 -60.608498 36.466614 -0.039353613 -165.67723
27684000000 -23.673534 -102.98708 -45.75193 -137.83963 -62.319744 38.83905 -0.040152736 -165.91603
27685000000 -23.650591 -103.39455 -45.895061 -138.13084 -59.962822 30.553066 -0.04125018 -166.15051
27686000000 -23.596056 -104.26852 -45.376335 -139.31754 -62.169636 34.928772 -0.042666513 -166.38272
27687000000 -23.580208 -105.06205 -45.364952 -140.03671 -61.111923 38.298664 -0.050542563 -166.59872
27688000000 -23.635643 -105.92103 -45.349426 -144.35098 -62.086308 35.466583 -0.038133364 -166.86003
27689000000 -23.589384 -106.96753 -45.290379 -142.79201 -63.205048 44.830009 -0.042037945 -167.07751
27690000000 -23.599495 -108.00471 -44.990646 -144.73972 -63.107426 36.763397 -0.046573497 -167.32034
27691000000 -23.621481 -108.78244 -45.034016 -145.08401 -60.471008 38.964184 -0.036253851 -167.56554
27692000000 -23.627787 -109.74857 -44.778057 -147.75943 -61.808361 31.721731 -0.041016106 -167.8268
27693000000 -23.598169 -110.87044 -44.523659 -145.72426 -59.929939 25.270033 -0.041541383 -168.04239
27694000000 -23.639282 -111.79675 -44.351841 -144.36769 -60.420811 26.635031 -0.043838382 -168.35158
27695000000 -23.621029 -112.7329 -44.459267 -147.82555 -60.818657 27.907722 -0.040441871 -168.55276
27696000000 -23.595139 -113.9138 -44.174019 -148.43904 -58.983017 13.944731 -0.046946052 -168.84572
27697000000 -23.582689 -115.17322 -43.789684 -150.83894 -61.634281 23.610529 -0.0454689 -169.11537
