!Keysight Technologies,N5234A,MY55441357,A.10.47.05
!Date: Sunday, November 19, 2017 17:34:12
!Correction: S11(Full 2 Port(1,2)) 
!S21(Full 2 Port(1,2)) 
!S12(Full 2 Port(1,2)) 
!S22(Full 2 Port(1,2)) 
!S2P File: Measurements: S11, S21, S12, S22:
# Hz S  dB   R 50
27500000000 -35.663147 -2.5122015 -85.31839 -23.092169 -76.447304 -68.973381 0.014209216 -122.7676
27501000000 -35.091553 -1.3520257 -82.716003 -164.64558 -74.425476 -90.423897 0.01506207 -122.81228
27502000000 -34.521828 0.66514933 -75.411919 -91.568855 -73.348732 98.593193 0.019657515 -122.85909
27503000000 -33.740349 3.628191 -74.639038 -114.11047 -74.719589 57.042801 0.016358316 -122.90363
27504000000 -33.309048 3.1634107 -75.979195 -126.04637 -79.199638 -173.44994 0.023510827 -123.03126
27505000000 -32.646431 4.3769393 -75.321938 -82.16555 -93.426689 35.405212 0.0048925979 -123.05034
27506000000 -32.106861 5.895041 -76.582954 -152.59183 -77.658012 -98.963745 0.016616549 -123.13219
27507000000 -31.610348 6.0004077 -74.898346 38.642776 -85.447845 83.960808 0.014330216 -123.25575
27508000000 -30.812292 7.4979863 -79.184196 -103.425 -78.053848 85.265892 0.012687483 -123.33421
27509000000 -30.456818 7.3028922 -76.097778 -111.67542 -71.913368 143.06821 0.015166676 -123.41408
27510000000 -30.005981 6.700666 -75.650337 -16.162661 -75.840279 -123.59598 0.016689787 -123.42028
27511000000 -29.589108 7.3546195 -71.991188 -102.33621 -70.53315 -30.562853 0.017400585 -123.47354
27512000000 -29.297194 7.5777202 -70.625854 -68.669182 -72.742317 69.548553 0.021004543 -123.61917
27513000000 -28.76792 7.4204011 -76.297043 -108.44643 -68.087067 134.31816 0.012371602 -123.64784
27514000000 -28.454615 7.6120949 -81.850121 -132.0536 -81.033928 69.377991 0.02082287 -123.75349
27515000000 -28.039948 6.6943636 -76.691772 88.958374 -72.824631 162.91727 0.021900574 -123.8639
27516000000 -27.716425 7.0364642 -100.04611 -172.50124 -83.092972 128.01096 0.0069416021 -123.89474
27517000000 -27.319342 6.3307309 -70.428696 -115.18819 -75.419243 81.713707 0.019409414 -123.96434
27518000000 -27.028049 6.0091467 -78.804268 -147.56168 -73.777969 -22.917702 0.005744691 -124.07857
27519000000 -26.683495 6.0953164 -82.773979 -169.98611 -75.710831 -70.170189 0.016168317 -124.14857
27520000000 -26.316229 6.1902394 -70.781769 6.5824242 -80.661636 -3.9659908 0.0049671563 -124.2465
27521000000 -26.021517 5.2831397 -74.224472 11.384385 -83.366753 125.46442 0.016200513 -124.3278
27522000000 -25.718298 4.8338237 -76.586411 138.35742 -87.659828 110.74694 0.014309067 -124.40503
27523000000 -25.523729 4.0232134 -78.27169 58.102283 -79.409172 -43.900425 0.019023143 -124.44852
27524000000 -25.212778 3.7327952 -73.477264 -73.065712 -73.477615 163.48459 0.011323682 -124.57299
27525000000 -25.003149 3.5931516 -74.137146 73.114899 -83.171387 169.6095 0.011897814 -124.6769
27526000000 -24.72834 2.4422185 -74.141052 -20.773434 -78.77343 150.47421 0.007405539 -124.74655
27527000000 -24.469255 2.0286708 -71.457588 -30.486933 -83.890404 35.463993 0.011022033 -124.81545
27528000000 -24.269276 1.1590736 -80.974174 -85.694649 -86.25412 141.39792 0.0048316517 -124.89606
27529000000 -24.01967 0.74288166 -76.056854 84.331291 -80.464882 -142.29825 0.013010123 -124.9809
27530000000 -23.83392 0.31914285 -81.231102 41.575531 -78.094002 -170.41872 0.011527795 -125.02728
27531000000 -23.586763 -0.2095852 -82.284653 -92.488503 -81.082779 -12.575596 0.0039904891 -125.12798
27532000000 -23.367374 -0.8401807 -75.090904 147.87247 -81.754959 -47.942963 0.0026500365 -125.18317
27533000000 -23.203705 -1.6871725 -82.362877 -68.798622 -77.369057 28.361559 0.00083634304 -125.26544
27534000000 -23.042227 -2.4355204 -74.228889 -32.277355 -81.639214 24.858507 0.0044922139 -125.40347
27535000000 -22.85944 -3.0677137 -74.580566 -107.16405 -75.385895 150.10634 0.00092454738 -125.44135
27536000000 -22.646545 -3.6548126 -80.304062 0.49926448 -75.850777 83.675392 0.013898485 -125.5484
27537000000 -22.48753 -4.6474218 -75.280479 -78.648727 -74.32325 -67.658585 0.0050317622 -125.62563
27538000000 -22.302988 -5.0650692 -78.93914 -122.33533 -83.716301 -64.010666 0.013532815 -125.69003
27539000000 -22.097054 -6.2261915 -73.253906 -58.940632 -89.477211 80.632507 0.011908304 -125.73232
27540000000 -21.949425 -6.8441978 -69.880653 -68.982353 -81.176224 120.48869 0.0093672266 -125.883
27541000000 -21.791134 -7.7756934 -75.240471 -84.952881 -77.214851 49.442478 -0.0029840921 -125.94667
27542000000 -21.629337 -8.5417337 -81.513123 -40.261295 -76.039009 54.079563 0.0079466263 -125.9828
27543000000 -21.438646 -9.5507469 -83.445053 100.29893 -82.159492 93.482536 0.0076801996 -126.0676
27544000000 -21.336773 -10.104861 -78.480171 -67.416908 -78.77179 18.162592 0.0060170377 -126.13547
27545000000 -21.189819 -11.222421 -83.399727 -113.9308 -81.693062 87.880096 0.0026448001 -126.2282
27546000000 -21.069393 -11.850248 -86.401993 41.296162 -76.381981 -55.875687 0.0061329138 -126.29983
27547000000 -20.911678 -12.810095 -76.562492 -76.131645 -77.081482 69.942673 0.0021047599 -126.37741
27548000000 -20.835649 -13.873985 -71.227104 -113.23441 -74.770325 -41.498268 0.0056381617 -126.39432
27549000000 -20.668842 -14.744826 -82.656761 122.26324 -73.959488 103.18392 -0.00056664733 -126.50699
27550000000 -20.563 -15.73234 -73.019661 -172.84114 -79.2397 37.232967 0.010805395 -126.59429
27551000000 -20.4013 -16.695114 -77.396027 146.04909 -85.544052 -2.8879883 0.0037481124 -126.69497
27552000000 -20.321939 -17.860205 -79.236099 85.817001 -76.060226 -116.42039 0.0093093552 -126.72154
27553000000 -20.187012 -18.857449 -85.161705 132.64954 -79.375031 -48.246857 0.010663567 -126.81596
27554000000 -20.080729 -19.874325 -76.479782 165.56314 -74.786392 -31.317766 0.0091800783 -126.91202
27555000000 -20.020664 -20.929588 -76.360603 -7.1782889 -73.824226 -113.46391 0.010942519 -127.00591
27556000000 -19.883764 -22.00676 -80.234238 151.52818 -82.082344 -61.239758 0.010901197 -127.01812
27557000000 -19.790363 -23.2542 -76.062256 -82.266464 -81.556664 25.210388 0.0054827537 -127.17572
27558000000 -19.688631 -24.403738 -72.737869 -54.474537 -87.907036 53.320541 0.010217364 -127.21942
27559000000 -19.592501 -25.440578 -83.003693 76.730042 -81.083252 -105.46519 0.011500642 -127.29102
27560000000 -19.548574 -26.580868 -75.047958 165.00668 -82.470505 -70.305382 0.011625035 -127.35686
27561000000 -19.43655 -27.59894 -75.485222 90.297096 -83.410683 165.32938 0.017359309 -127.37338
27562000000 -19.345486 -28.980801 -83.326035 16.467104 -72.562904 12.444653 0.024412682 -127.4499
27563000000 -19.284374 -30.17914 -73.96376 -106.03055 -89.799591 8.5269365 0.018162441 -127.58076
27564000000 -19.216337 -31.499641 -75.966263 -101.481 -81.431282 146.2695 0.024828937 -127.64911
27565000000 -19.159388 -32.883236 -80.221512 8.3870277 -77.64238 166.35359 0.021904124 -127.69454
27566000000 -19.070496 -34.257671 -78.823784 -122.54887 -70.950729 118.71193 0.020198075 -127.79594
27567000000 -19.005136 -35.660915 -74.294746 -163.49832 -80.035805 -134.25974 0.024592085 -127.86533
27568000000 -18.936052 -36.809361 -72.801979 -175.13042 -74.823883 -112.22512 0.026875647 -127.99313
27569000000 -18.896441 -38.374065 -78.485641 113.26598 -81.729393 -109.88387 0.023697466 -128.02852
27570000000 -18.844393 -39.85305 -102.22223 129.11972 -72.802528 -149.8806 0.029257679 -128.08327
27571000000 -18.777309 -41.467213 -75.587112 141.18622 -91.089775 -179.15364 0.034009025 -128.1752
27572000000 -18.747316 -42.823517 -76.012444 -119.09659 -80.469452 -81.315735 0.028241819 -128.28354
27573000000 -18.717791 -44.316273 -79.772591 125.80668 -86.914207 -65.543777 0.024821389 -128.34088
27574000000 -18.659901 -45.920956 -71.963593 -150.83197 -73.687332 26.033943 0.030375762 -128.42859
27575000000 -18.627501 -47.853474 -73.772484 -144.44479 -78.610008 -52.624584 0.033597369 -128.51563
27576000000 -18.5928 -49.015141 -79.310234 1.1209075 -72.641808 156.96698 0.026522683 -128.58963
27577000000 -18.560122 -50.995483 -80.955971 120.88866 -78.443558 179.84352 0.026656281 -128.68596
27578000000 -18.52696 -52.877884 -84.462929 67.603767 -73.658928 80.816856 0.035010085 -128.74274
27579000000 -18.557213 -54.390083 -76.172935 -106.58947 -71.870293 33.664364 0.029113628 -128.85822
27580000000 -18.531057 -56.272087 -76.746124 128.81604 -81.188675 118.02493 0.024836911 -128.89641
27581000000 -18.513113 -58.154705 -77.808945 47.250999 -78.909019 27.849689 0.028445276 -129.004
27582000000 -18.539085 -60.158058 -83.104286 61.445297 -83.408463 69.07473 0.036516041 -129.06857
27583000000 -18.566833 -62.11911 -72.321289 -132.43082 -76.609123 165.9122 0.034516748 -129.1284
27584000000 -18.619923 -63.860909 -74.495468 -61.682327 -84.276527 77.025009 0.029601516 -129.24374
27585000000 -18.697657 -65.862511 -73.436287 -9.3226213 -74.396591 11.830996 0.025181344 -129.30693
27586000000 -18.760607 -68.051926 -88.918983 88.247345 -84.069519 -154.54126 0.028938919 -129.40427
27587000000 -18.84362 -69.949501 -74.198112 -74.339005 -78.777657 -99.089668 0.024543278 -129.45949
27588000000 -18.951714 -72.003853 -78.80761 -94.837112 -87.133591 -51.182777 0.029774334 -129.56454
27589000000 -19.102049 -74.143448 -80.377617 -50.15799 -70.292076 -11.624104 0.023224171 -129.65855
27590000000 -19.217112 -76.168457 -79.882156 -25.457256 -79.942276 -159.52094 0.020578768 -129.70746
27591000000 -19.41823 -77.815254 -78.93322 161.9814 -77.831947 70.160637 0.020553898 -129.76285
27592000000 -19.590412 -79.64846 -69.206787 -9.6954947 -74.805756 -105.98852 0.035113636 -129.85396
27593000000 -19.819866 -81.301384 -90.786003 -13.717563 -71.893318 -113.38213 0.026195485 -129.92407
27594000000 -20.044949 -82.313469 -76.862885 168.13489 -74.848465 0.87479323 0.028231477 -129.97551
27595000000 -20.282686 -83.776016 -80.921318 -169.28838 -89.787033 162.61139 0.026264967 -130.07735
27596000000 -20.513433 -84.510986 -77.168304 83.926392 -81.951813 -76.754967 0.020074077 -130.17406
27597000000 -20.700462 -85.199791 -77.824425 -39.188885 -81.572098 -62.93895 0.028138153 -130.2469
27598000000 -20.90177 -85.609634 -72.749237 -147.04788 -81.974266 74.409447 0.028069146 -130.31795
27599000000 -21.056328 -86.051857 -74.390793 93.822289 -75.098633 157.30794 0.024489598 -130.36511
27600000000 -21.19451 -86.166145 -80.448364 113.59222 -73.994301 -77.664406 0.028841818 -130.47295
27601000000 -21.274454 -86.6819 -79.293762 -50.518784 -79.457977 38.748608 0.026417125 -130.5688
27602000000 -21.358942 -87.123962 -79.34903 133.96902 -79.417854 92.275894 0.023865059 -130.58405
27603000000 -21.431122 -87.791405 -80.649178 -178.95218 -77.665146 -116.50694 0.032377787 -130.64203
27604000000 -21.462038 -88.539421 -77.023804 -127.68583 -83.822983 -11.74404 0.03174524 -130.77509
27605000000 -21.51745 -88.958725 -71.698715 -176.11795 -88.755676 -80.999832 0.025811434 -130.87578
27606000000 -21.569159 -89.872139 -77.494041 -54.557426 -94.174934 27.601654 0.026686985 -130.94579
27607000000 -21.730494 -90.844673 -75.428101 -121.03111 -81.94635 -111.78487 0.02576237 -130.98589
27608000000 -21.749081 -91.59272 -79.668465 -159.23592 -83.972458 145.27409 0.025315747 -131.10312
27609000000 -21.811733 -92.943138 -74.304214 -52.246212 -77.193245 40.733948 0.027512636 -131.14854
27610000000 -21.920057 -93.556412 -75.803825 -96.930038 -73.989365 -109.07901 0.02921541 -131.21227
27611000000 -22.059843 -94.845436 -78.412064 -54.546246 -81.006676 66.284279 0.019907577 -131.30098
27612000000 -22.239628 -95.883392 -81.185471 -154.01323 -80.361122 74.838593 0.032783557 -131.40764
27613000000 -22.376923 -97.051025 -85.672607 -126.49546 -81.260857 33.897308 0.034700848 -131.46155
27614000000 -22.50209 -97.712173 -80.441742 52.864788 -76.489388 6.6613684 0.032355115 -131.57504
27615000000 -22.677572 -98.14817 -79.30088 -171.21443 -73.392685 -147.89969 0.025686974 -131.6046
27616000000 -22.845985 -99.141884 -80.450317 -11.970116 -91.932281 57.751953 0.027800253 -131.66367
27617000000 -23.068836 -99.697487 -80.588684 67.194023 -78.651001 -40.005291 0.030167265 -131.7502
27618000000 -23.218979 -100.16093 -74.751076 -164.36896 -79.579712 24.864569 0.030714585 -131.80586
27619000000 -23.503355 -100.60844 -84.720047 75.469688 -80.552063 -166.12546 0.020630049 -131.91974
27620000000 -23.696898 -101.05444 -68.032578 144.61914 -90.288368 -90.606781 0.030583007 -131.9906
27621000000 -23.876146 -101.15632 -75.851707 -110.54884 -93.274574 102.87065 0.031563044 -132.04242
27622000000 -24.129181 -100.88523 -72.898674 145.4873 -85.694397 24.16395 0.019111272 -132.18495
27623000000 -24.328831 -100.8427 -77.035187 -148.00395 -73.682816 -23.506695 0.026125766 -132.23178
27624000000 -24.544195 -100.70229 -83.368019 162.47269 -72.358253 151.95871 0.02930229 -132.30948
27625000000 -24.708931 -99.797531 -72.094162 -168.09366 -69.739426 -168.07297 0.020374196 -132.38052
27626000000 -24.946795 -99.634552 -78.49189 12.365986 -81.467453 -117.75806 0.028108172 -132.46492
27627000000 -25.127605 -98.721771 -82.064781 12.683364 -79.457138 47.993229 0.025947534 -132.49277
27628000000 -25.226955 -97.819206 -74.443329 -172.38397 -79.810089 25.359138 0.035612047 -132.58124
27629000000 -25.414324 -96.463318 -82.214127 -175.78481 -78.933647 171.34123 0.02216371 -132.69051
27630000000 -25.555641 -96.147354 -82.578377 -156.85362 -88.091492 -54.917278 0.026684608 -132.74088
27631000000 -25.60696 -94.854637 -74.817039 129.82796 -86.868874 -21.844303 0.036456574 -132.84032
27632000000 -25.719374 -93.900352 -71.569763 165.01883 -88.392426 -23.867508 0.022320028 -132.90871
27633000000 -25.746809 -92.68409 -83.810417 90.876343 -77.883499 70.156715 0.026771374 -132.97366
27634000000 -25.84087 -92.08532 -75.233383 117.33887 -76.003426 11.454728 0.026634593 -133.05692
27635000000 -25.788574 -90.681572 -87.324257 -38.734821 -84.134087 -157.60764 0.021660276 -133.14047
27636000000 -25.749701 -89.846321 -80.465599 135.4469 -79.929649 -137.79254 0.016340243 -133.18463
27637000000 -25.798058 -89.107841 -75.519508 92.293579 -73.75631 163.03091 0.022745078 -133.28575
27638000000 -25.696394 -87.955917 -74.550682 34.341805 -81.734291 0.64986318 0.025186369 -133.38623
27639000000 -25.612772 -86.840805 -69.467094 97.764923 -77.110092 -118.32552 0.019918505 -133.48923
27640000000 -25.563423 -87.003242 -66.760956 119.01073 -80.015999 -101.00045 0.019388456 -133.51974
27641000000 -25.538773 -85.775803 -73.904877 -141.62938 -72.749481 10.418614 0.021412002 -133.64348
27642000000 -25.418037 -84.861191 -77.999008 -93.814751 -83.171318 22.225115 0.017324436 -133.68803
27643000000 -25.284843 -84.860352 -72.297615 153.69901 -84.797455 93.899704 0.014664605 -133.77179
27644000000 -25.298677 -84.51432 -76.005463 -174.90233 -80.794235 -141.21339 0.016425511 -133.83603
27645000000 -25.195904 -84.01017 -78.469482 -81.150002 -75.450546 -48.709728 0.011884171 -133.92964
27646000000 -25.031738 -83.679893 -76.430115 -36.394722 -91.219452 -39.045139 0.011552211 -134.03043
27647000000 -25.079624 -83.904617 -74.348091 -2.9209697 -77.498528 117.06234 0.013628598 -134.12079
27648000000 -24.911242 -84.091934 -79.798195 96.28595 -76.015778 107.04842 0.024921196 -134.26903
27649000000 -24.824997 -83.70314 -74.242981 -135.39027 -91.149857 -73.353485 0.0074388576 -134.3237
27650000000 -24.732195 -83.706978 -86.790054 93.93988 -86.234413 168.68362 0.010222542 -134.33813
27651000000 -24.650412 -84.051079 -73.072441 175.64815 -76.459465 146.95796 0.018336413 -134.42979
27652000000 -24.56435 -84.056984 -77.656693 -144.47182 -74.682434 3.6916225 0.01480392 -134.52533
27653000000 -24.491697 -84.169762 -74.510925 79.187767 -91.365585 27.421202 0.018992469 -134.65686
27654000000 -24.385687 -84.002151 -71.926926 125.4301 -72.638199 -89.033379 0.0077187885 -134.68121
27655000000 -24.295565 -84.588531 -80.638496 -131.81056 -77.825935 -96.715736 0.013000587 -134.77046
27656000000 -24.250565 -84.99675 -74.336845 -34.977955 -77.035049 63.531311 0.0054376656 -134.88882
27657000000 -24.177166 -85.942863 -85.234322 161.18555 -75.281494 62.987793 0.019801695 -134.95979
27658000000 -24.150486 -85.951622 -82.710915 -134.50351 -73.022987 17.194725 0.00919428 -135.05513
27659000000 -24.119562 -86.063919 -81.537773 -107.22404 -77.542328 40.806061 0.0015913754 -135.14485
27660000000 -24.011484 -86.92778 -82.605141 125.227 -75.044113 -17.889418 0.014006531 -135.19725
27661000000 -24.045612 -87.225906 -82.485039 -11.689422 -74.248856 -167.19133 0.013696315 -135.28015
27662000000 -24.018475 -87.50177 -75.296944 38.414421 -79.119843 -87.925179 0.0049249227 -135.33105
27663000000 -23.970978 -88.447197 -72.822151 84.537132 -77.442238 -138.00835 0.0075448952 -135.43492
27664000000 -23.9723 -89.234863 -82.50988 -112.51469 -85.326935 140.76534 0.013560533 -135.52553
27665000000 -23.972872 -89.587006 -76.503128 -107.68882 -75.887428 -168.87846 0.0057337126 -135.64575
27666000000 -23.896076 -90.099136 -72.47551 72.758736 -87.935677 33.794113 0.012655126 -135.64522
27667000000 -23.862211 -90.59745 -68.922943 20.777586 -81.835449 43.800282 0.013541033 -135.73085
27668000000 -23.869595 -91.231537 -70.248001 49.679932 -85.112625 -169.34833 0.011737309 -135.82115
27669000000 -23.88422 -92.018219 -78.364166 32.830448 -75.963692 23.855888 0.004857928 -135.87703
27670000000 -23.857746 -92.948067 -72.284988 120.21431 -84.910141 178.44759 0.012174108 -135.95288
27671000000 -23.834383 -93.395477 -72.505661 -160.33043 -71.70549 -59.379971 0.0073685907 -136.0127
27672000000 -23.849449 -93.791855 -70.325996 156.45712 -85.591827 146.75723 0.0045559234 -136.09534
27673000000 -23.89316 -94.62925 -83.62986 43.122787 -79.944412 -60.629105 0.0049717589 -136.17892
27674000000 -23.870703 -95.670082 -72.383492 -151.21931 -71.185326 157.36911 -0.00049673562 -136.30635
27675000000 -23.866766 -95.848465 -71.102654 161.06769 -83.517502 162.87457 0.0021546318 -136.38942
27676000000 -23.895847 -96.881012 -79.037346 161.41649 -71.922195 175.34134 0.0075727087 -136.44943
27677000000 -23.879927 -97.428413 -81.280212 52.553108 -73.140945 22.030577 0.0010172732 -136.48647
27678000000 -23.96591 -98.316284 -85.493629 13.052633 -72.322243 26.766994 0.0041448595 -136.57904
27679000000 -23.924753 -99.539696 -83.955322 156.71072 -76.632408 127.52256 -0.003326318 -136.67265
27680000000 -23.958092 -99.714653 -79.718422 121.03594 -75.642006 69.886047 -0.0054255971 -136.79291
27681000000 -23.970072 -100.54358 -75.222588 134.0569 -82.422462 -124.26558 -0.0016100715 -136.84334
27682000000 -23.98476 -101.49089 -76.971817 -147.23013 -84.207642 67.306107 0.0030965602 -136.95473
27683000000 -23.970905 -101.83472 -72.316948 168.82233 -74.277763 -14.756209 0.0019331316 -136.97499
27684000000 -24.023968 -102.95311 -78.811852 -109.88169 -77.510597 -73.213043 0.0083352039 -137.05008
27685000000 -24.054165 -103.64617 -96.545609 105.27332 -82.232887 77.409721 0.0053229942 -137.15523
27686000000 -23.981731 -104.75484 -76.555458 11.541537 -87.973518 1.4978338 0.0058246334 -137.24031
27687000000 -23.950384 -105.73737 -77.135811 123.28909 -78.98468 69.824112 0.0027665019 -137.25003
27688000000 -24.028601 -106.59583 -81.435768 -161.4068 -82.488579 -153.83661 0.0093918284 -137.35548
27689000000 -24.052317 -107.67599 -79.002167 -70.222542 -78.092735 -93.81987 0.0058835889 -137.41592
27690000000 -24.030619 -108.79395 -79.288376 153.91312 -75.078583 31.783657 0.0056920629 -137.50198
27691000000 -24.077055 -109.61706 -89.706299 -165.3336 -81.689743 -135.35036 0.010967136 -137.59984
27692000000 -24.115021 -110.87693 -79.908165 -46.819839 -81.369896 113.79158 0.0056639519 -137.65248
27693000000 -24.070019 -112.00246 -86.242645 -27.802246 -74.288643 -48.490387 0.0046407087 -137.73097
27694000000 -24.10047 -113.04957 -75.948021 62.158512 -79.969131 178.56215 0.0075349994 -137.82407
27695000000 -24.083086 -114.07159 -71.134262 126.39893 -87.220352 -170.75444 0.0091743758 -137.89897
27696000000 -24.111683 -115.27599 -75.359077 -19.030478 -77.594643 -10.199243 0.0027756896 -137.98984
27697000000 -24.097273 -116.85314 -75.008278 37.698074 -72.663155 39.862732 0.0092702294 -138.08968
