!Keysight Technologies,N5234A,MY55441357,A.10.47.05
!Date: Sunday, November 19, 2017 17:34:26
!Correction: S11(Full 2 Port(1,2)) 
!S21(Full 2 Port(1,2)) 
!S12(Full 2 Port(1,2)) 
!S22(Full 2 Port(1,2)) 
!S2P File: Measurements: S11, S21, S12, S22:
# Hz S  dB   R 50
27500000000 -35.985664 -2.5189059 -71.870857 169.81715 -77.800331 -122.68061 0.069828622 -105.79089
27501000000 -35.478199 -1.0960444 -79.775154 72.774841 -74.873451 124.32727 0.079081722 -105.76813
27502000000 -34.912704 0.90093261 -75.86602 -8.468708 -69.171478 112.19347 0.078547761 -105.85308
27503000000 -34.048546 2.8127286 -89.921219 -12.496681 -79.266266 111.05163 0.077513665 -105.86079
27504000000 -33.530216 3.7308841 -74.207726 51.997242 -86.876678 0.47732654 0.0746736 -105.97749
27505000000 -32.846874 4.321816 -68.988953 17.273266 -86.086494 -44.196766 0.064532727 -106.01704
27506000000 -32.284985 5.406229 -79.567795 63.329105 -74.666954 -76.64563 0.07065136 -106.10183
27507000000 -31.766792 6.3219285 -76.303482 90.940941 -76.624245 17.36854 0.071429968 -106.18685
27508000000 -31.13373 7.5585341 -74.551476 94.159813 -83.39257 -90.084724 0.070868425 -106.27666
27509000000 -30.57226 7.7547588 -75.150978 79.281227 -74.690514 -86.396912 0.070042402 -106.32835
27510000000 -30.197512 6.8114419 -94.638924 20.84572 -85.393539 170.21989 0.069547459 -106.32346
27511000000 -29.816278 7.9440017 -87.521133 106.32116 -76.992622 33.505119 0.066643864 -106.4061
27512000000 -29.448582 8.2374859 -77.502213 157.70622 -69.349251 -92.921791 0.072364509 -106.5158
27513000000 -28.917652 7.819046 -78.626709 51.82476 -73.292572 -170.56744 0.066050924 -106.56564
27514000000 -28.593544 8.2630024 -76.776276 166.05608 -87.457451 124.52187 0.067972183 -106.64439
27515000000 -28.219326 7.7799492 -72.803444 124.77723 -76.264023 -26.133965 0.073122062 -106.71226
27516000000 -27.838245 7.7692423 -82.230034 -144.50128 -81.603874 54.428043 0.058907825 -106.77726
27517000000 -27.454466 6.8503718 -66.535004 98.462967 -87.56633 176.90799 0.064159051 -106.83965
27518000000 -27.182343 6.4986763 -85.42234 -173.79428 -87.171173 -45.036243 0.055173911 -106.91236
27519000000 -26.856146 6.4195285 -74.41011 -29.601433 -74.334816 -28.751825 0.067394815 -107.00786
27520000000 -26.453297 6.8412766 -70.882744 -142.22656 -90.747032 -43.525478 0.055873897 -107.06829
27521000000 -26.166357 5.977262 -92.038437 -36.352184 -92.273582 -31.344828 0.065496787 -107.13638
27522000000 -25.812466 5.2088623 -79.036827 -16.356207 -78.313972 -62.685837 0.062065214 -107.21613
27523000000 -25.634481 4.9275007 -85.981827 0.50223362 -74.823288 -128.99039 0.068912439 -107.24896
27524000000 -25.362833 4.6496639 -76.486374 175.25887 -87.064125 -40.431808 0.062976718 -107.33423
27525000000 -25.116528 4.073029 -82.626228 -75.860519 -75.874115 -17.808237 0.057041474 -107.44002
27526000000 -24.835331 2.8715119 -76.681473 -122.41744 -83.10939 -151.43114 0.058574226 -107.50945
27527000000 -24.556658 2.7047977 -83.428436 62.693172 -74.249359 160.87152 0.054257691 -107.56961
27528000000 -24.359947 1.9018583 -74.425262 -21.573372 -74.286781 -165.0607 0.053332385 -107.64296
27529000000 -24.122986 1.6031004 -79.166191 30.882475 -78.317894 -114.45844 0.063319646 -107.6994
27530000000 -23.902718 0.71625239 -73.14991 87.545013 -75.223824 119.96213 0.057065882 -107.77115
27531000000 -23.659342 0.35481402 -79.483101 -111.15613 -77.821724 120.99969 0.050797079 -107.88945
27532000000 -23.462168 -0.42103294 -71.464882 72.480598 -76.322845 75.87822 0.053808928 -107.97469
27533000000 -23.27615 -0.98056608 -71.202576 80.624245 -86.360489 -93.65139 0.051810563 -108.02274
27534000000 -23.065529 -1.8741013 -70.138802 34.831974 -75.000488 57.918056 0.051230747 -108.15718
27535000000 -22.913658 -2.4924867 -78.338142 -178.35901 -72.933586 -44.520367 0.050240431 -108.19035
27536000000 -22.714878 -3.3536289 -79.944099 130.66248 -93.246887 -126.27973 0.064002514 -108.27019
27537000000 -22.532536 -4.1087747 -78.768608 74.652252 -75.747993 77.131386 0.048938733 -108.33307
27538000000 -22.358122 -4.4456038 -77.586311 136.94876 -72.694687 89.735054 0.060974017 -108.39051
27539000000 -22.169146 -5.6309562 -75.942749 11.093579 -79.800171 -7.84656 0.059204902 -108.44917
27540000000 -21.991123 -6.3053079 -78.829094 -161.52444 -84.669754 99.95182 0.055199649 -108.58477
27541000000 -21.851728 -7.1070628 -77.742027 -121.60764 -71.919693 22.935146 0.053406104 -108.67402
27542000000 -21.70389 -7.913312 -72.95797 -45.652279 -84.954819 117.72337 0.057207402 -108.70029
27543000000 -21.508165 -8.9949627 -71.533981 22.136272 -75.669609 -6.5387197 0.06162988 -108.76482
27544000000 -21.395357 -9.7895775 -70.510597 -38.671024 -71.935387 14.52115 0.054893322 -108.84271
27545000000 -21.240662 -10.705873 -83.808235 -71.172356 -74.64753 -80.550514 0.058948074 -108.91894
27546000000 -21.140751 -11.31443 -79.015755 142.04819 -77.74424 -26.161669 0.060430437 -109.01429
27547000000 -20.969158 -12.242661 -82.054268 11.236882 -95.348824 -65.61673 0.053584028 -109.04664
27548000000 -20.878063 -13.563914 -75.995155 -173.00378 -78.717949 30.82336 0.054555088 -109.12581
27549000000 -20.722317 -14.368793 -90.30127 42.464832 -92.97242 26.621191 0.048273411 -109.17271
27550000000 -20.610718 -15.235312 -77.034172 -32.026066 -83.650124 48.161541 0.065658174 -109.2988
27551000000 -20.44478 -16.136408 -72.085007 -148.78781 -73.915855 -97.786369 0.056675568 -109.40929
27552000000 -20.365524 -17.251091 -82.841141 167.14783 -96.49897 -70.557076 0.059705816 -109.42045
27553000000 -20.252056 -18.271881 -73.476074 -0.49130324 -74.133499 171.2776 0.06539166 -109.50749
27554000000 -20.127235 -19.271872 -76.681747 -26.542763 -72.725464 87.062958 0.060122147 -109.54211
27555000000 -20.059315 -20.324207 -71.775879 -113.87104 -76.248032 136.78079 0.060267799 -109.6515
27556000000 -19.922863 -21.403984 -71.591492 156.0824 -79.162483 -131.78748 0.063003555 -109.71021
27557000000 -19.834288 -22.638279 -79.275078 -122.55585 -74.191566 -129.0164 0.061677039 -109.82141
27558000000 -19.72732 -23.736328 -92.377457 17.184235 -74.17067 -129.9975 0.061023865 -109.8511
27559000000 -19.630043 -24.803087 -73.52562 106.47169 -73.661087 36.652931 0.060344111 -109.95483
27560000000 -19.585777 -26.007828 -74.768204 170.55708 -77.626205 22.952972 0.06825342 -109.99821
27561000000 -19.465405 -27.040197 -81.244102 -8.2560902 -77.677826 -178.79904 0.073092878 -110.0089
27562000000 -19.39481 -28.635527 -77.466965 80.19503 -86.263428 109.85173 0.071419962 -110.07818
27563000000 -19.318098 -29.724512 -76.023163 113.98043 -76.289894 -49.758701 0.072535254 -110.2287
27564000000 -19.257542 -30.989996 -71.490105 -92.448746 -79.090836 152.50104 0.071135007 -110.32141
27565000000 -19.165121 -32.447361 -84.413902 -35.867832 -74.137589 -130.27927 0.06882564 -110.28783
27566000000 -19.103659 -33.778255 -72.949425 14.112016 -77.674652 -124.38148 0.069352426 -110.3653
27567000000 -19.065992 -35.111343 -74.363121 -171.92316 -82.263351 164.87289 0.080532849 -110.44672
27568000000 -18.978437 -36.263935 -73.705223 -155.95483 -86.66201 33.213047 0.074378997 -110.56365
27569000000 -18.934397 -37.777172 -71.414162 -120.69897 -79.362473 0.15763685 0.073673598 -110.5922
27570000000 -18.862015 -39.278961 -83.944756 -64.468933 -78.284569 13.282475 0.076342247 -110.63431
27571000000 -18.801994 -40.717049 -72.438179 -44.160042 -83.623993 120.76073 0.074924663 -110.73638
27572000000 -18.75786 -42.259205 -80.900436 125.76994 -80.564323 114.68923 0.077964507 -110.84277
27573000000 -18.702967 -43.716 -80.003876 -59.544243 -86.637878 153.03775 0.068685815 -110.8833
27574000000 -18.681736 -45.335522 -71.338028 -3.8542254 -72.065933 86.192696 0.07363046 -110.95267
27575000000 -18.651682 -47.286816 -79.131569 -18.153452 -76.626526 21.801159 0.076892376 -111.01702
27576000000 -18.612465 -48.385979 -82.672852 -80.318214 -89.118462 124.94998 0.071017645 -111.08392
27577000000 -18.581362 -50.468132 -77.583801 -58.841118 -80.759056 -168.4258 0.07065434 -111.17056
27578000000 -18.539705 -52.076698 -74.874657 -2.630605 -90.744186 -1.1499923 0.078530625 -111.19736
27579000000 -18.572855 -53.629372 -89.164696 139.04872 -76.476143 -33.776009 0.076070912 -111.31901
27580000000 -18.551338 -55.57526 -70.833809 -63.902649 -84.423248 -92.014999 0.068963155 -111.35826
27581000000 -18.529497 -57.561432 -73.777687 87.751465 -77.392677 107.83453 0.0723629 -111.40495
27582000000 -18.55723 -59.542255 -78.614899 78.522133 -82.244911 7.4628353 0.084012404 -111.47511
27583000000 -18.599173 -61.509869 -76.583916 -124.45218 -71.100914 27.144115 0.082459755 -111.55396
27584000000 -18.595835 -63.429077 -76.444321 46.727821 -85.294052 57.084007 0.078025885 -111.65229
27585000000 -18.669645 -65.232292 -69.482658 20.624569 -73.552673 -6.080759 0.065884165 -111.74667
27586000000 -18.753527 -67.316391 -81.500084 175.32837 -79.236923 155.88707 0.073320389 -111.79668
27587000000 -18.818007 -69.284348 -78.462524 -105.96326 -75.240662 -177.2672 0.07447885 -111.84572
27588000000 -18.951269 -71.365578 -82.279976 -119.43308 -83.389977 -79.660721 0.074426763 -111.96038
27589000000 -19.078251 -73.480095 -74.675484 115.85284 -72.579315 -59.896839 0.067991763 -112.01282
27590000000 -19.192663 -75.521194 -83.836464 23.717434 -83.146675 40.996426 0.063987829 -112.05853
27591000000 -19.36511 -77.01387 -79.40181 167.56241 -69.575226 -132.29494 0.064388737 -112.12565
27592000000 -19.558498 -78.924225 -73.211479 -133.50775 -74.962883 -158.8407 0.07576441 -112.2225
27593000000 -19.761389 -80.659523 -79.27829 76.000504 -89.120384 57.382996 0.069503203 -112.25031
27594000000 -19.980272 -81.750763 -80.783012 -14.966958 -90.011673 -77.359619 0.069343187 -112.33257
27595000000 -20.211655 -82.998756 -85.134399 145.35561 -73.648888 -29.562595 0.064150907 -112.41525
27596000000 -20.404779 -83.805237 -75.940468 103.6147 -77.771217 -99.040413 0.067290902 -112.48985
27597000000 -20.600388 -84.736893 -80.203636 -122.86091 -72.106934 50.272068 0.073494904 -112.55923
27598000000 -20.808802 -84.951477 -79.922127 -39.524765 -73.997383 3.0319848 0.076825164 -112.60878
27599000000 -20.93425 -85.556381 -71.342995 -121.26813 -74.631905 107.59836 0.076770701 -112.67757
27600000000 -21.088984 -85.981628 -74.392937 -136.77745 -82.668396 -137.73251 0.074909285 -112.76406
27601000000 -21.188442 -86.489761 -73.045624 146.18372 -86.080238 -144.87068 0.072751522 -112.83406
27602000000 -21.241179 -87.116806 -76.227577 120.20057 -81.713051 -135.0062 0.0775152 -112.8488
27603000000 -21.3083 -87.86998 -77.6147 -124.61038 -81.596611 128.03487 0.076033249 -112.90969
27604000000 -21.364298 -88.657173 -72.802567 -129.99965 -73.452286 81.228775 0.076890588 -113.03082
27605000000 -21.434996 -89.11869 -72.960083 -13.573507 -81.95282 137.82195 0.074413002 -113.11461
27606000000 -21.507235 -90.186607 -68.116829 25.683332 -94.086281 -130.87065 0.07152354 -113.18922
27607000000 -21.63382 -91.303703 -70.67643 -47.396389 -74.932663 -164.72621 0.077077948 -113.24529
27608000000 -21.73357 -92.103531 -76.610954 -167.53665 -68.740631 -160.65251 0.074771978 -113.33441
27609000000 -21.78974 -93.213089 -82.017769 165.58012 -85.1847 -114.55939 0.07499636 -113.3607
27610000000 -21.941887 -93.852821 -73.546707 4.7317839 -90.117813 -105.29801 0.080356531 -113.43047
27611000000 -22.127787 -95.148262 -73.132584 -105.15885 -79.929459 -81.178444 0.074539065 -113.505
27612000000 -22.289488 -96.095566 -85.846184 47.573536 -77.556038 76.339272 0.083361737 -113.59869
27613000000 -22.460526 -97.078308 -84.13401 -79.15313 -74.663658 -144.10799 0.088356368 -113.67412
27614000000 -22.572611 -97.859047 -77.205299 122.28989 -80.602272 99.585373 0.088628449 -113.77601
27615000000 -22.802187 -98.242836 -75.880325 129.03719 -77.786232 64.232285 0.081271626 -113.8028
27616000000 -22.955757 -98.879044 -87.593246 96.496185 -77.790878 -163.37871 0.082673468 -113.84945
27617000000 -23.161329 -99.423294 -80.163498 80.36412 -71.502556 -98.128578 0.089738399 -113.90289
27618000000 -23.361319 -99.750443 -70.726311 80.602966 -84.913101 -125.05457 0.080347694 -113.94701
27619000000 -23.60877 -99.827858 -71.736366 151.57607 -86.597824 -76.07235 0.085472383 -114.0752
27620000000 -23.827415 -100.14713 -70.375107 -89.203773 -70.470955 169.33434 0.090935089 -114.17091
27621000000 -24.042501 -100.03558 -70.231735 -41.088631 -74.717545 -107.22086 0.090603665 -114.19515
27622000000 -24.25845 -99.964005 -78.192238 -118.06731 -76.063049 -51.6106 0.079123959 -114.3225
27623000000 -24.439562 -99.357147 -76.114449 -34.766064 -77.404121 -102.856 0.085700624 -114.35715
27624000000 -24.620178 -99.132294 -76.878746 -171.48315 -73.682137 -5.2426586 0.090770312 -114.46364
27625000000 -24.79812 -97.861198 -75.014587 -11.483286 -75.16626 57.31739 0.075303257 -114.5354
27626000000 -25.042732 -97.794708 -78.381866 118.15981 -77.72657 -124.12025 0.089250281 -114.64281
27627000000 -25.158972 -96.681396 -93.512581 175.5569 -75.65892 -98.532532 0.088057399 -114.68892
27628000000 -25.305248 -95.919113 -71.589928 157.09537 -79.737381 84.803581 0.09486714 -114.76081
27629000000 -25.377119 -94.731995 -86.59845 63.557549 -87.373482 113.91425 0.082869314 -114.85157
27630000000 -25.505671 -93.999741 -73.852341 -59.880836 -83.800308 -140.68779 0.088659048 -114.88324
27631000000 -25.547079 -92.946632 -86.349869 49.241718 -82.930954 8.8667231 0.087132879 -114.94326
27632000000 -25.658392 -91.638512 -88.608475 175.61269 -84.638702 177.62639 0.080208033 -115.04855
27633000000 -25.61858 -90.723289 -87.219643 94.619011 -85.46405 -160.43468 0.079518832 -115.08787
27634000000 -25.638912 -90.086433 -76.816727 -134.77913 -75.879204 161.50662 0.087769546 -115.15211
27635000000 -25.554022 -88.594917 -77.709373 162.08136 -76.849113 165.68765 0.082064025 -115.22691
27636000000 -25.533432 -88.271294 -86.111649 -39.199886 -87.478355 53.802803 0.073746607 -115.25705
27637000000 -25.55932 -87.432274 -83.64782 -94.352921 -85.896362 -169.50629 0.078158148 -115.38792
27638000000 -25.464941 -86.21804 -70.878883 -114.02893 -85.157372 114.98398 0.082144015 -115.47231
27639000000 -25.359282 -85.441666 -75.759178 -34.212723 -83.470016 153.0162 0.069460593 -115.52618
27640000000 -25.202585 -85.318916 -72.687279 11.277158 -79.352997 170.70837 0.083720498 -115.58504
27641000000 -25.180052 -84.547997 -72.868134 63.894943 -84.318352 -50.962036 0.079950035 -115.71243
27642000000 -25.055067 -84.106041 -82.50441 83.434631 -77.506035 -39.324402 0.068969682 -115.75734
27643000000 -24.966272 -84.077461 -95.997284 161.67305 -80.595345 -2.4499006 0.0766057 -115.76747
27644000000 -24.962049 -83.938904 -77.474274 -59.961849 -86.910461 134.72333 0.066876769 -115.86349
27645000000 -24.825872 -83.753242 -91.944382 74.54155 -76.550659 153.15585 0.069976918 -115.91486
27646000000 -24.664534 -83.787842 -77.845955 143.59521 -85.565582 -154.8282 0.069028556 -116.0341
27647000000 -24.683765 -83.86409 -80.077095 47.692528 -79.72007 -126.31747 0.067252882 -116.08347
27648000000 -24.555614 -84.212944 -80.738373 97.357521 -78.180161 57.467068 0.078663945 -116.23373
27649000000 -24.483868 -84.052864 -81.938499 72.725601 -72.433456 -146.8781 0.062534921 -116.29669
27650000000 -24.427414 -84.05928 -74.019936 22.885468 -82.159531 141.06993 0.063608892 -116.34162
27651000000 -24.331179 -84.660065 -79.219246 -67.947784 -86.398056 -129.68835 0.065351188 -116.39269
27652000000 -24.254745 -84.582909 -72.822479 32.788727 -74.042946 69.040588 0.063887537 -116.47944
27653000000 -24.201399 -85.085808 -69.085335 -13.603362 -86.022255 -171.52719 0.068935744 -116.57006
27654000000 -24.144785 -85.064911 -76.663834 -46.292397 -81.655144 58.467533 0.061294395 -116.6272
27655000000 -24.076782 -85.854179 -86.792686 -140.64037 -77.693275 81.139847 0.061086942 -116.7153
27656000000 -24.004297 -86.084717 -78.200615 69.385826 -77.183495 46.613796 0.058646403 -116.80551
27657000000 -23.985485 -87.017288 -67.627167 19.628527 -76.25573 -54.270557 0.067797251 -116.87327
27658000000 -23.991373 -87.191406 -71.787064 30.443157 -78.563972 11.962071 0.062923416 -116.96963
27659000000 -23.948273 -87.532982 -84.501083 80.513527 -72.941757 -30.267929 0.051228471 -117.01656
27660000000 -23.870878 -88.636635 -81.575096 139.74884 -81.952621 9.8719349 0.064823098 -117.07295
27661000000 -23.897141 -88.752716 -81.513954 55.035358 -76.96347 42.263535 0.064719662 -117.15557
27662000000 -23.866714 -88.967773 -82.178299 72.130318 -76.814308 79.412254 0.059134856 -117.23366
27663000000 -23.871912 -90.122749 -80.222878 15.315245 -75.685616 -74.092018 0.056930136 -117.3177
27664000000 -23.920776 -90.582993 -78.29055 -13.777001 -74.681824 -135.51183 0.066280618 -117.38531
27665000000 -23.928194 -90.899422 -76.796936 175.94859 -88.297035 -108.41274 0.054293424 -117.48724
27666000000 -23.861015 -91.536354 -85.248177 24.419096 -84.529152 -142.27177 0.065158695 -117.49322
27667000000 -23.835859 -91.859642 -73.855576 -103.56849 -83.698891 -8.5129519 0.059066858 -117.61705
27668000000 -23.850069 -92.704353 -75.30439 -159.76611 -74.46981 -85.677505 0.06542293 -117.67146
27669000000 -23.939453 -93.159332 -81.479088 -77.513344 -71.344315 142.3598 0.060976882 -117.7338
27670000000 -23.925304 -94.021912 -81.313492 147.40718 -77.188309 164.94984 0.065401383 -117.80353
27671000000 -23.926075 -94.733276 -83.454147 -72.947517 -83.773705 69.368011 0.054404002 -117.86341
27672000000 -23.987749 -94.958839 -73.098602 -170.05437 -75.09198 -167.30698 0.057443786 -117.94051
27673000000 -23.998804 -95.641602 -77.107819 -2.7338026 -82.577301 134.98399 0.062065341 -117.99036
27674000000 -24.017771 -96.65554 -83.283333 -148.37155 -81.558441 146.62773 0.05886009 -118.11317
27675000000 -23.961479 -96.631363 -79.187492 -42.998615 -71.928314 39.074745 0.056614343 -118.18181
27676000000 -24.050619 -97.571739 -87.509476 5.3927941 -75.95295 47.126255 0.066538572 -118.23896
27677000000 -24.027201 -97.941452 -80.051468 28.516302 -74.041557 96.505417 0.057597592 -118.24269
27678000000 -24.118185 -98.803719 -81.622055 25.456232 -81.599678 -121.98643 0.064020969 -118.32909
27679000000 -24.127136 -99.803581 -75.058426 -122.84869 -72.318108 -143.53656 0.048014473 -118.4394
27680000000 -24.124298 -100.12437 -86.676147 1.4861066 -79.617744 -85.443466 0.053622983 -118.51508
27681000000 -24.135551 -101.02488 -74.081581 -95.981674 -75.713638 -39.093441 0.05551219 -118.56311
27682000000 -24.159079 -101.69842 -67.996872 -77.531258 -71.785286 7.8616195 0.063963719 -118.67951
27683000000 -24.134235 -101.89305 -81.258598 -72.404869 -78.934158 5.5022259 0.051862266 -118.7007
27684000000 -24.19022 -102.97077 -84.528526 86.611649 -72.575027 -123.81299 0.064808615 -118.7855
27685000000 -24.231911 -103.55281 -74.834488 -87.733276 -72.780907 171.83734 0.058441527 -118.83321
27686000000 -24.173265 -104.37057 -76.072624 -21.478645 -81.228706 -153.58313 0.059651174 -118.92291
27687000000 -24.155626 -105.16224 -75.988014 -146.04985 -79.215805 146.59956 0.056106139 -118.95321
27688000000 -24.2232 -106.08446 -77.326691 -81.621979 -73.966019 -40.11676 0.062629849 -119.0601
27689000000 -24.217684 -107.11069 -74.713753 -99.016434 -77.518211 30.816124 0.056419685 -119.12902
27690000000 -24.186037 -108.00307 -71.359634 -100.39517 -82.772217 158.0759 0.06330543 -119.18813
27691000000 -24.236782 -108.54165 -75.688683 -172.97832 -74.682396 159.36163 0.063491084 -119.23106
27692000000 -24.252331 -109.89964 -80.925499 71.316063 -79.038559 96.837723 0.058855355 -119.25631
27693000000 -24.201036 -110.74903 -75.745956 85.164085 -79.100044 110.64641 0.063882753 -119.37081
27694000000 -24.237101 -111.83783 -71.379211 -80.891083 -76.501518 60.757702 0.060831998 -119.4493
27695000000 -24.213146 -112.80305 -71.699631 -148.43558 -76.774681 -32.226204 0.066124059 -119.48183
27696000000 -24.243439 -114.06748 -71.294495 -124.97083 -73.255165 -30.498247 0.060174178 -119.60777
27697000000 -24.182123 -115.34172 -73.857826 -158.44691 -75.768463 73.363205 0.067105524 -119.64143
27698000000 -24.151611 -116.26073 -74.967079 -138.91489 -77.337685 -147.65742 0.066481337 -119.65743
