!Keysight Technologies,N5234A,MY55441357,A.10.47.05
!Date: Sunday, November 19, 2017 17:33:52
!Correction: S11(Full 2 Port(1,2)) 
!S21(Full 2 Port(1,2)) 
!S12(Full 2 Port(1,2)) 
!S22(Full 2 Port(1,2)) 
!S2P File: Measurements: S11, S21, S12, S22:
# Hz S  dB   R 50
27500000000 -34.272243 -0.056396417 -37.384171 178.30447 -53.395943 -59.242821 -0.63398254 -167.42097
27501000000 -33.826305 0.080876932 -37.316051 175.69249 -53.901932 -62.819122 -0.63042492 -167.78833
27502000000 -33.362362 2.6064985 -37.196354 176.06439 -52.961437 -61.791615 -0.63287479 -168.16727
27503000000 -32.653625 3.5954709 -36.912556 174.72903 -53.234306 -61.130768 -0.64392209 -168.47797
27504000000 -32.271267 3.908844 -36.759159 173.01816 -53.322235 -68.49472 -0.64211875 -168.93219
27505000000 -31.677698 4.1866798 -36.653934 173.25891 -52.583046 -64.3937 -0.65003997 -169.30417
27506000000 -31.147024 4.683238 -36.512566 171.81381 -52.717701 -59.93763 -0.65358585 -169.69708
27507000000 -30.71871 5.7731223 -36.275181 169.60648 -52.961781 -64.988213 -0.65543169 -170.14986
27508000000 -30.033932 7.0212302 -36.194939 169.4756 -52.35841 -64.062088 -0.66167933 -170.55701
27509000000 -29.635771 6.7183008 -36.250759 168.67189 -51.967102 -68.300011 -0.66428787 -170.96745
27510000000 -29.413294 6.1878066 -35.824562 167.54384 -51.901794 -63.481091 -0.66645074 -171.33894
27511000000 -28.989233 6.7259769 -35.743382 165.99475 -52.305225 -63.441422 -0.67350906 -171.75279
27512000000 -28.644201 7.1792665 -35.597168 165.57776 -52.084743 -66.214897 -0.6684863 -172.19698
27513000000 -28.114716 6.7883887 -35.479908 164.49667 -51.652264 -66.28891 -0.68351251 -172.62004
27514000000 -27.859779 6.4817958 -35.219997 162.5139 -51.401695 -72.864487 -0.68453109 -173.07936
27515000000 -27.496956 6.2717347 -35.071526 161.54735 -50.948952 -68.258423 -0.68037111 -173.49234
27516000000 -27.200003 6.6127133 -34.964031 159.91016 -50.732651 -70.038216 -0.69763052 -173.9348
27517000000 -26.785397 5.6030979 -34.904327 159.39774 -50.668259 -75.711388 -0.6913504 -174.39676
27518000000 -26.522444 5.4561939 -34.741825 159.10776 -50.739166 -75.32151 -0.70490295 -174.82776
27519000000 -26.190411 5.2751431 -34.526093 156.78535 -50.730995 -74.58448 -0.70359147 -175.30684
27520000000 -25.883858 5.3668404 -34.370216 156.04568 -51.122375 -70.41143 -0.71404928 -175.76276
27521000000 -25.650126 4.6906481 -34.273109 154.14201 -50.794807 -77.563034 -0.71934736 -176.21262
27522000000 -25.344608 4.1482034 -34.041107 153.6319 -50.431114 -75.560196 -0.71672684 -176.70656
27523000000 -25.093824 3.6058478 -33.896641 152.84805 -49.967201 -79.154396 -0.72254139 -177.14191
27524000000 -24.861109 3.0722342 -33.705669 151.23232 -50.073521 -78.67804 -0.72572494 -177.6593
27525000000 -24.613623 2.9718626 -33.586861 150.08627 -50.066532 -77.944771 -0.73982584 -178.16383
27526000000 -24.377434 1.888733 -33.412842 148.38249 -50.375248 -83.496559 -0.7438525 -178.66914
27527000000 -24.121218 1.3721663 -33.276142 147.79468 -49.491806 -78.189049 -0.74495071 -179.17836
27528000000 -23.892548 0.79159671 -33.069118 146.39201 -48.982365 -82.39666 -0.75290895 -179.69609
27529000000 -23.68696 0.55819452 -32.93483 145.39229 -48.996681 -83.4842 -0.75485778 179.79028
27530000000 -23.53302 -0.12721713 -32.796768 144.1813 -48.940472 -81.460449 -0.76804656 179.30173
27531000000 -23.290209 -0.72758937 -32.547981 143.1259 -48.803085 -83.838715 -0.77888644 178.72549
27532000000 -23.091372 -1.3372651 -32.527256 141.72623 -48.536869 -89.093163 -0.7803514 178.18761
27533000000 -22.929504 -2.0214548 -32.376007 140.09024 -48.087921 -87.772041 -0.79255557 177.65831
27534000000 -22.700722 -2.7347467 -32.144791 139.2823 -48.036896 -88.693657 -0.79994804 177.06908
27535000000 -22.576475 -3.6238394 -32.046856 137.88162 -48.199608 -88.765602 -0.80859774 176.5388
27536000000 -22.359154 -4.4038005 -31.934778 137.00563 -47.846878 -90.519638 -0.81085944 175.92123
27537000000 -22.254526 -5.036675 -31.756268 135.40878 -47.994015 -90.439621 -0.82423407 175.31622
27538000000 -22.083906 -5.6499672 -31.559267 133.92159 -47.60643 -90.076935 -0.82253796 174.72551
27539000000 -21.868153 -6.6386752 -31.443895 132.57726 -47.479973 -88.887482 -0.83384186 174.20459
27540000000 -21.701572 -7.3301635 -31.269171 131.46449 -47.060104 -95.530235 -0.83893943 173.53212
27541000000 -21.58012 -8.2403812 -31.16918 130.1987 -47.055656 -95.166229 -0.85600537 172.89919
27542000000 -21.432539 -8.9406452 -30.95159 128.80965 -46.898865 -95.253319 -0.86021233 172.25967
27543000000 -21.237635 -9.9662924 -30.817944 127.60935 -47.13295 -96.083786 -0.87617141 171.64925
27544000000 -21.146675 -10.647404 -30.648895 126.67127 -46.931782 -97.091476 -0.88560772 171.00815
27545000000 -20.959223 -11.568018 -30.578136 124.53058 -46.475601 -98.440926 -0.89445829 170.29991
27546000000 -20.877401 -12.123866 -30.365368 123.88496 -46.038231 -95.918617 -0.89713323 169.61116
27547000000 -20.70273 -13.241469 -30.274593 122.10325 -46.257687 -103.24252 -0.91112864 168.91362
27548000000 -20.651217 -14.193242 -30.100731 120.60297 -46.769211 -104.15427 -0.92306238 168.20485
27549000000 -20.489403 -15.051046 -29.96064 119.52934 -46.039864 -104.71362 -0.93877578 167.5107
27550000000 -20.410851 -16.199648 -29.865067 118.23338 -45.984016 -106.58104 -0.94127637 166.77664
27551000000 -20.227665 -17.015785 -29.753559 117.04089 -45.964584 -107.40065 -0.96214092 165.98721
27552000000 -20.132662 -18.179468 -29.621956 115.88424 -45.617256 -106.50986 -0.96667898 165.25548
27553000000 -20.038719 -19.13167 -29.552279 114.79003 -45.589378 -106.32419 -0.97993559 164.4866
27554000000 -19.956797 -20.215258 -29.494162 113.13654 -45.86668 -110.29832 -0.98415178 163.68639
27555000000 -19.868683 -21.136992 -29.331703 111.54937 -45.7066 -113.02153 -0.99234867 162.81209
27556000000 -19.748556 -22.467785 -29.155062 109.82315 -44.979584 -109.54511 -1.0162289 162.02982
27557000000 -19.660877 -23.548149 -29.105728 108.9511 -45.229336 -112.12014 -1.0351274 161.14993
27558000000 -19.560923 -24.650167 -29.012907 107.40878 -45.329411 -113.45654 -1.0495472 160.33313
27559000000 -19.462057 -25.706852 -28.909195 106.42136 -45.204308 -116.39768 -1.0580574 159.43629
27560000000 -19.41116 -26.855415 -28.901682 104.7186 -45.291878 -115.63487 -1.0746702 158.50301
27561000000 -19.311008 -27.843681 -28.819345 103.16047 -45.086903 -116.82466 -1.0912715 157.60698
27562000000 -19.2341 -29.204908 -28.771851 102.54241 -45.043957 -118.16106 -1.1051055 156.65796
27563000000 -19.187624 -30.489862 -28.81669 101.01984 -44.98061 -119.54219 -1.1332662 155.61525
27564000000 -19.114408 -31.718866 -28.801647 99.583305 -44.997753 -118.91645 -1.1486411 154.62328
27565000000 -19.057501 -33.166889 -28.792894 98.578568 -44.85759 -119.69661 -1.1746099 153.57243
27566000000 -18.970545 -34.407871 -28.786871 97.68718 -44.967365 -120.11066 -1.2022426 152.54483
27567000000 -18.910847 -35.699772 -28.822376 96.704315 -44.786934 -121.01443 -1.2200335 151.3821
27568000000 -18.865149 -36.898247 -28.852095 95.886543 -45.112732 -123.58655 -1.2489001 150.25983
27569000000 -18.819229 -38.427155 -28.940672 95.032051 -45.312313 -123.38889 -1.271628 149.07608
27570000000 -18.738188 -39.951389 -29.094843 94.686295 -45.441288 -123.8227 -1.3115921 147.83768
27571000000 -18.709949 -41.379425 -29.168837 94.56321 -45.115402 -125.20391 -1.3431691 146.55058
27572000000 -18.676842 -42.820782 -29.325666 94.849785 -45.505154 -123.53643 -1.3821297 145.27104
27573000000 -18.62676 -44.393375 -29.535706 94.944832 -46.030415 -122.85712 -1.4259448 143.93088
27574000000 -18.579178 -46.027691 -29.767368 95.651245 -45.67461 -122.17935 -1.4660213 142.49753
27575000000 -18.563505 -47.97345 -30.036499 97.226479 -45.796448 -120.81539 -1.522421 141.06616
27576000000 -18.511047 -49.135071 -30.26491 99.629837 -46.301048 -116.80665 -1.577878 139.519
27577000000 -18.482845 -51.026028 -30.476357 102.44941 -46.492161 -116.07834 -1.6252108 137.87491
27578000000 -18.479486 -52.674923 -30.69857 106.89302 -46.883575 -108.94147 -1.6896214 136.24707
27579000000 -18.530056 -54.297523 -30.597731 112.16444 -47.077785 -101.94621 -1.7789097 134.45863
27580000000 -18.49807 -56.280075 -30.43062 118.75076 -46.91769 -95.688202 -1.8566539 132.59468
27581000000 -18.481899 -58.289116 -29.972519 125.55768 -46.142811 -90.42688 -1.950423 130.65916
27582000000 -18.512098 -60.097488 -29.328535 132.25677 -45.597866 -82.952164 -2.0500126 128.62613
27583000000 -18.571535 -62.110893 -28.277718 137.95238 -44.42963 -76.469963 -2.1697814 126.49854
27584000000 -18.58584 -64.036026 -26.983643 142.64777 -43.424019 -72.059647 -2.3185503 124.19511
27585000000 -18.687338 -65.942482 -25.632021 145.61984 -41.939232 -69.150124 -2.4895391 121.76603
27586000000 -18.789522 -67.979347 -24.21059 147.64233 -40.327293 -66.310829 -2.6762462 119.26525
27587000000 -18.809063 -69.925072 -22.808569 147.97705 -39.067459 -66.998642 -2.9005816 116.48997
27588000000 -18.955038 -72.107918 -21.378845 147.17308 -37.588055 -67.270355 -3.179647 113.64595
27589000000 -19.088989 -74.177246 -20.00935 145.40433 -36.255409 -68.642174 -3.4792171 110.72251
27590000000 -19.216705 -76.250809 -18.702675 142.78209 -34.977959 -71.197678 -3.870724 107.66405
27591000000 -19.448671 -77.815521 -17.453032 139.151 -33.70808 -74.501808 -4.3196073 104.48038
27592000000 -19.63686 -79.676857 -16.252913 135.24113 -32.540493 -77.906715 -4.8447495 101.31289
27593000000 -19.883404 -81.383675 -15.148283 130.42574 -31.388285 -82.566566 -5.4851341 98.146431
27594000000 -20.114502 -82.479691 -14.118395 125.18105 -30.37516 -87.662575 -6.2318435 95.264488
27595000000 -20.354126 -83.769287 -13.181098 119.55615 -29.398443 -93.16655 -7.1042976 92.60495
27596000000 -20.641598 -84.579643 -12.317455 113.57302 -28.575342 -98.77803 -8.1623993 90.602463
27597000000 -20.893225 -85.168564 -11.550991 107.25945 -27.731943 -105.1274 -9.3291483 89.575752
27598000000 -21.127275 -85.335518 -10.877661 100.85488 -27.07024 -111.13873 -10.673358 90.023064
27599000000 -21.268328 -85.56089 -10.289619 94.274483 -26.556913 -117.54304 -12.119572 92.467934
27600000000 -21.403107 -85.258377 -9.805603 87.818138 -26.084618 -123.64848 -13.588135 97.743042
27601000000 -21.49687 -85.468872 -9.3863592 81.4907 -25.667866 -129.78949 -14.84001 106.35324
27602000000 -21.558983 -85.591003 -9.0367794 75.271782 -25.316607 -135.79446 -15.56596 117.66478
27603000000 -21.582327 -86.026192 -8.7286644 69.237152 -24.98209 -141.61443 -15.652834 129.35341
27604000000 -21.582691 -86.337944 -8.500083 63.300575 -24.735374 -147.15703 -15.16763 139.18028
27605000000 -21.599716 -86.76593 -8.2763329 57.641567 -24.54767 -152.77072 -14.410555 146.11449
27606000000 -21.616829 -87.667686 -8.1021509 52.191349 -24.399965 -157.92062 -13.610439 150.71434
27607000000 -21.664923 -88.678055 -7.9668899 46.981232 -24.213837 -162.83749 -12.867335 153.43719
27608000000 -21.690769 -89.464928 -7.836895 41.873508 -24.109343 -167.56752 -12.180392 155.0267
27609000000 -21.726227 -90.675011 -7.750587 36.984165 -23.993025 -172.39432 -11.590516 155.70728
27610000000 -21.778198 -91.624084 -7.6462784 32.29147 -23.938166 -176.80078 -11.103104 155.74927
27611000000 -21.854593 -92.836105 -7.5792227 27.7181 -23.842169 178.75694 -10.681026 155.51535
27612000000 -21.989357 -94.072006 -7.4926682 23.244267 -23.782145 174.70959 -10.310029 155.14929
27613000000 -22.131308 -95.397781 -7.4490066 18.960978 -23.713531 170.40785 -9.9951601 154.43401
27614000000 -22.171709 -96.417877 -7.3784943 14.725722 -23.647301 166.35416 -9.7259426 153.77483
27615000000 -22.3521 -97.012077 -7.3333397 10.687912 -23.624348 162.58607 -9.5113792 153.03281
27616000000 -22.494459 -98.23143 -7.2908459 6.6738334 -23.567755 158.86478 -9.2996283 152.14989
27617000000 -22.723982 -99.342957 -7.2584887 2.7815211 -23.56461 155.29468 -9.1243744 151.21227
27618000000 -22.854721 -99.925583 -7.2147994 -1.0464039 -23.530399 151.55954 -8.9564486 150.34343
27619000000 -23.122807 -100.68663 -7.1868553 -4.7714014 -23.47657 148.01938 -8.8232212 149.41743
27620000000 -23.314302 -101.47056 -7.1590624 -8.5154772 -23.447083 144.66287 -8.6938238 148.58234
27621000000 -23.536188 -101.91563 -7.1279273 -12.12688 -23.397512 141.09129 -8.5661383 147.58179
27622000000 -23.801956 -102.31026 -7.1126504 -15.720982 -23.403929 137.70039 -8.4651241 146.61096
27623000000 -24.032244 -102.50732 -7.1073084 -19.217342 -23.368841 134.73596 -8.374506 145.68385
27624000000 -24.246647 -102.57217 -7.0792274 -22.67626 -23.373837 131.42203 -8.2807541 144.71649
27625000000 -24.488667 -102.20868 -7.0639119 -26.087595 -23.370636 128.34225 -8.1910162 143.66779
27626000000 -24.724852 -102.37669 -7.0545735 -29.415514 -23.331301 125.15639 -8.1083069 142.61072
27627000000 -24.956327 -101.64224 -7.0299382 -32.716949 -23.327686 122.20251 -8.025382 141.57449
27628000000 -25.142437 -101.04082 -7.0293698 -35.950096 -23.312027 119.07449 -7.9478168 140.50777
27629000000 -25.348825 -100.38782 -7.016746 -39.19825 -23.316469 116.3381 -7.8804049 139.33971
27630000000 -25.615225 -99.669403 -7.0108948 -42.383865 -23.32127 113.29229 -7.8160152 138.19255
27631000000 -25.799068 -98.70668 -7.0154872 -45.514481 -23.289354 110.51826 -7.754066 136.98909
27632000000 -26.00671 -97.785843 -7.0004878 -48.600815 -23.308792 107.65582 -7.6979513 135.73431
27633000000 -26.055799 -96.511551 -6.9956417 -51.639378 -23.319227 104.60745 -7.639286 134.49947
27634000000 -26.17977 -95.753601 -7.0024166 -54.629471 -23.317415 101.87409 -7.5742998 133.15627
27635000000 -26.212093 -93.778137 -6.9955888 -57.686195 -23.332073 99.24247 -7.5301833 131.85983
27636000000 -26.271887 -92.927132 -7.0114098 -60.605259 -23.334751 96.361328 -7.4770465 130.41859
27637000000 -26.401491 -91.697617 -6.9993672 -63.554523 -23.329277 93.615257 -7.4385533 129.11914
27638000000 -26.369772 -89.97879 -6.9927106 -66.42244 -23.324404 91.19223 -7.3982153 127.5975
27639000000 -26.341122 -88.513588 -7.0070024 -69.280861 -23.326014 88.391708 -7.3527021 126.11177
27640000000 -26.227728 -88.100624 -6.9972 -72.18087 -23.322815 85.831558 -7.3224821 124.58911
27641000000 -26.245384 -86.438782 -6.9986162 -74.984962 -23.317934 83.3722 -7.2893958 122.9579
27642000000 -26.148594 -85.18177 -7.00281 -77.745781 -23.324814 80.823166 -7.2490621 121.4306
27643000000 -26.06094 -85.001183 -7.0063267 -80.478073 -23.35911 78.209435 -7.2247968 119.82992
27644000000 -25.997782 -84.241936 -7.0028343 -83.218697 -23.346003 75.762589 -7.2119327 118.09041
27645000000 -25.892941 -83.085739 -7.0039573 -85.941032 -23.35088 73.287643 -7.1877389 116.38168
27646000000 -25.727419 -82.447632 -7.0151224 -88.645531 -23.34866 70.787773 -7.1614413 114.61684
27647000000 -25.691755 -82.169937 -7.0076365 -91.27755 -23.327702 68.273224 -7.1313391 112.82082
27648000000 -25.562576 -81.944 -7.0123158 -93.985687 -23.350246 66.078804 -7.1292529 110.97614
27649000000 -25.439554 -81.601624 -7.0105963 -96.635147 -23.354937 63.418171 -7.1135554 109.08099
27650000000 -25.323997 -81.121017 -7.0056939 -99.227409 -23.352007 61.207981 -7.1031218 107.21187
27651000000 -25.213776 -81.280693 -7.0102711 -101.83492 -23.365196 58.678585 -7.0870514 105.27229
27652000000 -25.073298 -80.906532 -7.0103021 -104.4406 -23.334225 56.502151 -7.0868216 103.29909
27653000000 -24.985554 -81.022552 -7.0024385 -107.02891 -23.383661 54.013554 -7.090354 101.2812
27654000000 -24.863487 -80.998482 -7.0059352 -109.58714 -23.352629 51.793831 -7.0885253 99.299706
27655000000 -24.701139 -81.271667 -7.0083361 -112.14419 -23.353716 49.601601 -7.094027 97.217743
27656000000 -24.619524 -81.272263 -6.9935527 -114.69402 -23.348446 47.077847 -7.0906563 95.121628
27657000000 -24.505466 -81.990822 -6.9947534 -117.20517 -23.345018 45.03875 -7.0764432 92.979218
27658000000 -24.484669 -82.489861 -6.9867897 -119.73024 -23.365921 42.66507 -7.0809879 90.748589
27659000000 -24.36714 -82.310356 -7.0011311 -122.25481 -23.357531 40.41156 -7.0792594 88.576012
27660000000 -24.222038 -83.140694 -6.9936595 -124.74879 -23.362162 38.066883 -7.0918908 86.361443
27661000000 -24.194572 -83.602356 -6.9774814 -127.23386 -23.339731 35.909729 -7.0812526 84.122643
27662000000 -24.139584 -83.898796 -6.9789047 -129.69847 -23.321688 33.583168 -7.0937567 81.833778
27663000000 -24.038614 -84.644073 -6.9744873 -132.16283 -23.345587 31.521727 -7.0956397 79.60743
27664000000 -23.995825 -85.392281 -6.9769702 -134.63937 -23.355318 29.260223 -7.104063 77.184433
27665000000 -23.983292 -85.557365 -6.9682074 -137.07704 -23.337063 26.901226 -7.1074295 74.834625
27666000000 -23.877604 -86.279335 -6.9659367 -139.48969 -23.328281 24.719004 -7.1040783 72.494659
27667000000 -23.815218 -86.82692 -6.9641423 -141.96043 -23.312981 22.397644 -7.1061921 70.094231
27668000000 -23.754417 -87.8993 -6.9579992 -144.44467 -23.328047 20.534693 -7.1080027 67.7033
27669000000 -23.75775 -88.40995 -6.9473052 -146.85561 -23.33736 18.308491 -7.1106558 65.255585
27670000000 -23.714561 -89.505142 -6.9477944 -149.25545 -23.347275 15.985059 -7.1128559 62.746666
27671000000 -23.67108 -90.573021 -6.9526486 -151.66319 -23.317154 13.785922 -7.1086526 60.297977
27672000000 -23.680017 -90.948631 -6.9408374 -154.09531 -23.299316 11.613594 -7.1024351 57.837921
27673000000 -23.699465 -91.858673 -6.9341855 -156.54451 -23.342632 9.366931 -7.088891 55.333939
27674000000 -23.639191 -92.99144 -6.9343739 -158.9398 -23.33758 7.1922455 -7.0881758 52.819355
27675000000 -23.559534 -93.591049 -6.9416041 -161.41077 -23.34342 5.1832428 -7.0897427 50.229961
27676000000 -23.6078 -94.639053 -6.9303641 -163.75148 -23.324175 2.9097853 -7.0831089 47.738983
27677000000 -23.573681 -95.398193 -6.9271274 -166.14279 -23.344749 0.84737915 -7.0835395 45.248314
27678000000 -23.637302 -96.388481 -6.917388 -168.5264 -23.323349 -1.1809652 -7.0676565 42.691513
27679000000 -23.611858 -97.783768 -6.9234624 -170.92113 -23.337927 -3.4627652 -7.0539675 40.254364
27680000000 -23.598341 -98.609673 -6.9252505 -173.31297 -23.325771 -5.6245484 -7.0385995 37.567627
27681000000 -23.61566 -99.479568 -6.9187551 -175.7189 -23.335333 -7.6139774 -7.0272999 35.129635
27682000000 -23.664253 -100.65117 -6.9274831 -178.05325 -23.328951 -9.8729286 -7.0048966 32.543098
27683000000 -23.658558 -101.29673 -6.9335117 179.61549 -23.331654 -12.052896 -6.9966254 30.00136
27684000000 -23.650906 -102.90284 -6.921155 177.20277 -23.330196 -14.009346 -6.9760885 27.516481
27685000000 -23.671677 -103.78131 -6.9214139 174.84685 -23.314304 -16.127863 -6.9649897 25.029648
27686000000 -23.622206 -105.01908 -6.9218678 172.50536 -23.330973 -18.21966 -6.9445682 22.526623
27687000000 -23.605282 -105.96505 -6.9309816 170.16853 -23.329046 -20.441214 -6.9177709 20.059862
27688000000 -23.706871 -107.28562 -6.9254813 167.83397 -23.335346 -22.451128 -6.9077177 17.557064
27689000000 -23.72658 -108.51649 -6.9273386 165.49171 -23.371262 -24.652657 -6.8673139 15.060225
27690000000 -23.722338 -109.87866 -6.930469 163.1223 -23.35446 -26.716883 -6.8332152 12.651645
27691000000 -23.749353 -110.82858 -6.9321108 160.75792 -23.377123 -28.584564 -6.7972164 10.187477
27692000000 -23.819048 -112.21544 -6.9383492 158.46579 -23.376591 -30.844301 -6.7749357 7.7554512
27693000000 -23.790855 -113.47015 -6.9414163 156.10876 -23.342752 -32.969357 -6.7386498 5.4411397
27694000000 -23.871119 -114.8803 -6.940629 153.82318 -23.376831 -34.932129 -6.7099676 3.0206316
27695000000 -23.830349 -116.12775 -6.946094 151.50407 -23.37969 -37.236511 -6.6717629 0.64007705
27696000000 -23.879553 -117.64979 -6.951982 149.14746 -23.379837 -39.06102 -6.6514449 -1.6536527
27697000000 -23.880981 -119.15206 -6.9464626 146.82199 -23.388199 -41.190418 -6.6186457 -3.9711189
27698000000 -23.924728 -120.24533 -6.9665818 144.58261 -23.390724 -43.164551 -6.5891333 -6.243772
27699000000 -23.997881 -121.5448 -6.9568067 142.26027 -23.403757 -45.374222 -6.5604877 -8.5135775
27700000000 -23.96386 -122.96406 -6.9723349 139.99707 -23.420872 -47.353943 -6.5266905 -10.744205
27701000000 -23.960392 -124.93448 -6.9707441 137.72679 -23.410238 -49.371124 -6.4892063 -12.879062
