!Keysight Technologies,N5234A,MY55441357,A.10.47.05
!Date: Sunday, November 19, 2017 17:37:41
!Correction: S11(Full 2 Port(1,2)) 
!S21(Full 2 Port(1,2)) 
!S12(Full 2 Port(1,2)) 
!S22(Full 2 Port(1,2)) 
!S2P File: Measurements: S11, S21, S12, S22:
# Hz S  dB   R 50
27500000000 -21.544163 -13.570118 -75.210365 149.99348 -88.378563 113.44083 0.080721907 81.801659
27501000000 -21.502453 -14.559863 -71.180092 110.1731 -78.657455 -144.34303 0.077149346 81.803658
27502000000 -21.43746 -15.298558 -87.453102 112.27223 -79.582153 90.639061 0.081190646 81.690201
27503000000 -21.279955 -15.81303 -73.160614 85.4161 -86.386444 176.75249 0.072969124 81.599045
27504000000 -21.245695 -16.419668 -71.431305 -168.43959 -73.033508 -131.63115 0.078407377 81.524147
27505000000 -21.133116 -17.009319 -72.582535 172.11026 -78.23011 -4.6290803 0.071418174 81.433624
27506000000 -21.028458 -17.657715 -71.209969 93.293282 -77.958115 87.147713 0.073247217 81.39299
27507000000 -20.964338 -18.097736 -71.174553 62.429199 -74.84166 162.81944 0.068839476 81.320175
27508000000 -20.833984 -18.441252 -68.640457 96.826683 -76.628738 130.59418 0.082064688 81.20546
27509000000 -20.764437 -19.114401 -80.413963 22.7162 -75.49614 -178.57578 0.071882047 81.157051
27510000000 -20.714685 -20.189392 -77.48127 -73.5261 -96.83725 62.137619 0.066679768 81.072899
27511000000 -20.671682 -20.741552 -73.898048 87.139328 -76.684296 50.938217 0.073681839 81.004845
27512000000 -20.586214 -21.355864 -76.010139 72.79409 -75.735977 26.615335 0.077666223 80.909126
27513000000 -20.487606 -21.824131 -80.009232 49.608753 -83.320702 52.788551 0.076219536 80.849899
27514000000 -20.482292 -22.631018 -77.386467 -100.94187 -85.566887 -26.620007 0.077862285 80.775604
27515000000 -20.380064 -23.332214 -74.354401 19.725323 -75.564682 156.41391 0.077146411 80.671982
27516000000 -20.310421 -23.895554 -79.704834 146.85257 -82.727287 89.322037 0.062968768 80.59684
27517000000 -20.239584 -24.495913 -75.083923 66.791222 -87.636017 147.94173 0.066136196 80.546486
27518000000 -20.206903 -25.126127 -74.595757 64.576675 -82.136475 53.293877 0.063698292 80.444878
27519000000 -20.14027 -25.748108 -75.520905 53.994839 -77.010567 31.813074 0.068664417 80.391533
27520000000 -20.09487 -26.248476 -69.539352 167.07103 -74.045067 100.20694 0.071147516 80.306244
27521000000 -20.045567 -26.96913 -79.542305 -123.30086 -73.87989 -76.466736 0.066388242 80.178734
27522000000 -19.982336 -27.582691 -75.187683 -166.77837 -86.415802 90.504768 0.064790115 80.142113
27523000000 -19.935734 -28.460588 -76.379715 87.86937 -76.259071 120.7703 0.065851301 80.068527
27524000000 -19.888296 -29.125696 -72.181099 73.017723 -75.767159 102.77358 0.069363303 79.969231
27525000000 -19.883413 -29.770004 -74.397964 58.715321 -75.434166 15.280683 0.056859825 79.938721
27526000000 -19.79879 -30.642534 -91.877495 -167.74194 -81.402763 -95.507874 0.053891078 79.821823
27527000000 -19.759605 -31.384569 -77.232361 46.598824 -83.501495 166.8513 0.061250586 79.768768
27528000000 -19.720726 -32.10001 -74.330467 -66.924507 -81.212547 56.739544 0.060203802 79.646675
27529000000 -19.707182 -32.677929 -70.874275 116.98634 -69.26339 15.158031 0.059009735 79.559898
27530000000 -19.685301 -33.621605 -67.486969 134.12407 -74.410759 49.571388 0.050785653 79.447632
27531000000 -19.670229 -34.255409 -78.446465 68.554497 -76.679161 46.056309 0.058993295 79.354485
27532000000 -19.642761 -35.140312 -73.933601 12.370992 -71.871017 -58.149696 0.056147348 79.262726
27533000000 -19.634167 -35.908489 -73.133408 106.75016 -72.287552 144.74744 0.049067844 79.23838
27534000000 -19.601189 -36.473545 -70.726158 120.23802 -80.663567 95.641586 0.049380299 79.127914
27535000000 -19.605408 -37.554676 -78.6325 -154.68082 -71.341881 -109.18395 0.05690543 79.099113
27536000000 -19.567825 -38.141495 -86.380524 43.759193 -78.634567 61.558979 0.056973759 78.930244
27537000000 -19.58391 -39.133175 -76.498268 94.563797 -73.476547 -35.423195 0.047801759 78.8666
27538000000 -19.572813 -39.784523 -71.464043 145.82396 -74.035889 -77.900887 0.050380688 78.793671
27539000000 -19.528515 -40.698544 -75.144463 102.67678 -74.306213 -26.2878 0.05371986 78.718491
27540000000 -19.524887 -41.329632 -76.766602 95.132484 -72.789169 -26.086073 0.061716571 78.635155
27541000000 -19.540091 -42.281349 -72.069023 138.90385 -82.065399 113.01304 0.051892444 78.558296
27542000000 -19.531488 -43.189499 -71.64389 131.79857 -75.281403 -175.27907 0.051503398 78.435333
27543000000 -19.515615 -43.902748 -82.399055 106.80193 -79.392387 -177.48616 0.045025203 78.373238
27544000000 -19.557755 -44.842232 -84.319153 -132.0779 -78.93087 178.77925 0.046239156 78.279205
27545000000 -19.547703 -45.754166 -75.768852 67.69873 -73.105919 -55.614014 0.050367314 78.187035
27546000000 -19.615494 -46.576675 -82.522049 -11.810609 -80.471519 30.774353 0.055702869 78.051399
27547000000 -19.599867 -47.511559 -68.990356 60.586926 -90.648514 -102.70962 0.05581893 77.978806
27548000000 -19.666399 -48.521564 -75.151726 22.129847 -76.596176 -34.978168 0.055428453 77.948769
27549000000 -19.639963 -49.261166 -82.488831 -18.335802 -71.023361 56.565018 0.049975652 77.809052
27550000000 -19.69696 -50.416996 -77.40432 21.169405 -81.09549 -98.733009 0.046764724 77.767548
27551000000 -19.721521 -51.213184 -74.334007 42.113857 -82.06398 15.785513 0.044563346 77.677193
27552000000 -19.759693 -52.27446 -82.665535 140.78279 -76.5196 28.658657 0.058002815 77.541328
27553000000 -19.794037 -53.271843 -75.167236 39.256557 -90.060753 -7.0669894 0.054456625 77.472176
27554000000 -19.868597 -54.318188 -72.419273 9.1479778 -81.028427 -135.46379 0.057701282 77.430321
27555000000 -19.953754 -55.337536 -70.266174 40.570908 -78.048164 95.16526 0.063055471 77.351303
27556000000 -19.976606 -56.276379 -72.456505 52.570217 -72.773491 149.5555 0.064312689 77.294212
27557000000 -20.026011 -57.426952 -67.551262 65.962044 -73.629639 153.86237 0.061542951 77.169731
27558000000 -20.106422 -58.486298 -72.240654 44.884953 -73.503059 57.659855 0.067680746 77.125694
27559000000 -20.130175 -59.560608 -71.243431 42.162079 -82.114967 38.215946 0.074727677 76.978836
27560000000 -20.251278 -60.629433 -73.939148 122.70244 -88.426041 144.72621 0.064558528 76.869568
27561000000 -20.35368 -61.74424 -69.02462 50.114544 -79.115997 128.31548 0.064730734 76.825211
27562000000 -20.407301 -62.989063 -69.422318 70.060989 -71.941986 -73.333649 0.068613715 76.73262
27563000000 -20.533573 -64.154716 -66.784393 75.350952 -72.344635 12.549744 0.067487031 76.643509
27564000000 -20.651171 -65.392563 -76.305016 -1.3610122 -71.191574 -28.378666 0.075820759 76.549568
27565000000 -20.724396 -66.825775 -70.431747 -5.1406837 -75.047714 49.976963 0.063273281 76.49572
27566000000 -20.845085 -68.05632 -70.850136 92.094551 -84.183205 91.435295 0.063048802 76.391418
27567000000 -20.983372 -69.254303 -67.702324 46.489044 -72.495216 51.063011 0.065118738 76.269493
27568000000 -21.13785 -70.081085 -68.643105 38.496483 -78.025177 1.8202612 0.065197572 76.19416
27569000000 -21.27269 -71.752563 -78.422874 11.678193 -74.45929 170.80286 0.069085322 76.112518
27570000000 -21.432058 -73.049622 -75.468048 -0.17368968 -73.262444 -170.72409 0.070026554 76.023773
27571000000 -21.583076 -74.272545 -75.195488 64.629303 -80.315697 -164.47934 0.069380403 75.909203
27572000000 -21.772781 -75.453064 -69.350372 92.49543 -74.735313 -171.59447 0.066187836 75.776352
27573000000 -21.978392 -76.675919 -68.87011 72.020126 -72.383415 150.37015 0.057494257 75.685112
27574000000 -22.149525 -78.119087 -67.013641 55.22411 -73.41259 89.120781 0.061110348 75.631699
27575000000 -22.356066 -79.890053 -78.892105 87.20665 -80.193298 140.37961 0.062379867 75.540039
27576000000 -22.655638 -80.603661 -79.468292 170.1196 -87.010437 138.57762 0.051668983 75.462303
27577000000 -22.853901 -82.346886 -73.473167 45.291576 -83.8787 -41.682995 0.062013205 75.290123
27578000000 -23.167044 -83.30748 -76.20993 164.16707 -77.351807 -88.811249 0.059849266 75.31665
27579000000 -23.529068 -84.733139 -75.176315 21.03661 -78.251404 -2.4352102 0.060562473 75.110352
27580000000 -23.831444 -85.875931 -70.315834 21.37192 -74.858841 -38.081051 0.057377588 75.005638
27581000000 -24.080027 -86.808517 -71.019554 59.713905 -74.376991 92.470398 0.059326798 74.901382
27582000000 -24.467978 -88.209602 -69.468712 29.065533 -73.829483 -143.97772 0.061869211 74.778748
27583000000 -24.980864 -89.301346 -72.99614 58.968739 -75.577599 13.062226 0.052184407 74.727936
27584000000 -25.413361 -89.643166 -77.336868 49.943176 -100.95544 114.87747 0.057755183 74.619553
27585000000 -26.003101 -89.982925 -69.984497 24.413044 -77.789726 -108.1724 0.057594713 74.499489
27586000000 -26.537245 -90.293022 -68.983757 40.198101 -76.560692 -70.554657 0.053266022 74.446671
27587000000 -27.044691 -89.349998 -68.293671 41.095486 -79.060661 7.3572817 0.058834471 74.197403
27588000000 -27.816376 -88.66449 -68.357697 73.412743 -83.978302 -7.3520927 0.054037839 74.105568
27589000000 -28.450041 -86.824814 -70.182915 46.912716 -88.54924 -170.85854 0.061543442 74.015221
27590000000 -29.025873 -84.14991 -75.7556 38.260201 -90.635246 -21.037628 0.056804948 73.986679
27591000000 -29.668842 -79.104324 -73.454353 22.758415 -84.829933 -120.98529 0.039897796 73.833229
27592000000 -30.115559 -74.284447 -76.737778 36.075836 -98.42923 179.09645 0.052579917 73.732132
27593000000 -30.39872 -69.463699 -70.869125 58.909042 -81.778282 35.52713 0.051528629 73.624535
27594000000 -30.32029 -62.675823 -69.491859 31.801586 -76.939804 -13.609401 0.05312638 73.539177
27595000000 -30.120449 -57.616745 -67.543022 49.061417 -76.883034 45.589821 0.053069152 73.46608
27596000000 -29.76564 -53.571972 -65.357048 34.126778 -77.259254 -63.918434 0.044563379 73.268242
27597000000 -29.332539 -50.72979 -68.257774 87.806572 -82.034843 -5.4542322 0.045531932 73.182709
27598000000 -28.792734 -48.234539 -72.164139 56.911083 -74.817688 172.17207 0.044292852 73.017273
27599000000 -28.298096 -47.070702 -66.187172 42.504227 -77.665665 162.18906 0.054695662 72.891121
27600000000 -27.884151 -46.224995 -68.666298 49.102219 -75.324425 119.07671 0.044141721 72.805809
27601000000 -27.538982 -46.433628 -72.721977 12.42724 -76.650505 -81.795959 0.052628119 72.673409
27602000000 -27.267649 -46.42786 -77.911209 45.934357 -73.175484 -155.53174 0.053414624 72.614464
27603000000 -27.064619 -46.246407 -77.940498 22.002689 -76.590279 131.22551 0.051048767 72.521278
27604000000 -26.840204 -46.407833 -69.748787 46.842838 -77.810089 49.307674 0.051498521 72.388741
27605000000 -26.695484 -45.839558 -67.46106 38.477955 -79.266571 -53.157181 0.052595802 72.272217
27606000000 -26.542944 -45.527134 -70.775475 -5.3986402 -79.442192 106.00711 0.053713486 72.13942
27607000000 -26.503403 -45.259148 -69.732285 59.198418 -74.933388 -155.66982 0.054100063 72.03788
27608000000 -26.268791 -44.655876 -71.958755 8.0940943 -80.926071 116.70181 0.049561616 71.903267
27609000000 -26.086557 -44.514042 -68.405441 68.200829 -75.709114 4.840847 0.051815949 71.817696
27610000000 -25.896189 -43.862511 -67.167709 34.902103 -75.836914 -31.947521 0.053980641 71.674438
27611000000 -25.740921 -43.023525 -71.342049 53.232994 -83.666328 -3.0713618 0.049315311 71.512939
27612000000 -25.545221 -42.56414 -72.538345 15.794044 -79.191078 71.138062 0.038458716 71.414253
27613000000 -25.315857 -42.248848 -69.678024 22.04549 -83.758926 86.814514 0.052326746 71.291206
27614000000 -25.045975 -42.123604 -68.841797 3.9512546 -77.238121 44.78714 0.044740453 71.158768
27615000000 -24.743418 -41.207489 -67.961334 8.3249292 -69.900391 -46.103416 0.048684016 71.052986
27616000000 -24.486275 -41.905033 -85.777245 11.484834 -78.478348 -12.948391 0.044170395 70.994232
27617000000 -24.275047 -41.650776 -67.255203 27.604315 -80.713211 -107.47198 0.047553323 70.856934
27618000000 -23.973297 -42.243214 -74.442558 72.279533 -73.127594 -73.815788 0.047732383 70.773621
27619000000 -23.731943 -42.152702 -68.072083 8.9208221 -84.283714 -129.00641 0.045177344 70.618591
27620000000 -23.5158 -42.75985 -67.34137 -6.1902876 -75.312897 151.87975 0.048529349 70.468178
27621000000 -23.211483 -43.284966 -73.176277 33.553261 -78.020081 53.922131 0.049264904 70.393166
27622000000 -22.961239 -43.91938 -68.296013 -9.1123524 -72.224403 -69.424591 0.043742638 70.278107
27623000000 -22.753633 -44.879711 -70.819412 25.753307 -88.039986 51.619949 0.041013956 70.088646
27624000000 -22.526222 -45.404877 -70.310867 -24.678129 -89.623039 -122.93364 0.03801344 70.054359
27625000000 -22.286764 -46.101467 -73.642136 13.547357 -85.74295 142.12604 0.041599728 69.91098
27626000000 -22.131598 -47.16943 -69.412682 -7.2640548 -73.235909 -123.84479 0.047713239 69.721169
27627000000 -21.937267 -48.023056 -70.187889 -4.6294761 -71.861633 172.04706 0.048789136 69.626945
27628000000 -21.746883 -49.151997 -72.611618 -78.561935 -83.371155 71.194099 0.042032152 69.531754
27629000000 -21.576038 -49.961575 -70.780632 -20.212029 -71.71936 -99.141823 0.039046429 69.456055
27630000000 -21.447317 -51.087292 -80.999336 -20.417818 -72.79229 -106.00892 0.044051819 69.275047
27631000000 -21.299349 -52.269714 -68.535522 -4.1517234 -76.284851 -34.693962 0.039569218 69.193703
27632000000 -21.185257 -53.234367 -73.982834 0.33622319 -77.103737 11.815706 0.036263995 69.051758
27633000000 -21.042179 -54.521221 -72.402443 28.284164 -75.587929 -65.334251 0.036948577 68.923409
27634000000 -20.96731 -55.711243 -67.306496 10.217235 -78.274384 26.433001 0.044891622 68.833702
27635000000 -20.802324 -56.844204 -70.782059 24.611845 -74.249176 53.153633 0.03507873 68.671402
27636000000 -20.708012 -58.156765 -65.364723 18.413366 -85.681 -98.904671 0.039089169 68.524422
27637000000 -20.662001 -59.029377 -71.953751 -14.466332 -78.440186 173.1899 0.042193729 68.44162
27638000000 -20.551464 -60.257587 -72.493454 -17.809446 -90.369308 147.97226 0.028725227 68.284615
27639000000 -20.485838 -61.330658 -66.619667 25.495596 -73.524796 29.137037 0.030125787 68.158844
27640000000 -20.417585 -62.795723 -70.333801 57.840343 -76.292999 162.26559 0.042524096 68.020447
27641000000 -20.373652 -63.746872 -70.68998 59.393932 -74.311195 -149.64752 0.03250825 67.844688
27642000000 -20.309704 -64.692955 -71.259361 -21.788031 -76.356552 -92.978119 0.026546124 67.784607
27643000000 -20.286222 -66.043663 -70.552307 47.62965 -74.74102 145.97809 0.027743934 67.656158
27644000000 -20.269571 -67.090462 -68.849922 13.544936 -70.315079 109.00951 0.022984931 67.459526
27645000000 -20.227249 -68.184837 -67.807678 -3.7111073 -74.464905 -143.32625 0.016717587 67.322128
27646000000 -20.189863 -69.212585 -68.327698 36.459892 -74.802002 -29.370674 0.023665302 67.197708
27647000000 -20.191896 -70.26384 -70.715462 37.838348 -75.638702 -101.51117 0.024291638 67.060966
27648000000 -20.166124 -71.38282 -71.211327 -20.733654 -78.006073 -175.09982 0.027530769 66.908638
27649000000 -20.166506 -72.220512 -64.905487 1.7372822 -71.484924 43.071762 0.01802896 66.78701
27650000000 -20.15905 -73.054367 -66.073265 -21.521717 -75.57795 -0.28010812 0.018511621 66.646156
27651000000 -20.165724 -74.469444 -66.507874 -0.031439442 -70.391998 70.462814 0.021386376 66.493538
27652000000 -20.156031 -75.316658 -67.757736 3.3746934 -74.803009 -30.523348 0.022157867 66.332794
27653000000 -20.182037 -76.166939 -66.739281 19.97438 -75.990952 -63.216858 0.0142086 66.191383
27654000000 -20.154097 -76.914948 -65.99601 9.3001852 -77.828819 -30.917749 0.0047234446 66.045944
27655000000 -20.175127 -78.072365 -70.435287 18.700808 -89.872986 138.14012 0.0047900798 65.900581
27656000000 -20.186121 -78.959686 -64.337242 13.653597 -89.667183 -32.864941 0.0031379489 65.707764
27657000000 -20.212566 -80.174416 -63.972992 -14.78826 -77.317764 -40.788464 0.010938118 65.577057
27658000000 -20.243885 -80.888084 -66.60466 -21.328352 -69.918915 15.234664 0.014114476 65.389618
27659000000 -20.26421 -81.608345 -69.797112 5.510313 -68.98539 50.386646 0.0023114656 65.265694
27660000000 -20.254757 -82.795975 -66.482201 -12.509297 -75.220367 83.577354 0.0050109262 65.11293
27661000000 -20.328415 -83.55703 -65.419174 -3.4931202 -86.573799 31.26413 0.011150323 64.94384
27662000000 -20.343271 -84.135414 -70.849815 -24.370016 -78.87886 -121.99744 0.0067401049 64.79068
27663000000 -20.379425 -85.460587 -72.031708 -7.3083477 -70.296181 -54.586689 0.0036076272 64.688202
27664000000 -20.429474 -86.303108 -68.265167 0.75764018 -76.860519 11.169833 0.0051656063 64.457489
27665000000 -20.452122 -86.870407 -68.906036 20.490437 -80.342285 149.00089 0.0019197583 64.274841
27666000000 -20.466957 -87.814629 -66.336281 11.17151 -75.31636 -137.97972 0.0061650435 64.17514
27667000000 -20.481916 -88.654808 -66.462379 8.8582544 -69.425934 -78.119499 0.0012003608 63.974201
27668000000 -20.518284 -89.728096 -70.628052 -3.7807736 -71.18985 41.055721 0.0017230106 63.838779
27669000000 -20.574631 -90.428955 -71.044853 -13.366776 -77.822609 -36.277336 0.0062881904 63.691185
27670000000 -20.625153 -91.362022 -66.867958 17.043018 -86.966423 -118.04374 0.00061867043 63.463406
27671000000 -20.636253 -92.481064 -64.727287 -1.5589095 -82.311882 48.61779 0.0018507313 63.339794
27672000000 -20.70093 -93.076599 -63.157837 -19.180414 -84.65834 40.864769 0.0061303638 63.152149
27673000000 -20.747057 -94.081474 -67.14975 -6.4117017 -77.026772 159.99358 0.0057231984 62.962448
27674000000 -20.790062 -95.26236 -68.095238 -25.928499 -73.17778 -68.553085 0.0015574214 62.824135
27675000000 -20.813068 -96.062546 -65.903931 -14.875899 -83.422302 38.502205 0.0030535467 62.628941
27676000000 -20.867592 -97.154594 -76.176369 7.3569751 -77.286148 133.42352 0.0033210928 62.469456
27677000000 -20.927391 -98.052162 -69.695366 8.6035757 -70.44648 63.709766 -0.0060949596 62.335995
27678000000 -21.003468 -99.158813 -69.914093 15.626194 -74.087692 -111.47705 -0.010271805 62.087173
27679000000 -21.032183 -100.4017 -66.516983 -9.0770531 -74.050255 -82.276566 -0.007521295 61.95908
27680000000 -21.080585 -101.10124 -63.890263 -16.588318 -76.138535 172.69559 -0.0036887503 61.710938
27681000000 -21.14547 -102.24628 -61.061531 -19.701191 -81.857376 59.610744 0.0038242058 61.586578
27682000000 -21.223927 -103.44164 -69.112091 2.8959291 -83.724983 -42.625538 -0.011726411 61.387711
27683000000 -21.27253 -104.19687 -64.898666 -1.4388121 -76.532051 50.553093 -0.013502752 61.206242
27684000000 -21.321226 -105.40928 -70.198471 -22.517439 -77.000175 132.39078 -0.0021226988 61.010159
27685000000 -21.417202 -106.66169 -65.60759 -10.512489 -76.749519 43.579185 -0.017775316 60.912884
27686000000 -21.3976 -107.96818 -62.657528 -14.485482 -97.219597 -143.28639 -0.016055916 60.655815
27687000000 -21.459673 -109.07703 -72.882881 -14.898753 -75.173691 -84.592636 -0.021839697 60.505684
27688000000 -21.594688 -110.30212 -68.321312 -42.582916 -83.158844 -40.636074 -0.027237497 60.329708
27689000000 -21.655088 -111.56052 -65.259956 -21.315634 -84.47963 -135.58078 -0.011337213 60.081596
27690000000 -21.695156 -112.98251 -68.518471 18.888844 -75.043724 58.666279 -0.0034393696 59.948414
27691000000 -21.773651 -113.99838 -66.090363 -31.182205 -77.03199 -145.3997 -0.016427716 59.711235
27692000000 -21.862196 -115.45885 -64.712051 -28.595766 -77.839005 55.510685 -0.022778912 59.530338
27693000000 -21.939619 -116.78626 -66.797295 -37.121761 -82.272118 88.214233 -0.0098813605 59.355217
27694000000 -22.027925 -118.03527 -63.08242 -32.922081 -77.603912 -52.070309 -0.015138781 59.167534
27695000000 -22.114763 -119.56656 -67.274872 -27.789196 -82.407814 -2.7983289 -0.01130151 58.909794
27696000000 -22.229723 -121.14222 -65.221886 0.53464502 -75.729279 -159.74135 -0.025921097 58.704861
27697000000 -22.276419 -122.48033 -65.829285 -41.551731 -79.628807 -121.17601 -0.027528837 58.550991
27698000000 -22.358191 -123.92702 -66.991676 -25.486803 -77.416512 133.64084 -0.024320669 58.348362
27699000000 -22.471821 -125.34203 -67.776077 -7.7846589 -74.037483 139.37434 -0.039648425 58.078663
