!Keysight Technologies,N5234A,MY55441357,A.10.47.05
!Date: Sunday, November 19, 2017 13:26:33
!Correction: S11(Full 2 Port(1,2)) 
!S21(Full 2 Port(1,2)) 
!S12(Full 2 Port(1,2)) 
!S22(Full 2 Port(1,2)) 
!S2P File: Measurements: S11, S21, S12, S22:
# Hz S  dB   R 50
27500000000 -34.35714 -96.220634 -36.899158 26.305323 -52.81123 134.70261 -0.20770805 -159.92001
27501000000 -35.129475 -94.474396 -36.769955 25.380358 -52.719181 138.71823 -0.20820302 -160.2693
27502000000 -35.839077 -91.675148 -36.663204 23.109459 -53.325565 132.77899 -0.21517326 -160.68912
27503000000 -36.530632 -87.986137 -36.427944 22.933565 -53.379116 134.66884 -0.22148794 -161.0748
27504000000 -37.763905 -84.346428 -36.366215 22.453779 -52.673801 134.07767 -0.21632551 -161.44057
27505000000 -38.619221 -78.25441 -36.290028 21.117266 -52.794289 132.38135 -0.21636364 -161.85921
27506000000 -39.452858 -70.854904 -36.020885 19.435501 -52.005436 131.17894 -0.22785789 -162.25099
27507000000 -40.333004 -62.893497 -35.919117 18.99432 -52.375126 133.69066 -0.22442035 -162.66931
27508000000 -41.058002 -52.194191 -35.713436 17.886684 -52.444092 132.61098 -0.22464104 -163.08171
27509000000 -40.908627 -41.09623 -35.672894 16.387386 -51.929874 125.27979 -0.22060001 -163.51128
27510000000 -40.621155 -27.915741 -35.386837 14.846615 -52.221481 125.70805 -0.240657 -163.93111
27511000000 -40.635662 -17.254032 -35.188274 15.282133 -52.1912 124.41673 -0.23257458 -164.39888
27512000000 -39.88385 -8.4863777 -35.189739 13.536765 -51.811218 122.12151 -0.23242894 -164.74615
27513000000 -38.690323 -1.5089655 -34.923634 11.449523 -51.223385 126.04173 -0.23779933 -165.22098
27514000000 -37.488792 5.0885563 -34.84071 11.12964 -51.223122 123.19852 -0.24646096 -165.68123
27515000000 -36.799984 9.3649368 -34.698471 10.149676 -49.798626 123.94766 -0.2389632 -166.06616
27516000000 -35.920456 12.825212 -34.513145 8.5275431 -50.781197 123.50531 -0.24268429 -166.54788
27517000000 -35.071598 15.239211 -34.375156 7.7162466 -50.511219 123.2351 -0.24672811 -167.04504
27518000000 -34.163948 16.452703 -34.225212 6.1073971 -50.557373 123.67801 -0.2444703 -167.49037
27519000000 -33.388657 18.84539 -34.008053 5.2872715 -50.587826 120.99474 -0.25615469 -167.91943
27520000000 -32.658035 19.441404 -33.912434 4.1917129 -50.090382 116.82018 -0.26368213 -168.39618
27521000000 -31.926203 20.160786 -33.722759 2.7121859 -50.24604 117.20306 -0.26905301 -168.87929
27522000000 -31.304216 20.820677 -33.528034 1.6040504 -50.079769 120.79904 -0.27290347 -169.37611
27523000000 -30.755917 21.319752 -33.35611 0.62453705 -49.810623 119.95162 -0.27574843 -169.87128
27524000000 -30.201403 22.052298 -33.186268 -0.38029167 -49.439285 115.80145 -0.28146487 -170.36002
27525000000 -29.692673 21.973881 -33.06646 -2.0084529 -49.744595 115.54881 -0.28434122 -170.85873
27526000000 -29.14786 22.04043 -32.948841 -3.451056 -48.702251 117.41542 -0.29011226 -171.37868
27527000000 -28.680618 22.530766 -32.670345 -4.5706086 -49.043953 117.69472 -0.28964353 -171.90924
27528000000 -28.243292 22.187151 -32.571495 -5.3240051 -49.157116 109.86044 -0.29309875 -172.44498
27529000000 -27.821156 20.786991 -32.427105 -6.7044892 -48.790165 108.60541 -0.30904749 -172.94208
27530000000 -27.36562 20.728163 -32.302792 -7.820394 -48.377399 107.44326 -0.30566049 -173.45419
27531000000 -26.987953 20.702993 -32.163639 -8.9295158 -48.309681 105.9892 -0.30666637 -174.02467
27532000000 -26.62179 20.803509 -31.996557 -10.714569 -48.177765 107.65479 -0.31175628 -174.59592
27533000000 -26.241827 20.388336 -31.798775 -11.616893 -48.347275 109.30363 -0.32522973 -175.19217
27534000000 -26.008083 19.380575 -31.582407 -13.034473 -47.857269 108.76687 -0.32333797 -175.71066
27535000000 -25.680267 18.562597 -31.457369 -14.228909 -47.820854 105.08759 -0.32824424 -176.29514
27536000000 -25.286938 18.033413 -31.327856 -15.393168 -47.751877 102.07671 -0.33476472 -176.8633
27537000000 -24.998844 17.686178 -31.207485 -16.71612 -47.851387 105.54562 -0.34599218 -177.44902
27538000000 -24.694059 17.141602 -31.067186 -17.91407 -47.475739 104.38089 -0.35256594 -178.04941
27539000000 -24.447565 16.309399 -30.890184 -19.221951 -47.063797 98.646515 -0.34920067 -178.68947
27540000000 -24.174019 15.887567 -30.7747 -20.263214 -47.445332 97.588387 -0.36502814 -179.2653
27541000000 -23.899704 15.021654 -30.675951 -22.287832 -47.192921 98.862038 -0.36160764 -179.92253
27542000000 -23.655661 14.278049 -30.46236 -23.373875 -46.456593 99.198624 -0.3740097 179.42305
27543000000 -23.437147 13.14926 -30.366817 -24.823732 -46.994785 97.953232 -0.37800741 178.814
27544000000 -23.193481 12.55397 -30.177065 -25.976742 -46.79454 95.637802 -0.38542697 178.18294
27545000000 -22.975716 11.961107 -30.053839 -27.134333 -46.529705 92.503479 -0.39642912 177.55139
27546000000 -22.749672 11.228888 -29.914259 -29.007339 -46.207039 92.767273 -0.40555644 176.84732
27547000000 -22.51622 10.223195 -29.769827 -29.936266 -45.963634 93.461899 -0.40851238 176.09474
27548000000 -22.323988 9.4499722 -29.625292 -31.747337 -46.101215 88.057022 -0.42088971 175.45145
27549000000 -22.105732 8.7632408 -29.518257 -32.94141 -45.733768 88.846252 -0.42602563 174.71521
27550000000 -21.909472 7.6192656 -29.365295 -34.110737 -45.50975 87.74575 -0.43740439 174.00159
27551000000 -21.749472 6.5605249 -29.265491 -35.373974 -45.693916 88.616989 -0.4466013 173.24808
27552000000 -21.586481 5.4465752 -29.144558 -37.121449 -45.422283 85.291023 -0.45460051 172.52028
27553000000 -21.401028 4.5853696 -28.984526 -38.465969 -45.413601 85.649818 -0.46780211 171.75421
27554000000 -21.236893 3.8201454 -28.869787 -39.907894 -45.192719 82.958832 -0.46930721 171.00063
27555000000 -21.048468 2.8680613 -28.762249 -41.478424 -45.150276 82.575859 -0.48462611 170.19173
27556000000 -20.890635 1.696018 -28.667816 -42.98563 -45.236134 83.26976 -0.49557871 169.38559
27557000000 -20.732264 0.62532347 -28.574371 -43.870071 -44.965828 79.982353 -0.50745213 168.5407
27558000000 -20.564486 -0.4855383 -28.522509 -45.401474 -45.115211 78.006485 -0.51580882 167.66957
27559000000 -20.435671 -1.5804614 -28.383781 -46.676609 -44.844707 77.448792 -0.53998983 166.80229
27560000000 -20.298088 -2.6624265 -28.296982 -48.263451 -44.9529 78.667763 -0.54774314 165.93729
27561000000 -20.134659 -3.5486178 -28.247549 -49.579491 -44.705494 75.866638 -0.56955999 165.05981
27562000000 -20.021816 -4.8189859 -28.160398 -50.993465 -44.504311 75.647339 -0.58149576 164.13641
27563000000 -19.920155 -5.9596086 -28.188488 -52.127007 -44.365986 72.37014 -0.59220827 163.18848
27564000000 -19.794983 -7.3143711 -28.142462 -53.632538 -44.420486 73.526863 -0.61396492 162.25676
27565000000 -19.68133 -8.2597494 -28.117487 -54.995171 -44.285175 72.18615 -0.63145834 161.2012
27566000000 -19.55401 -9.5985508 -28.136492 -55.974018 -44.438957 71.719887 -0.65503448 160.1555
27567000000 -19.43701 -11.085699 -28.135668 -57.052525 -44.345165 70.351227 -0.66922271 159.1353
27568000000 -19.333391 -12.213694 -28.146925 -58.39357 -44.605179 68.41066 -0.70111167 158.04527
27569000000 -19.241028 -13.614615 -28.201124 -59.411652 -44.581974 66.239983 -0.7169829 156.95697
27570000000 -19.123808 -14.989195 -28.271755 -59.998684 -44.878273 66.356781 -0.73918229 155.80913
27571000000 -19.000753 -16.254026 -28.350201 -61.245434 -44.647995 65.056274 -0.77878261 154.58121
27572000000 -18.954397 -17.640902 -28.518951 -61.758579 -44.998585 65.671135 -0.80881929 153.34396
27573000000 -18.889259 -19.172527 -28.631763 -62.016273 -45.291862 65.854752 -0.83670801 152.05121
27574000000 -18.796257 -20.811134 -28.882025 -62.049286 -45.27626 65.551636 -0.86968827 150.76579
27575000000 -18.750744 -22.262384 -29.068254 -61.581825 -45.406464 67.710304 -0.91939783 149.36433
27576000000 -18.687609 -23.769072 -29.362827 -60.903767 -45.439194 67.695396 -0.95352769 147.94562
27577000000 -18.614527 -25.356897 -29.590147 -59.182217 -45.966164 70.771255 -1.0005624 146.5015
27578000000 -18.531008 -26.950611 -29.836113 -56.48119 -46.484455 72.319435 -1.0657755 144.9472
27579000000 -18.499695 -28.630289 -30.023207 -53.222679 -46.565464 77.654182 -1.1075556 143.34177
27580000000 -18.435211 -30.215269 -30.263084 -48.634483 -47.126972 83.51088 -1.1702354 141.69131
27581000000 -18.419167 -31.863348 -30.331636 -42.892231 -46.575409 87.684334 -1.2498808 139.88351
27582000000 -18.405115 -33.821941 -30.181253 -35.421055 -46.476078 95.05912 -1.3218147 138.03633
27583000000 -18.363029 -35.737823 -29.622673 -28.643854 -46.215469 103.28108 -1.4187332 136.09047
27584000000 -18.342506 -37.461613 -28.791533 -21.29933 -45.30341 109.79134 -1.5245695 134.03482
27585000000 -18.374649 -39.410202 -27.755234 -15.661013 -44.601337 114.21346 -1.6460813 131.8656
27586000000 -18.387999 -41.478226 -26.399059 -11.15394 -42.96093 118.16677 -1.7798821 129.54968
27587000000 -18.425463 -43.51886 -24.993765 -8.2630692 -41.468029 123.60401 -1.9431725 127.14202
27588000000 -18.461557 -45.499504 -23.563396 -6.5619054 -39.873882 125.96155 -2.1340952 124.57684
27589000000 -18.536009 -47.637383 -22.110006 -6.5373416 -38.546253 125.09694 -2.3559949 121.91773
27590000000 -18.61569 -49.567341 -20.687376 -7.5514741 -37.04747 125.36443 -2.6158807 119.15891
27591000000 -18.708094 -51.713425 -19.316414 -9.5204382 -35.775211 122.33949 -2.9263783 116.20424
27592000000 -18.845131 -53.556885 -18.005133 -12.423094 -34.490112 119.60316 -3.3041539 113.1216
27593000000 -19.067566 -55.36974 -16.758219 -16.10186 -33.225155 116.937 -3.7449379 109.96793
27594000000 -19.289055 -57.104561 -15.567986 -20.290865 -32.053432 113.13459 -4.2695813 106.87172
27595000000 -19.488373 -58.659237 -14.482759 -25.042355 -30.887047 107.98336 -4.8904033 103.77956
27596000000 -19.717871 -60.013554 -13.471254 -30.402988 -29.938921 103.24042 -5.6393747 100.88046
27597000000 -19.957773 -61.124554 -12.546662 -36.248146 -28.972672 97.72776 -6.5167866 98.36718
27598000000 -20.207565 -62.036907 -11.694993 -42.239262 -28.14653 91.724121 -7.5434008 96.41748
27599000000 -20.450336 -62.341499 -10.962833 -48.724407 -27.407057 85.398582 -8.7187672 95.548363
27600000000 -20.61482 -62.581875 -10.284424 -55.006489 -26.740139 79.425758 -10.029736 96.092987
27601000000 -20.777876 -62.725548 -9.7279673 -61.543453 -26.163719 72.955208 -11.447002 98.754189
27602000000 -20.914478 -62.55484 -9.2365637 -68.035316 -25.649817 66.857246 -12.848274 104.12561
27603000000 -20.994202 -62.642754 -8.8278379 -74.427345 -25.312311 60.610115 -14.043754 112.61886
27604000000 -21.036955 -62.506618 -8.5013323 -80.713432 -24.959009 54.379971 -14.733924 123.59332
27605000000 -21.038792 -62.733849 -8.21031 -86.755722 -24.644407 48.500599 -14.783015 134.95551
27606000000 -21.058411 -62.949833 -7.9671311 -92.632591 -24.407028 43.26178 -14.305287 144.31369
27607000000 -21.057121 -63.434166 -7.7712545 -98.28566 -24.208385 37.790558 -13.57708 151.05426
27608000000 -21.055702 -64.206924 -7.6044216 -103.73637 -24.045843 32.60957 -12.781598 155.521
27609000000 -21.047728 -65.115242 -7.4623413 -108.92957 -23.94005 27.471674 -12.034603 158.18175
27610000000 -21.066004 -65.97467 -7.3711891 -113.97779 -23.806746 22.666952 -11.37187 159.66151
27611000000 -21.103727 -66.992638 -7.2638316 -118.87465 -23.698677 18.136614 -10.793337 160.29288
27612000000 -21.145861 -68.131363 -7.1877699 -123.58648 -23.655773 13.653584 -10.30395 160.4236
27613000000 -21.14156 -69.412163 -7.1113687 -128.1291 -23.575405 9.2170238 -9.8687792 160.17453
27614000000 -21.24782 -70.548622 -7.0526314 -132.55618 -23.518181 5.0899711 -9.5012875 159.74408
27615000000 -21.29508 -71.525734 -6.9999633 -136.77618 -23.438223 1.1786773 -9.1822786 159.162
27616000000 -21.406597 -72.728165 -6.9455452 -140.96809 -23.430292 -2.9657154 -8.9023457 158.32123
27617000000 -21.578697 -73.897087 -6.9123969 -145.02473 -23.372696 -6.7254314 -8.6613674 157.45331
27618000000 -21.664175 -74.943161 -6.8673973 -149.04451 -23.296125 -10.426773 -8.4605703 156.62317
27619000000 -21.794714 -75.960938 -6.8425083 -152.92897 -23.282148 -13.980726 -8.2728786 155.73514
27620000000 -21.965593 -76.680565 -6.8079472 -156.76759 -23.297041 -17.556458 -8.1178284 154.82423
27621000000 -22.137672 -77.566208 -6.7777209 -160.4102 -23.238447 -21.244085 -7.9644136 153.78156
27622000000 -22.326769 -78.615944 -6.7626848 -164.12532 -23.207569 -24.587603 -7.8242369 152.81163
27623000000 -22.471045 -79.184479 -6.7295923 -167.74011 -23.209198 -27.994101 -7.712368 151.80739
27624000000 -22.729137 -79.670509 -6.7120714 -171.23701 -23.175087 -31.172899 -7.5949178 150.92162
27625000000 -22.898893 -79.916145 -6.686491 -174.7565 -23.161432 -34.396595 -7.4990354 149.88065
27626000000 -23.156946 -80.406021 -6.6839504 -178.13013 -23.129276 -37.64307 -7.40484 148.83432
27627000000 -23.384586 -80.404663 -6.6650338 178.43068 -23.14809 -40.745564 -7.3148685 147.78291
27628000000 -23.591051 -80.543678 -6.6721239 175.14825 -23.153074 -43.810928 -7.2373366 146.72055
27629000000 -23.774231 -80.60862 -6.6565795 171.87708 -23.1413 -46.661209 -7.1590705 145.61913
27630000000 -24.019258 -80.583977 -6.6432576 168.63437 -23.110609 -49.919735 -7.0883775 144.57794
27631000000 -24.201874 -79.975845 -6.6418519 165.44319 -23.112188 -52.681377 -7.0153561 143.50473
27632000000 -24.375048 -79.263863 -6.633719 162.28268 -23.111662 -55.786579 -6.9403567 142.33913
27633000000 -24.507908 -78.721436 -6.6321669 159.15427 -23.110273 -58.689495 -6.8786454 141.11842
27634000000 -24.648262 -77.733871 -6.6322255 156.08849 -23.105221 -61.560238 -6.8305535 139.85892
27635000000 -24.777563 -77.130241 -6.6293206 153.06795 -23.092548 -64.357635 -6.7755923 138.63075
27636000000 -24.924187 -76.031281 -6.6270275 150.09938 -23.100096 -67.046539 -6.721971 137.37706
27637000000 -25.075092 -75.037819 -6.6281514 147.13042 -23.110058 -69.719864 -6.6707559 136.10355
27638000000 -25.240646 -74.241463 -6.6276383 144.15794 -23.092161 -72.231895 -6.6079602 134.80188
27639000000 -25.307133 -73.262276 -6.6371899 141.23772 -23.101936 -75.139618 -6.5751748 133.42162
27640000000 -25.317842 -72.07386 -6.6382022 138.34953 -23.127018 -77.748299 -6.5342245 132.01799
27641000000 -25.329134 -71.064491 -6.6384287 135.50801 -23.125641 -80.180557 -6.4830165 130.53456
27642000000 -25.329508 -69.877098 -6.6404824 132.6734 -23.12431 -82.919739 -6.4555893 129.09879
27643000000 -25.295067 -68.669579 -6.6409106 129.90443 -23.102079 -85.672569 -6.4167404 127.63804
27644000000 -25.320175 -68.08139 -6.6432486 127.14147 -23.128847 -88.031036 -6.3852339 126.12664
27645000000 -25.281443 -66.782379 -6.6383815 124.38274 -23.100832 -90.387497 -6.352005 124.53327
27646000000 -25.19396 -65.929535 -6.6545129 121.68156 -23.110863 -93.068672 -6.3272042 122.95936
27647000000 -25.128979 -65.004478 -6.6540875 118.97685 -23.121992 -95.380371 -6.307518 121.38854
27648000000 -25.024899 -64.060303 -6.658803 116.29556 -23.137688 -97.943222 -6.2917075 119.70102
27649000000 -24.947309 -63.452129 -6.6638222 113.60989 -23.147306 -100.34605 -6.2612262 117.97286
27650000000 -24.861504 -63.165154 -6.6632247 110.97735 -23.140331 -102.77639 -6.2395511 116.33389
27651000000 -24.698929 -62.946732 -6.6653223 108.35061 -23.168928 -105.13993 -6.2336297 114.58701
27652000000 -24.567686 -62.525753 -6.6679564 105.75286 -23.179876 -107.45046 -6.2132869 112.84978
27653000000 -24.524591 -61.942638 -6.6567707 103.12762 -23.182135 -109.70309 -6.2045598 111.09006
27654000000 -24.414936 -61.459717 -6.6743917 100.61163 -23.156258 -112.09058 -6.1862493 109.29763
27655000000 -24.26722 -61.25983 -6.6739631 97.984856 -23.177256 -114.31756 -6.1921849 107.47189
27656000000 -24.093752 -61.373013 -6.6667199 95.440987 -23.138651 -116.96085 -6.1778164 105.59622
27657000000 -23.98802 -61.622562 -6.6618452 92.893494 -23.15147 -119.07386 -6.1655097 103.68175
27658000000 -23.924406 -62.094814 -6.6601043 90.411629 -23.170988 -121.3924 -6.166831 101.79737
27659000000 -23.842592 -62.095375 -6.6759481 87.874489 -23.20084 -123.51116 -6.159586 99.879234
27660000000 -23.737162 -61.924858 -6.6659346 85.402641 -23.189869 -125.79244 -6.1666389 97.960381
27661000000 -23.624716 -61.951996 -6.6682906 82.924583 -23.178583 -128.23732 -6.1550212 95.919678
27662000000 -23.483601 -62.279373 -6.6652465 80.436111 -23.169285 -130.40863 -6.1698046 93.932007
27663000000 -23.338074 -62.722195 -6.6694846 77.946663 -23.158356 -132.53123 -6.1707888 91.92543
27664000000 -23.266487 -63.117435 -6.6675029 75.504349 -23.169708 -134.69139 -6.1762252 89.793983
27665000000 -23.224514 -63.860371 -6.6627259 73.066597 -23.166874 -137.09929 -6.1790452 87.742836
27666000000 -23.122255 -64.118195 -6.6706762 70.631638 -23.156561 -139.13084 -6.1984835 85.666458
27667000000 -23.01907 -64.768509 -6.666769 68.145912 -23.177 -141.32002 -6.197166 83.519272
27668000000 -22.926962 -65.294861 -6.6663971 65.737503 -23.177254 -143.50647 -6.2061539 81.415695
27669000000 -22.842379 -65.861465 -6.6691098 63.36702 -23.179886 -145.6291 -6.2114911 79.29435
27670000000 -22.764137 -66.514412 -6.6562562 60.929352 -23.163057 -147.79462 -6.2208185 77.156273
27671000000 -22.721899 -67.364876 -6.648632 58.510414 -23.165352 -149.85602 -6.2302184 74.916306
27672000000 -22.673883 -67.954262 -6.6593018 56.121861 -23.161922 -152.02827 -6.2357073 72.704262
27673000000 -22.618046 -68.785446 -6.641418 53.732632 -23.166842 -154.27322 -6.2386937 70.469711
27674000000 -22.574507 -69.383484 -6.6472797 51.374477 -23.182753 -156.30038 -6.2519894 68.247177
27675000000 -22.50297 -70.134491 -6.6454849 48.95472 -23.167173 -158.43188 -6.2573433 65.961845
27676000000 -22.487764 -71.013443 -6.6363573 46.596119 -23.14937 -160.61003 -6.2693024 63.707462
27677000000 -22.418257 -71.662453 -6.6430039 44.218441 -23.167336 -162.78804 -6.2779474 61.43932
27678000000 -22.33095 -72.659607 -6.6352725 41.827065 -23.155773 -164.87436 -6.2839651 59.131771
27679000000 -22.325754 -73.704475 -6.6396365 39.509228 -23.157993 -167.01135 -6.2843418 56.851631
27680000000 -22.256357 -74.57473 -6.6303644 37.136559 -23.157501 -169.13445 -6.3072796 54.518951
27681000000 -22.254519 -75.357018 -6.6343203 34.732372 -23.151669 -171.22586 -6.3027372 52.230862
27682000000 -22.251125 -76.135345 -6.6361775 32.399887 -23.122766 -173.48151 -6.303647 49.885201
27683000000 -22.207308 -77.295624 -6.6293855 30.052166 -23.128283 -175.54218 -6.3088207 47.583572
27684000000 -22.220535 -78.231567 -6.6210322 27.723427 -23.147728 -177.64375 -6.3084302 45.30019
27685000000 -22.192354 -79.193588 -6.6161227 25.433195 -23.156427 -179.69374 -6.3049841 42.99353
27686000000 -22.136679 -80.063309 -6.624958 23.116194 -23.139231 178.245 -6.3205209 40.65881
27687000000 -22.116732 -81.256844 -6.6241956 20.795864 -23.133448 176.146 -6.310699 38.302292
27688000000 -22.135012 -82.35569 -6.6212668 18.450817 -23.144358 174.18263 -6.3077407 35.990894
27689000000 -22.119907 -83.3787 -6.6178503 16.14176 -23.165051 171.97615 -6.3092694 33.683872
27690000000 -22.084379 -84.433983 -6.6108069 13.859879 -23.132021 169.98161 -6.3136101 31.380983
27691000000 -22.100521 -85.423592 -6.6125402 11.531768 -23.145422 168.10043 -6.3037448 29.071758
27692000000 -22.095291 -86.790077 -6.6147642 9.1938286 -23.140017 166.0126 -6.2898374 26.753738
27693000000 -22.067604 -88.066551 -6.6158075 6.8897705 -23.15251 164.0451 -6.2951279 24.497789
27694000000 -22.053341 -88.866028 -6.6137252 4.5740075 -23.15877 161.84825 -6.284586 22.241814
27695000000 -22.054565 -90.08474 -6.6118698 2.2776124 -23.150183 159.79329 -6.2699962 19.947777
27696000000 -22.070229 -91.422012 -6.6144161 -0.016586188 -23.135801 157.62151 -6.258718 17.670971
27697000000 -22.07497 -92.566849 -6.6246595 -2.3226273 -23.157761 155.73744 -6.2613153 15.479361
27698000000 -22.075649 -93.877174 -6.6177177 -4.5764108 -23.126503 153.59673 -6.2466183 13.228698
27699000000 -22.076267 -95.218849 -6.6223402 -6.7807498 -23.180742 151.67767 -6.2383618 10.96869
27700000000 -22.05934 -96.307358 -6.6211424 -9.0459576 -23.175459 149.79793 -6.2333536 8.8332825
27701000000 -22.018669 -97.569466 -6.6212339 -11.342586 -23.150305 147.69618 -6.2236676 6.6399393
