!Keysight Technologies,N5234A,MY55441357,A.10.47.05
!Date: Sunday, November 19, 2017 13:24:54
!Correction: S11(Full 2 Port(1,2)) 
!S21(Full 2 Port(1,2)) 
!S12(Full 2 Port(1,2)) 
!S22(Full 2 Port(1,2)) 
!S2P File: Measurements: S11, S21, S12, S22:
# Hz S  dB   R 50
27500000000 -36.219872 -83.214798 -73.021393 -31.820793 -77.856552 -159.88863 -0.016765215 -116.36572
27501000000 -37.098038 -78.964272 -79.168716 173.1044 -74.054115 -137.99092 -0.0068768095 -116.45025
27502000000 -37.909924 -73.598351 -75.087379 90.545357 -77.253494 -61.514507 -0.018322412 -116.54207
27503000000 -38.555504 -66.018234 -82.671783 150.6445 -83.705406 -34.767002 -0.0096967518 -116.63735
27504000000 -39.204468 -58.067993 -73.712723 90.595306 -86.272163 172.35023 -0.0052213981 -116.7104
27505000000 -39.511787 -48.387554 -77.244888 49.170963 -79.282562 112.12253 -0.010984739 -116.80608
27506000000 -39.673893 -37.174454 -81.501625 120.40401 -77.769211 -26.486876 -0.012303697 -116.89122
27507000000 -39.568371 -26.930553 -84.492699 55.370964 -81.055328 101.20896 -0.011383331 -116.99252
27508000000 -39.163738 -17.713339 -76.261292 2.4126174 -74.15921 127.39717 -0.008953358 -117.09618
27509000000 -38.438953 -10.28042 -78.402374 -14.325006 -88.043915 -78.005905 -0.0054518599 -117.15515
27510000000 -37.468643 -3.0346162 -77.843552 101.17205 -74.635994 138.64027 -0.011397939 -117.21785
27511000000 -36.807281 3.4855838 -70.092697 51.881557 -73.154808 141.53972 -0.010299397 -117.35568
27512000000 -36.070732 6.4577003 -81.775017 -24.579952 -86.000458 133.91771 0.00057596789 -117.40701
27513000000 -35.166401 10.762972 -71.691589 19.002813 -73.813599 3.1567366 -0.0071901539 -117.51003
27514000000 -34.348362 13.097115 -82.290642 79.88372 -69.036324 150.21944 -0.004944839 -117.61269
27515000000 -33.615364 14.848228 -83.422966 -30.415232 -72.591751 148.42661 -0.0021124899 -117.68369
27516000000 -32.846901 17.77281 -73.054436 115.85135 -99.986282 -19.309851 0.00040733823 -117.76402
27517000000 -32.28392 18.052732 -72.755157 90.906197 -76.199791 67.378311 0.0037349092 -117.8569
27518000000 -31.565353 18.940142 -80.645226 62.541229 -78.299538 -177.0347 0.0041546333 -117.91021
27519000000 -30.918594 20.114174 -78.892273 -53.091301 -75.155273 -65.537773 0.0048150676 -118.01887
27520000000 -30.423222 20.270666 -72.719872 31.907871 -71.089546 -133.82182 -0.009609608 -118.10818
27521000000 -29.87215 21.131159 -70.459167 21.353039 -84.258423 159.91093 -0.0076810485 -118.19931
27522000000 -29.303501 21.075027 -73.135735 8.666934 -77.917503 -169.69305 -0.0051018214 -118.26851
27523000000 -28.821083 21.661201 -90.614067 -47.182774 -88.317947 54.650803 -0.0081886761 -118.3771
27524000000 -28.418295 21.343985 -75.557358 -2.1896324 -83.948189 -58.101162 -0.0079450794 -118.47235
27525000000 -27.96488 21.441872 -84.276207 48.23275 -78.173409 177.86035 -0.013582212 -118.51772
27526000000 -27.557434 21.235624 -67.904831 47.318043 -71.555138 166.55135 -0.0061079971 -118.69257
27527000000 -27.166275 21.279242 -80.9534 82.831314 -89.950134 29.100208 -0.0054667448 -118.74956
27528000000 -26.757353 21.236118 -81.093857 154.78838 -71.375336 104.41792 -0.0072776456 -118.8681
27529000000 -26.415539 19.830057 -70.489273 78.971619 -76.072021 81.416779 -0.0079442551 -118.90078
27530000000 -25.995314 19.885281 -69.388519 34.728504 -85.954338 103.98126 -0.014100654 -119.01813
27531000000 -25.680376 19.376604 -67.096375 39.071255 -74.691643 26.363739 -0.012064432 -119.15836
27532000000 -25.37664 19.091326 -73.785217 28.040602 -73.259651 111.50052 -0.011704331 -119.28206
27533000000 -25.060699 18.440334 -71.888489 15.52334 -73.168732 -164.577 -0.0093906913 -119.33391
27534000000 -24.844637 17.701378 -75.682312 14.72786 -83.258003 98.164276 -0.012972931 -119.39491
27535000000 -24.572676 16.731918 -70.713028 129.01019 -77.72583 -119.20309 -0.011519291 -119.454
27536000000 -24.249811 16.132759 -68.687614 117.00076 -76.986031 -81.391068 -0.015930029 -119.54601
27537000000 -24.008932 15.678116 -79.157906 143.91821 -82.182396 72.827164 -0.017467162 -119.62346
27538000000 -23.72946 15.218169 -77.255783 104.36491 -72.382317 82.61615 -0.0098723555 -119.74916
27539000000 -23.508284 14.606872 -74.719894 1.1156708 -71.635551 -58.725067 -0.0076739993 -119.88129
27540000000 -23.240786 13.872905 -76.75177 40.683739 -76.350334 25.910158 -0.0099005941 -119.93051
27541000000 -23.016491 13.196353 -70.638115 70.434814 -78.207245 -141.23045 -0.012083686 -120.02433
27542000000 -22.82909 11.974164 -67.654152 27.068043 -71.006172 -174.83957 -0.014584252 -120.11339
27543000000 -22.597187 11.212656 -74.828392 1.9527723 -76.721565 74.719292 -0.01366751 -120.2304
27544000000 -22.398207 10.450381 -72.72554 17.963228 -85.16848 72.767838 -0.021897951 -120.31183
27545000000 -22.20579 9.5978584 -71.605537 43.261253 -75.068596 91.211136 -0.016458182 -120.40662
27546000000 -22.031687 8.8089657 -73.924675 -28.365749 -79.495979 -100.66845 -0.013978276 -120.49706
27547000000 -21.792526 7.9626851 -73.100121 3.414721 -88.608505 34.845161 -0.022320338 -120.62749
27548000000 -21.626062 7.178874 -80.251373 46.457527 -91.593979 18.554842 -0.011543949 -120.71229
27549000000 -21.46846 6.1613684 -69.869858 28.489019 -71.803452 18.705948 -0.010956678 -120.75626
27550000000 -21.261568 5.1713176 -84.570702 -20.979345 -74.299011 -8.6729841 -0.025248609 -120.84856
27551000000 -21.114325 4.0424862 -74.441864 53.832699 -74.541389 55.078812 -0.019951731 -120.97028
27552000000 -20.999634 2.9400556 -68.395805 44.377068 -74.000908 39.125607 -0.02158921 -121.04747
27553000000 -20.861954 2.0497344 -71.499863 54.557648 -79.575989 163.29671 -0.01416 -121.16418
27554000000 -20.681419 1.178944 -74.350937 26.223349 -86.487976 42.537628 -0.019746691 -121.26994
27555000000 -20.509134 0.04565179 -71.124924 -7.678555 -80.656334 162.26018 -0.014197937 -121.34306
27556000000 -20.388184 -1.1959219 -72.966492 67.164246 -79.743546 53.395378 -0.014781187 -121.44037
27557000000 -20.240812 -2.3253546 -79.874107 55.701942 -86.699028 -92.427628 -0.010153606 -121.55926
27558000000 -20.08473 -3.153513 -72.396217 9.5485144 -81.570724 90.584137 -0.015074598 -121.6613
27559000000 -19.976208 -4.3447948 -81.410522 69.531303 -80.473183 42.503513 -0.021299852 -121.7535
27560000000 -19.843733 -5.5646758 -68.407822 35.051693 -74.665833 -40.57626 -0.015247488 -121.84151
27561000000 -19.710148 -6.7265015 -67.842056 36.979778 -81.063858 -19.425371 -0.010380714 -121.90769
27562000000 -19.601254 -7.802495 -67.849915 -5.2510128 -77.835159 -101.57832 -0.014861646 -122.0342
27563000000 -19.504416 -9.004425 -72.050766 -21.162462 -80.232155 142.84204 -0.01103012 -122.11242
27564000000 -19.420687 -10.365756 -71.137482 62.049393 -92.133652 -8.398921 -0.0071826386 -122.19684
27565000000 -19.307245 -11.376154 -78.082077 -35.224705 -77.557182 166.43706 -0.0049448949 -122.30251
27566000000 -19.206268 -12.793056 -68.901237 -15.652664 -82.851318 125.06824 -0.0013097704 -122.40329
27567000000 -19.094599 -14.350726 -71.265381 2.3782532 -88.308006 28.420464 -0.0053108111 -122.49996
27568000000 -19.008211 -15.530908 -70.308594 47.202557 -85.054886 -78.888512 -0.015877424 -122.56181
27569000000 -18.934423 -17.020473 -81.366333 20.45742 -75.583199 -16.910351 -0.010343401 -122.67316
27570000000 -18.852816 -18.541948 -71.019432 22.596199 -75.966675 53.337639 0.00069187727 -122.79498
27571000000 -18.749649 -19.669491 -75.024216 54.355541 -84.805382 -137.93153 -0.0074087586 -122.89564
27572000000 -18.685917 -21.034002 -67.0839 70.442177 -76.352661 117.20354 -0.012283556 -122.98322
27573000000 -18.614481 -22.730959 -75.76786 64.998016 -78.354492 -13.457054 -0.0040070973 -123.08528
27574000000 -18.556503 -24.315443 -83.747772 -30.919228 -77.204857 24.304857 0.0045154295 -123.14402
27575000000 -18.530434 -25.706614 -73.456123 -23.815895 -71.235352 -3.1428623 -0.0050763995 -123.21338
27576000000 -18.473539 -27.408066 -71.334526 -10.688425 -82.668571 -117.6243 0.0043402994 -123.31667
27577000000 -18.405817 -28.999775 -75.857903 3.0948107 -93.005089 1.3834093 -0.0027800605 -123.38548
27578000000 -18.360577 -30.490978 -76.649193 67.501953 -78.017509 -133.46042 -0.0077333702 -123.50275
27579000000 -18.317192 -32.183235 -71.368683 1.8969235 -84.754044 -132.43423 0.0016278231 -123.57775
27580000000 -18.271091 -33.813751 -64.741463 11.486157 -77.161911 71.03051 0.0053442209 -123.63932
27581000000 -18.250746 -35.474354 -70.856071 68.072258 -91.621758 -87.295876 -0.0013974165 -123.76469
27582000000 -18.268803 -37.322147 -75.618423 11.019803 -74.036125 -32.675858 0.0038138949 -123.84367
27583000000 -18.25605 -39.200333 -76.481224 61.688869 -78.068016 -13.966022 -0.0020831104 -123.89581
27584000000 -18.231533 -40.91872 -72.202126 6.1169615 -72.253502 133.78777 -0.0012879713 -124.04713
27585000000 -18.27191 -43.027912 -70.332344 17.016146 -81.245461 94.428078 0.0070088762 -124.16515
27586000000 -18.270992 -44.863277 -67.524796 -15.117185 -75.448357 -15.407611 0.0035653561 -124.21346
27587000000 -18.333126 -46.760548 -79.197601 -5.9108686 -74.302559 -94.764236 0.0014081816 -124.27866
27588000000 -18.397308 -48.718243 -70.600815 12.156878 -88.543678 -115.83514 -0.00024563965 -124.37315
27589000000 -18.463411 -50.678757 -77.206802 35.445095 -74.406822 -93.558998 -0.0021863319 -124.47846
27590000000 -18.550421 -52.700485 -67.064308 9.0041723 -79.477432 -75.599838 0.0079792198 -124.5411
27591000000 -18.646635 -54.617199 -78.282349 58.579548 -81.467827 163.20239 -0.0027055377 -124.62283
27592000000 -18.78698 -56.342659 -72.735168 -23.245367 -86.468407 -111.4701 -0.0017098971 -124.77521
27593000000 -18.978252 -58.082645 -68.810028 -13.578162 -76.621498 -90.11026 0.0025606379 -124.8225
27594000000 -19.183239 -59.613503 -72.376846 -1.8449011 -74.957642 12.435692 0.0064045875 -124.87848
27595000000 -19.363749 -61.048599 -70.681129 0.96787995 -91.37632 65.146362 0.0024914409 -124.95774
27596000000 -19.569326 -62.132355 -68.726288 -21.301884 -73.093918 -127.5284 -0.0052586445 -125.04447
27597000000 -19.796806 -63.127743 -67.452164 20.666571 -77.130371 120.8091 -0.0085307481 -125.15628
27598000000 -19.985411 -63.942101 -73.459709 16.374298 -73.636726 -149.83112 -0.0067837387 -125.23806
27599000000 -20.195351 -64.314629 -80.500862 -39.290257 -72.048302 -139.05557 -0.0093116267 -125.32451
27600000000 -20.306746 -64.983803 -71.726624 -0.49323288 -77.639023 -97.080582 -0.0081815142 -125.42585
27601000000 -20.438793 -65.279587 -67.479767 -36.050941 -77.859642 -38.937809 -0.0077996571 -125.51563
27602000000 -20.564173 -65.534546 -66.674492 -19.343513 -82.093544 153.89758 -0.0043977457 -125.62473
27603000000 -20.642473 -66.026321 -67.298752 -29.935974 -77.786079 92.325645 -0.0092833759 -125.6933
27604000000 -20.701252 -66.418221 -71.401657 15.082643 -76.686813 170.69913 -0.015800154 -125.81696
27605000000 -20.753904 -66.88932 -70.412575 -17.469772 -76.850929 -12.245016 -0.010569161 -125.92659
27606000000 -20.811302 -67.224922 -67.575966 4.0646505 -78.935989 -136.61784 -0.0088622468 -126.0009
27607000000 -20.884766 -67.953392 -67.711792 -7.285687 -87.562035 -4.5995016 -0.0070092604 -126.12342
27608000000 -20.955666 -68.934868 -73.018524 15.773316 -71.14222 -61.553673 -0.0080751702 -126.1965
27609000000 -21.034264 -69.87661 -82.430489 -36.4571 -75.777885 26.398666 -0.014643325 -126.27542
27610000000 -21.111172 -70.567818 -72.18425 -23.399118 -73.139908 104.33797 -0.016800446 -126.36463
27611000000 -21.202328 -71.291939 -76.652603 9.7876701 -73.252739 106.70383 -0.018098136 -126.48146
27612000000 -21.320126 -72.484413 -70.352867 -25.138695 -77.277321 -87.665215 -0.013231557 -126.61432
27613000000 -21.384892 -73.643356 -72.665527 -49.120884 -87.407028 48.686649 -0.014979254 -126.69371
27614000000 -21.524031 -74.173561 -70.382385 -13.102419 -83.547684 -132.96114 -0.013928796 -126.77871
27615000000 -21.652153 -74.945671 -79.914642 -15.923507 -72.958878 -153.7899 -0.0092608389 -126.85249
27616000000 -21.753412 -75.58741 -87.282906 146.86897 -78.031975 -129.23773 -0.016718967 -126.9439
27617000000 -21.975573 -76.33873 -71.946861 -32.344044 -71.447083 -29.293732 -0.012883727 -127.08247
27618000000 -22.119694 -76.869438 -76.716637 -29.249065 -75.156448 -24.286285 -0.020497989 -127.15991
27619000000 -22.252558 -77.223648 -76.379494 -149.15604 -69.878403 -67.105568 -0.021924902 -127.21206
27620000000 -22.47312 -77.685997 -111.2004 -30.295553 -75.019539 -54.943424 -0.019433266 -127.31001
27621000000 -22.651581 -77.927925 -76.083397 75.192703 -75.961128 128.67647 -0.021415891 -127.42339
27622000000 -22.825699 -78.34407 -85.046074 -117.62848 -80.051819 -144.47206 -0.021666024 -127.54375
27623000000 -22.999943 -78.268295 -84.29187 -150.29955 -68.523163 -17.784557 -0.020008091 -127.69515
27624000000 -23.184858 -78.18792 -72.557739 -52.111706 -76.488251 -66.921013 -0.014247193 -127.75604
27625000000 -23.40143 -77.888481 -67.265465 -42.770821 -73.57653 -53.956745 -0.018571736 -127.83711
27626000000 -23.584282 -77.762642 -71.889374 -56.933903 -79.837875 127.66555 -0.017513039 -127.89265
27627000000 -23.749441 -77.200211 -77.039703 -51.805546 -74.648933 -141.59087 -0.016143885 -128.04028
27628000000 -23.874397 -76.887299 -70.117271 -65.735039 -76.986237 142.74506 -0.015411838 -128.17018
27629000000 -24.071129 -76.236771 -84.878487 -82.752808 -90.213806 44.499935 -0.016504711 -128.26723
27630000000 -24.208075 -75.808022 -68.606171 -21.049101 -75.768166 -109.36793 -0.014237054 -128.3531
27631000000 -24.253571 -74.915009 -82.286072 51.318569 -80.25943 -40.732983 -0.016032068 -128.42603
27632000000 -24.379265 -74.163818 -79.68605 101.26689 -78.629852 -160.7943 -0.018045852 -128.5103
27633000000 -24.453508 -73.271835 -78.363106 59.562904 -72.313766 -88.417534 -0.012223523 -128.64439
27634000000 -24.479544 -72.305923 -75.497337 33.977982 -72.850525 -42.030659 -0.017635565 -128.76244
27635000000 -24.467585 -71.370644 -78.073799 51.435555 -79.575371 -74.887245 -0.015234484 -128.76575
27636000000 -24.582396 -70.461418 -79.077469 -0.35739005 -74.793777 179.41351 -0.012484464 -128.903
27637000000 -24.598146 -69.626312 -81.799477 99.789116 -86.842247 91.195709 -0.022420334 -129.07101
27638000000 -24.645872 -68.759377 -77.017014 -46.293945 -76.500008 -137.87177 -0.010065489 -129.13698
27639000000 -24.576464 -68.122849 -72.427666 121.98051 -78.672371 -135.76663 -0.011027863 -129.21831
27640000000 -24.585032 -67.518486 -79.367935 -16.349665 -79.146637 -166.81548 -0.017985547 -129.32642
27641000000 -24.562441 -66.928795 -76.042862 55.776646 -74.616234 -133.77176 -0.017298056 -129.40694
27642000000 -24.445486 -66.1894 -68.6791 37.982395 -77.684067 -105.79861 -0.019117275 -129.50659
27643000000 -24.368649 -65.689468 -69.425575 66.964378 -77.620468 -140.4778 -0.012696353 -129.62247
27644000000 -24.34618 -65.322914 -69.574898 46.262314 -77.668114 -83.008583 -0.0086106583 -129.73167
27645000000 -24.316967 -64.721596 -73.604668 71.235207 -84.595604 64.580276 -0.0092293397 -129.84378
27646000000 -24.205046 -64.616386 -83.949257 -89.21032 -86.808945 115.16125 -0.018127352 -129.95337
27647000000 -24.067066 -64.303741 -70.713295 -8.0706701 -91.936188 -52.634865 -0.017286889 -130.02203
27648000000 -24.035452 -63.914383 -73.413841 -10.307012 -84.696388 44.080105 -0.015039408 -130.10611
27649000000 -23.973396 -63.916111 -67.43808 5.744482 -74.042816 136.59674 -0.016824286 -130.25388
27650000000 -23.895231 -64.172035 -67.01136 3.3061693 -80.058113 -113.4369 -0.011699778 -130.35558
27651000000 -23.815367 -64.18573 -69.079185 26.43187 -74.722198 -47.730846 -0.013197273 -130.4344
27652000000 -23.719973 -64.522316 -63.45792 15.729936 -91.785324 94.98349 -0.014399386 -130.54482
27653000000 -23.651821 -64.130302 -78.708031 94.849548 -77.647675 -159.10751 -0.0078243315 -130.66579
27654000000 -23.611303 -64.275932 -71.302834 21.290009 -86.10453 -127.55272 -0.0080152974 -130.75992
27655000000 -23.520493 -64.503677 -71.139008 15.925336 -69.685287 -158.91286 -0.010306463 -130.80591
27656000000 -23.435501 -64.678513 -71.388939 -5.6552296 -71.382607 -123.53743 -0.01435753 -130.94516
27657000000 -23.346424 -65.169518 -69.900688 4.1863084 -75.3414 -21.848021 -0.010775781 -131.04362
27658000000 -23.366774 -65.825188 -68.449295 6.6259599 -78.471619 168.4518 -0.01718908 -131.09705
27659000000 -23.327801 -66.100891 -67.339302 33.198948 -79.1259 59.403992 -0.016048683 -131.24185
27660000000 -23.283745 -66.343872 -65.999283 14.877763 -76.679245 -149.04845 -0.012693878 -131.36221
27661000000 -23.240383 -66.494469 -65.96402 -0.738509 -70.177521 -101.49497 -0.016170399 -131.4362
27662000000 -23.170528 -67.079445 -66.682991 -8.7599087 -82.457474 -6.1337709 -0.010371462 -131.54774
27663000000 -23.116737 -67.474434 -68.631767 -6.9422698 -70.565063 146.32745 -0.012467229 -131.69
27664000000 -23.0755 -67.922943 -71.214554 5.8367023 -70.74749 163.46039 -0.015452729 -131.76662
27665000000 -23.075239 -68.736992 -65.214844 23.572041 -81.558762 -12.58064 -0.013041032 -131.88153
27666000000 -23.048313 -69.217407 -71.367958 8.5703163 -77.642929 -148.87448 -0.013087139 -131.98618
27667000000 -23.007942 -69.461861 -67.343262 17.41029 -80.319603 -148.07085 -0.021711251 -132.14246
27668000000 -22.999441 -69.912086 -65.684837 11.705769 -75.99839 114.64904 -0.023490326 -132.22832
27669000000 -22.995192 -70.617416 -67.946671 7.4032679 -76.45153 147.0238 -0.028251501 -132.30075
27670000000 -22.94795 -71.272324 -65.390396 6.4465938 -76.198326 -134.75719 -0.016379889 -132.44415
27671000000 -22.926292 -71.853401 -67.025116 -13.808093 -87.755058 -175.40292 -0.016081475 -132.56076
27672000000 -22.933292 -72.323807 -68.485626 -11.066542 -80.837723 -104.81115 -0.019228451 -132.67387
27673000000 -22.934305 -73.204086 -71.762772 -28.878628 -73.890884 -150.21521 -0.01688241 -132.83076
27674000000 -22.933533 -73.764297 -63.680634 -12.853781 -77.289261 -28.821304 -0.022628216 -132.95512
27675000000 -22.963335 -74.225029 -64.560867 -25.742107 -83.301704 66.358734 -0.024985442 -133.08946
27676000000 -22.943964 -74.818985 -63.976925 -16.295208 -79.142227 -23.818453 -0.029023653 -133.12308
27677000000 -22.870441 -75.504967 -64.515564 -3.8400514 -82.264336 -71.581276 -0.023250571 -133.20052
27678000000 -22.865154 -76.073891 -67.706894 -12.702522 -79.514053 -176.76614 -0.015108651 -133.36855
27679000000 -22.903414 -77.134666 -67.725929 -19.316313 -94.282059 7.0460596 -0.014086897 -133.48683
27680000000 -22.87026 -77.430321 -66.833214 -19.979328 -86.55867 178.116 -0.016894016 -133.57631
27681000000 -22.856127 -78.210182 -65.917366 -10.335064 -86.648422 -8.2338829 -0.018201685 -133.70984
27682000000 -22.875313 -78.738487 -65.938515 -29.572353 -87.901627 -86.955452 -0.013397964 -133.83636
27683000000 -22.873156 -79.71685 -65.803894 -23.055143 -82.617538 -81.61573 -0.02022161 -133.94524
27684000000 -22.894421 -80.443748 -66.139343 -22.201216 -83.599823 -48.582508 -0.023276944 -134.02165
27685000000 -22.880054 -81.146278 -66.753174 -16.194248 -75.664467 -78.396561 -0.021180142 -134.13124
27686000000 -22.846102 -82.086884 -63.411491 -13.439478 -90.47123 140.54089 -0.022671539 -134.25693
27687000000 -22.82272 -82.960228 -63.646004 -21.191265 -78.690491 32.49572 -0.02379097 -134.36299
27688000000 -22.813276 -83.670654 -63.092827 -26.923275 -92.008759 112.52673 -0.015514212 -134.50742
27689000000 -22.826338 -84.415291 -63.706085 -35.786613 -75.234749 -59.16032 -0.013195761 -134.61388
27690000000 -22.821274 -84.983475 -65.967117 -19.336226 -74.930794 -13.306047 -0.017431879 -134.68633
27691000000 -22.796335 -86.054337 -69.696831 -42.958534 -78.056908 115.69871 -0.005355658 -134.80013
27692000000 -22.7959 -87.236282 -68.300934 -62.710217 -71.472359 159.78616 -0.0088862209 -134.91348
27693000000 -22.758577 -88.1679 -66.0802 -39.959766 -79.65712 54.30386 -0.011004288 -134.98431
27694000000 -22.691011 -89.079262 -63.863579 -32.245571 -79.234612 166.3718 -0.0047289627 -135.12135
27695000000 -22.712048 -90.181107 -64.289276 -45.181198 -82.746902 -51.198479 -0.010868204 -135.24303
