!Keysight Technologies,N5234A,MY55441357,A.10.47.05
!Date: Sunday, November 19, 2017 16:44:28
!Correction: S11(Full 2 Port(1,2)) 
!S21(Full 2 Port(1,2)) 
!S12(Full 2 Port(1,2)) 
!S22(Full 2 Port(1,2)) 
!S2P File: Measurements: S11, S21, S12, S22:
# Hz S  dB   R 50
27500000000 -23.721516 -103.22382 -82.440918 -62.880737 -74.864067 -105.44409 -0.010431386 -105.99686
27501000000 -24.040876 -103.92707 -72.93261 87.582993 -76.689117 -8.0962715 -0.0034511518 -106.10268
27502000000 -24.29421 -104.9957 -78.847504 1.576658 -74.392921 -119.57424 0.0051808576 -106.18239
27503000000 -24.587042 -105.25485 -72.595413 67.927574 -74.025299 177.74554 -0.0033681137 -106.25079
27504000000 -24.897171 -106.13866 -80.965889 48.824883 -92.109535 -64.041779 -0.0027999594 -106.32394
27505000000 -25.143023 -106.7813 -80.928528 -71.95723 -70.343651 40.13649 -0.002199593 -106.3254
27506000000 -25.587141 -106.78842 -73.705261 -46.058865 -75.517456 55.242687 -0.0021182285 -106.38502
27507000000 -25.916206 -107.98444 -73.804146 -0.88099802 -75.973434 87.359543 -0.0107546 -106.49497
27508000000 -26.265104 -108.43954 -71.956932 -25.039753 -80.505974 -128.94243 0.0047630877 -106.61544
27509000000 -26.619492 -109.24406 -82.246346 -46.422958 -72.298584 173.0519 0.0012486754 -106.68966
27510000000 -26.995302 -109.60245 -73.827141 -97.227135 -74.548531 -83.589432 0.0026205287 -106.72031
27511000000 -27.388285 -109.76553 -80.338318 42.813011 -74.410027 56.358566 0.0014317047 -106.79219
27512000000 -27.880512 -110.63457 -71.968666 -34.328217 -80.886108 -36.235409 -0.0027122097 -106.8403
27513000000 -28.321289 -111.09351 -84.720276 -161.06442 -77.404938 -71.903984 -0.0048103225 -106.94418
27514000000 -28.772875 -111.81593 -79.972046 162.927 -71.917648 -126.7878 -0.00060012023 -107.00254
27515000000 -29.263973 -112.39074 -70.272072 -72.336243 -76.018349 176.64825 0.0070195859 -107.03533
27516000000 -29.855478 -112.80595 -72.903564 -126.142 -92.583672 149.33263 -0.0037953351 -107.15843
27517000000 -30.459681 -112.92898 -67.900375 61.778065 -78.348785 124.85538 0.0008207651 -107.15575
27518000000 -31.025866 -113.33313 -69.570168 124.61747 -86.603897 -90.087936 -0.0058750091 -107.25087
27519000000 -31.762115 -113.18797 -84.18158 89.30323 -84.144577 67.26429 -0.0083270213 -107.29651
27520000000 -32.400642 -112.82825 -74.025841 -45.063915 -76.922485 48.175396 -0.0090648206 -107.35352
27521000000 -33.223003 -112.99885 -80.688904 25.311518 -78.824074 -116.52164 -0.0056360522 -107.49724
27522000000 -34.297871 -112.88374 -77.499664 -12.073693 -74.582893 -131.76294 -0.003342313 -107.54196
27523000000 -35.199123 -111.97575 -77.611374 -163.77812 -82.979141 -101.19027 -0.0063352017 -107.62097
27524000000 -36.225933 -110.80054 -75.234627 -175.9071 -88.11322 114.72017 -0.0086920187 -107.66728
27525000000 -37.576912 -107.80556 -76.561584 -106.16204 -79.462685 -160.05423 0.0023836638 -107.74076
27526000000 -38.96571 -105.57442 -73.66214 110.4409 -77.07695 -112.02313 -0.0037263234 -107.8386
27527000000 -40.342655 -98.993431 -73.216606 -177.27467 -77.717888 -38.372471 -0.0076516634 -107.92332
27528000000 -41.471455 -93.609177 -81.391357 59.98148 -78.364655 -43.664215 -0.006951951 -107.88779
27529000000 -43.267738 -79.232422 -73.362923 119.56137 -82.487808 -141.47588 -0.013690542 -108.00648
27530000000 -44.637264 -63.894295 -77.848579 137.74988 -74.264198 65.158554 -0.0029692687 -108.09649
27531000000 -44.864979 -42.172138 -79.2285 4.9238329 -80.035973 54.135517 -0.0088446597 -108.16429
27532000000 -43.938473 -22.334345 -74.982567 -169.17795 -76.645805 9.0106277 -0.005941689 -108.21494
27533000000 -42.826324 -5.9298582 -70.737778 83.934677 -76.57029 87.351295 -0.015992418 -108.31319
27534000000 -41.389133 2.3075125 -72.431267 140.57474 -72.42672 -47.930367 0.00028322212 -108.39284
27535000000 -39.793598 7.4252448 -76.66024 -54.479469 -75.881821 -38.67033 -0.0077074803 -108.48182
27536000000 -37.922104 11.117229 -79.045074 -4.4078951 -76.154068 -31.844255 -0.0052498248 -108.55305
27537000000 -36.675209 15.519809 -85.590263 -12.17336 -79.443932 86.927017 -0.0042301449 -108.5454
27538000000 -35.633736 16.631472 -75.053429 -30.43808 -75.949913 144.39752 0.0018774807 -108.60103
27539000000 -34.559872 18.341055 -78.172836 -46.553387 -76.999771 151.65773 -0.008546521 -108.71587
27540000000 -33.450798 17.833055 -69.71196 118.93487 -80.050865 129.03442 -0.0056468709 -108.82252
27541000000 -32.775955 19.142262 -77.612358 110.66457 -80.034416 -132.60167 -0.0086463708 -108.86049
27542000000 -31.885386 19.576824 -72.238159 47.019894 -80.220222 55.537956 -0.0035819539 -108.94502
27543000000 -31.167572 19.17778 -81.411064 -98.661728 -77.863327 -23.467863 -0.0032598167 -108.97477
27544000000 -30.428511 19.49914 -81.652405 89.521103 -79.109367 -164.98921 0.0023542293 -109.04333
27545000000 -29.852942 18.495855 -87.462486 103.05826 -76.244835 -168.38725 -0.0032838373 -109.10884
27546000000 -29.221786 18.187212 -83.497955 82.302193 -82.997009 -140.19382 -0.0032756887 -109.18917
27547000000 -28.773714 17.232616 -75.489365 77.899681 -82.708031 -79.368546 0.0069901454 -109.2147
27548000000 -28.174231 17.090359 -75.394539 91.715019 -76.778671 -127.14382 0.00086144678 -109.31025
27549000000 -27.713543 16.645239 -73.825027 176.21707 -84.279251 -14.275414 -0.0023288471 -109.36957
27550000000 -27.298105 16.458532 -72.694084 -166.49834 -78.995842 -48.314426 0.0024623857 -109.46504
27551000000 -26.861534 15.83098 -79.199425 -21.390862 -77.041763 80.912575 0.0074410802 -109.49843
27552000000 -26.401546 14.040171 -95.875374 130.56558 -83.669991 160.92166 0.0032414927 -109.51505
27553000000 -26.019117 13.535945 -78.455688 -65.097366 -73.075272 129.11397 0.0026478595 -109.58227
27554000000 -25.630146 12.822774 -69.206467 -79.700157 -83.073349 -77.744362 0.0094302529 -109.68575
27555000000 -25.3318 11.878265 -82.124512 -78.499992 -77.590775 -100.36321 0.007088575 -109.70502
27556000000 -24.981176 11.166468 -82.425819 75.328445 -78.760223 -88.682709 0.0029693628 -109.72644
27557000000 -24.640316 10.296428 -78.242424 -128.12083 -89.501091 -96.768417 -0.00029915682 -109.82282
27558000000 -24.230862 9.0786581 -83.964325 94.79879 -78.992699 -109.63998 -0.0031765972 -109.85993
27559000000 -23.960024 8.0458069 -77.915413 177.02948 -74.630486 -65.869499 0.0028172242 -109.96548
27560000000 -23.694637 6.9642658 -78.22496 123.13744 -84.701721 175.60666 0.011170909 -110.05827
27561000000 -23.378378 6.0635257 -70.732727 110.63541 -77.828751 -82.503716 0.0051462208 -110.11131
27562000000 -23.221897 4.7537999 -72.06002 -119.76164 -70.268822 -23.987562 0.0068772282 -110.10933
27563000000 -22.8678 3.9222248 -76.582344 -14.094994 -74.714424 90.365135 0.0095069651 -110.16287
27564000000 -22.649124 2.621696 -75.228134 -6.4567685 -77.270172 -131.13371 0.0017884782 -110.28938
27565000000 -22.333347 1.4483002 -76.587914 -96.984047 -87.626045 -25.266855 0.0021128575 -110.2878
27566000000 -22.091774 0.2415846 -77.422173 -145.77054 -75.640533 -112.40527 0.0033907082 -110.37739
27567000000 -21.913656 -0.92618817 -67.982964 178.26785 -76.742546 106.81573 0.015677329 -110.39477
27568000000 -21.69043 -2.3688352 -80.085358 -39.051121 -81.103302 87.206169 0.0073877196 -110.48594
27569000000 -21.459179 -3.3170855 -71.598145 -68.013565 -73.160156 0.46945909 0.0025732666 -110.54069
27570000000 -21.210001 -4.4537292 -100.74198 -19.13496 -83.311417 77.786835 0.0045821457 -110.61662
27571000000 -21.040091 -5.8269601 -72.120117 -57.840099 -85.506058 50.076672 0.011202309 -110.62354
27572000000 -20.845234 -7.3173242 -78.143456 -8.8563509 -75.313255 -135.71928 0.0061972612 -110.71971
27573000000 -20.625147 -8.6657515 -95.136055 169.6402 -76.067421 -63.738514 0.0076055364 -110.80323
27574000000 -20.456472 -10.070467 -77.282547 74.573769 -75.571175 90.910538 -0.0024067247 -110.85416
27575000000 -20.283258 -11.398825 -78.585793 -1.9869908 -82.733627 -6.0196681 0.0012602818 -110.91913
27576000000 -20.095047 -12.801938 -87.97744 74.780792 -78.547729 135.21669 0.0068516475 -111.0219
27577000000 -19.916903 -14.105013 -78.948891 2.6679409 -76.090065 24.520317 -0.00053749204 -111.07156
27578000000 -19.775097 -15.457328 -80.989662 -51.859821 -77.753342 109.76016 0.004817259 -111.1467
27579000000 -19.668915 -17.05929 -71.903282 32.495491 -81.675896 -135.93149 -0.0087697562 -111.2502
27580000000 -19.506729 -18.771959 -79.666527 109.35081 -73.071503 -110.82389 -0.0084386067 -111.31625
27581000000 -19.364815 -20.24102 -77.220543 -20.582495 -76.41687 -173.87006 -0.0066333408 -111.31731
27582000000 -19.247435 -21.735178 -76.170013 -34.294983 -76.133179 61.127625 -0.0079004755 -111.33186
27583000000 -19.149948 -23.515846 -74.479492 -4.5464177 -78.680031 -66.909203 -0.0025187575 -111.45513
27584000000 -19.036352 -25.216707 -77.320023 43.105404 -69.720009 8.7921991 -0.00353427 -111.52853
27585000000 -18.935183 -27.09066 -92.986626 -149.34373 -78.738373 -13.01938 -0.0032498399 -111.57237
27586000000 -18.880823 -28.975439 -87.598366 -109.05443 -85.730553 -28.616777 -0.0055461256 -111.63206
27587000000 -18.823147 -30.663046 -77.01812 -137.68774 -83.643829 112.62546 -0.0047552055 -111.69173
27588000000 -18.765373 -32.558041 -73.289581 119.94128 -86.467987 -43.373245 -0.0080132978 -111.81766
27589000000 -18.746912 -34.647781 -73.78318 56.654087 -79.999352 140.50017 -0.0095623061 -111.87102
27590000000 -18.719946 -36.363598 -78.01371 95.008926 -72.807663 -171.96004 -0.013675848 -111.95377
27591000000 -18.705919 -38.426098 -72.865616 54.545338 -77.600655 114.73611 -0.0061767208 -111.97144
27592000000 -18.744524 -40.486385 -80.667778 98.203606 -69.170937 80.960251 -0.010100781 -112.04978
27593000000 -18.827206 -42.342964 -74.242157 53.863758 -91.54995 -141.38484 -0.015949154 -112.1163
27594000000 -18.890926 -44.2355 -81.752815 -66.77121 -77.264488 -174.4791 -0.011635028 -112.18671
27595000000 -18.99194 -46.055325 -82.505836 150.83542 -76.381706 -83.772575 -0.014616953 -112.24953
27596000000 -19.057423 -47.864323 -73.400314 -32.847477 -82.122665 72.244888 -0.011653004 -112.26569
27597000000 -19.238756 -49.640926 -74.632919 72.417747 -79.698395 -138.93185 -0.011983444 -112.40461
27598000000 -19.424694 -50.978371 -85.518272 -80.258141 -76.846336 114.50935 -0.010022335 -112.48378
27599000000 -19.601761 -52.351902 -76.663582 14.02264 -83.114281 103.21828 -0.0074207583 -112.53215
27600000000 -19.759808 -53.149158 -82.230621 14.261633 -85.022995 -10.313138 -0.003663504 -112.63062
27601000000 -19.98881 -53.678555 -79.350357 -154.87596 -74.760017 -105.58787 -0.010006726 -112.71198
27602000000 -20.105955 -54.203533 -78.228714 104.00342 -86.299133 -142.13478 -0.016052194 -112.7472
27603000000 -20.210075 -54.749111 -72.855873 54.985748 -81.464676 -19.172344 -0.012304963 -112.84939
27604000000 -20.345537 -54.814331 -81.635429 47.208145 -73.165771 -37.384083 -0.0061642122 -112.932
27605000000 -20.440111 -55.42815 -94.519661 66.388054 -81.455544 167.90373 -0.0063997544 -113.01701
27606000000 -20.519539 -55.621662 -82.00618 16.961237 -77.81601 -86.039124 -0.014565011 -113.03926
27607000000 -20.560774 -56.051991 -73.845673 116.99297 -73.54422 9.2670612 -0.010385822 -113.17443
27608000000 -20.582066 -56.562248 -73.445358 -92.182991 -85.143616 85.069221 -0.011599302 -113.19203
27609000000 -20.605867 -57.393185 -90.34584 -122.04227 -77.457176 62.739277 -0.01392951 -113.25588
27610000000 -20.666677 -58.18177 -79.465485 131.73109 -89.515404 143.52267 -0.0082147894 -113.33123
27611000000 -20.758762 -58.700909 -71.382378 -34.889034 -79.019279 66.658646 -0.010111564 -113.43299
27612000000 -20.787922 -59.429779 -79.976105 -141.98067 -82.138741 32.64822 -0.0099146357 -113.46232
27613000000 -20.834927 -60.43346 -71.289185 -121.55681 -83.705788 -92.875771 -0.0054975962 -113.52123
27614000000 -20.943872 -61.489231 -94.874275 14.943206 -77.396065 -122.15665 -0.011588973 -113.62285
27615000000 -20.980513 -62.119579 -77.357475 -25.944633 -84.374649 -161.50807 -0.0087512992 -113.70586
27616000000 -21.1294 -63.083832 -74.195885 84.924637 -71.701805 -74.720512 0.0028459306 -113.78133
27617000000 -21.181673 -63.926575 -75.802162 -9.5844145 -73.297928 -50.973812 -0.0053996635 -113.87887
27618000000 -21.333715 -64.693039 -74.567513 -52.667431 -73.217575 -45.486835 -0.0096298279 -113.91756
27619000000 -21.464527 -65.710403 -69.925453 123.39488 -71.977364 -75.74276 0.0015352438 -113.961
27620000000 -21.626957 -66.185448 -79.912827 -57.193775 -78.208458 178.52487 -0.0046295561 -114.04816
27621000000 -21.753702 -66.636208 -85.084969 165.62491 -75.465836 -86.989693 -0.0041502505 -114.10655
27622000000 -21.92787 -67.127617 -76.414948 -79.832222 -79.178673 -69.092926 -0.0056873867 -114.20807
27623000000 -22.081457 -67.51973 -81.756134 -109.57883 -75.791161 -26.966766 7.6083481e-005 -114.28175
27624000000 -22.249905 -67.870461 -77.652275 -150.73633 -73.640411 -16.846333 -0.0054054363 -114.3662
27625000000 -22.384695 -68.591988 -87.511757 108.90112 -70.906113 -49.623253 -0.011782464 -114.42651
27626000000 -22.61268 -68.044334 -79.596222 -175.96056 -79.24308 11.37225 -0.006045511 -114.49284
27627000000 -22.791374 -68.691093 -78.139091 136.62584 -85.113785 17.002848 0.00078100571 -114.50782
27628000000 -22.947956 -68.393188 -76.896164 -169.09016 -77.500053 117.01352 -0.0015696306 -114.61937
27629000000 -23.095886 -68.201843 -81.515236 -125.42612 -75.422005 14.949468 -0.0060086804 -114.67721
27630000000 -23.229107 -68.293922 -75.944969 -17.139666 -85.69471 60.777386 -0.004014919 -114.76088
27631000000 -23.439476 -67.734848 -79.735817 158.56583 -81.939087 -20.469948 0.0022388184 -114.86283
27632000000 -23.572998 -67.115967 -82.560616 115.67343 -73.365837 120.38418 0.0012647402 -114.8837
27633000000 -23.682919 -67.057724 -77.88546 -70.558006 -87.372086 125.51171 -0.0047838106 -114.94437
27634000000 -23.794825 -66.539589 -81.403221 119.40956 -73.70002 -47.277363 0.0041742865 -115.03473
27635000000 -23.892733 -65.733131 -76.454788 -6.5287538 -77.050858 135.59134 -0.0043817344 -115.17039
27636000000 -23.968872 -65.171669 -80.145584 -56.194584 -73.141136 140.71005 -0.0077155139 -115.16055
27637000000 -24.005678 -64.452278 -74.192368 129.89424 -76.49308 153.17323 -0.0091775851 -115.24842
27638000000 -23.971666 -63.973061 -75.044319 28.162394 -82.299324 -158.28119 -0.0037896391 -115.26626
27639000000 -24.104443 -62.988075 -73.52417 17.836283 -76.010155 -19.856428 -0.001712882 -115.37597
27640000000 -24.121519 -62.496681 -78.889671 129.76067 -73.757942 -66.413811 0.0018286819 -115.4584
27641000000 -24.12582 -61.417725 -94.819862 -18.119528 -75.929878 4.0889196 -0.0076921303 -115.49551
27642000000 -24.067669 -60.855457 -84.14624 4.4561787 -76.033501 2.1314526 -0.018987881 -115.57472
27643000000 -24.097462 -59.996094 -78.941902 -164.55443 -83.445259 -127.32545 -0.00047761726 -115.66824
27644000000 -24.076488 -59.824364 -84.335083 102.81461 -71.928871 -157.57776 -0.0021921499 -115.73586
27645000000 -24.027857 -59.518734 -84.666687 171.9724 -77.574524 -51.801971 0.00066014274 -115.80953
27646000000 -23.930756 -58.831707 -86.58007 65.809952 -86.71154 -137.24521 -0.0048040636 -115.83879
27647000000 -23.867908 -58.578167 -74.221725 -41.938656 -76.478004 -122.6703 -0.0020127851 -115.97305
27648000000 -23.826414 -57.830147 -83.935661 31.7204 -83.846725 -129.05017 -0.0083592506 -116.06155
27649000000 -23.75985 -57.665752 -74.832573 -2.1684551 -75.257927 -172.30208 0.001357069 -116.09323
27650000000 -23.669893 -57.479969 -81.690582 12.731343 -76.880264 160.06676 0.0050755301 -116.18496
27651000000 -23.569553 -57.103481 -88.293068 24.294695 -77.342827 28.357634 -0.0048069111 -116.26716
27652000000 -23.475704 -57.390831 -79.294106 135.55693 -76.562431 109.39188 -0.00067465974 -116.29631
27653000000 -23.410183 -57.427002 -73.494064 100.56056 -78.919281 13.706939 -0.00078782561 -116.3662
27654000000 -23.288887 -57.396942 -77.457748 174.65347 -75.764992 -169.72844 0.0045986781 -116.4624
27655000000 -23.264973 -57.248466 -73.710739 26.62958 -76.59024 -132.65344 -0.0011762719 -116.54256
27656000000 -23.098581 -57.539131 -76.911613 48.275299 -79.83374 78.608795 -0.003611227 -116.58994
27657000000 -23.03351 -57.625263 -82.229851 -126.15907 -74.008743 -19.286709 0.0020670677 -116.6373
27658000000 -22.999928 -57.861633 -77.618942 179.23553 -76.848152 -38.926781 -0.0010228923 -116.77663
27659000000 -22.862906 -58.182312 -98.959244 -1.450417 -77.842979 -55.231434 -0.0028928996 -116.79285
27660000000 -22.796837 -58.437008 -81.859825 -64.151085 -82.386269 -55.252232 0.00027641706 -116.87085
27661000000 -22.73308 -58.630947 -75.29879 -112.37672 -82.751152 -48.627674 0.004156542 -116.9909
27662000000 -22.640892 -59.074306 -72.703064 152.96385 -87.933136 2.9356666 0.0045033656 -116.98148
27663000000 -22.584087 -59.614952 -79.295601 47.714828 -85.914345 -31.359793 0.008775441 -117.08485
27664000000 -22.493727 -60.001404 -88.244987 179.46399 -82.728867 -108.64835 0.0031154891 -117.09171
27665000000 -22.422987 -60.07085 -80.805489 -21.532021 -84.127739 -99.064682 0.0038814736 -117.21712
27666000000 -22.374022 -60.526207 -89.979843 -49.021263 -82.1147 -47.221077 0.0038743862 -117.28822
27667000000 -22.281195 -61.274406 -85.233307 21.628229 -106.56826 -18.266193 0.010838574 -117.33883
27668000000 -22.226879 -61.604668 -70.891106 -134.14438 -75.915321 87.198082 0.0055967132 -117.45255
27669000000 -22.177105 -61.736748 -79.996826 103.53938 -85.315704 105.30305 0.0037658585 -117.53902
27670000000 -22.10713 -62.441139 -78.035774 133.42337 -79.685066 -117.48525 0.002808511 -117.59373
27671000000 -22.060957 -63.069427 -77.02063 -11.521675 -82.982079 -156.42418 0.0044381423 -117.65842
27672000000 -21.995422 -63.564857 -73.719376 -2.8054669 -77.502632 28.904726 0.0033587364 -117.68855
27673000000 -21.95433 -63.913803 -88.260956 -117.47188 -75.606598 94.159882 0.0029000964 -117.75085
27674000000 -21.870598 -64.214455 -72.119118 -87.458359 -83.276939 94.066483 0.0059638172 -117.84261
27675000000 -21.827532 -64.632057 -74.565834 -43.777721 -81.53373 115.28008 0.010523548 -117.89027
27676000000 -21.832615 -65.437492 -79.110489 57.423592 -83.026688 -92.330208 -0.00077250524 -117.93602
27677000000 -21.784107 -65.88974 -76.776146 93.258476 -87.018265 -9.0066576 0.0017467329 -118.01472
27678000000 -21.705753 -66.686211 -79.538361 -64.30352 -77.467293 -147.9856 0.0034397175 -118.10503
27679000000 -21.679443 -66.896248 -72.647911 151.66858 -71.625053 127.63352 0.0022874875 -118.13403
27680000000 -21.568026 -67.304054 -75.911842 -116.87788 -89.372726 153.56567 0.0066784397 -118.12627
27681000000 -21.558872 -67.895233 -73.609016 -122.95271 -83.922211 -103.51127 0.00091327098 -118.222
27682000000 -21.536322 -68.414627 -79.531372 -108.78912 -75.473282 42.792534 0.010059313 -118.31753
27683000000 -21.494913 -69.124855 -76.280464 86.842773 -78.146454 -172.85176 0.013782954 -118.31885
27684000000 -21.418476 -69.484177 -78.138275 -153.23645 -90.986565 -15.941457 0.0037641355 -118.4129
27685000000 -21.38385 -69.92366 -85.946709 -17.705854 -93.6045 83.498199 0.014980515 -118.48183
27686000000 -21.317177 -70.491043 -81.094147 125.3213 -80.364441 -14.607366 0.0026559064 -118.53855
27687000000 -21.267126 -71.224991 -88.531853 -1.4020265 -78.547913 49.246342 0.0080512874 -118.55943
27688000000 -21.229317 -71.825577 -83.926239 -177.33211 -75.758842 42.250793 0.0081726881 -118.67686
27689000000 -21.18095 -72.058403 -80.914612 158.46863 -74.233635 7.9626937 0.0012400036 -118.70362
27690000000 -21.134466 -72.482574 -78.141357 117.78156 -84.065575 -175.19858 0.012825225 -118.79359
27691000000 -21.081444 -73.380608 -81.119629 56.706593 -77.57325 106.25179 0.0056922035 -118.828
27692000000 -21.058338 -74.054863 -84.636848 -151.75822 -70.767624 125.79974 0.00085244444 -118.88435
27693000000 -20.990126 -74.668701 -86.350029 173.18726 -71.019493 71.795914 0.0058004009 -118.9725
27694000000 -20.940025 -75.349831 -71.308174 -68.326492 -78.329422 83.869629 0.0055569764 -119.09405
27695000000 -20.887199 -76.062637 -82.044571 175.35368 -75.361122 159.55978 0.0011578525 -119.11074
