!Keysight Technologies,N5234A,MY55441357,A.10.47.05
!Date: Sunday, November 19, 2017 16:06:21
!Correction: S11(Full 2 Port(1,2)) 
!S21(Full 2 Port(1,2)) 
!S12(Full 2 Port(1,2)) 
!S22(Full 2 Port(1,2)) 
!S2P File: Measurements: S11, S21, S12, S22:
# Hz S  dB   R 50
27500000000 -22.601065 -96.369118 -80.093742 -158.43062 -77.964981 53.044086 0.15218124 -119.31304
27501000000 -22.880709 -96.880394 -76.364906 123.80973 -73.012192 91.297401 0.15220472 -119.40317
27502000000 -23.124456 -97.837059 -76.12986 -75.144905 -82.30735 -62.044025 0.15473378 -119.52541
27503000000 -23.400473 -98.088432 -78.913765 -14.308816 -88.735985 69.998787 0.14536333 -119.57724
27504000000 -23.675482 -98.840836 -68.574715 22.73222 -84.863792 178.59991 0.14886615 -119.6541
27505000000 -23.881207 -99.638283 -70.71357 87.862808 -78.745384 153.18686 0.15527917 -119.65911
27506000000 -24.19211 -99.789352 -70.135887 129.93867 -74.560738 -120.63275 0.15371279 -119.71407
27507000000 -24.543175 -100.64159 -73.839478 85.305672 -78.165382 116.8689 0.15168391 -119.82411
27508000000 -24.844276 -101.30646 -77.042183 150.22026 -83.671028 -102.82092 0.15342245 -119.90307
27509000000 -25.134426 -102.0116 -69.373421 -177.67511 -81.163017 -37.411182 0.15732835 -120.00732
27510000000 -25.514105 -102.29052 -77.205559 118.41074 -71.24234 -1.0111803 0.15843095 -120.04455
27511000000 -25.78941 -102.89646 -76.069481 77.876961 -74.279579 -5.0510073 0.15578611 -120.06573
27512000000 -26.116199 -103.57491 -74.362503 -64.018517 -74.911537 65.69957 0.15365596 -120.17443
27513000000 -26.510334 -103.73816 -76.228767 78.862 -102.48564 -46.517429 0.15368629 -120.28973
27514000000 -26.972832 -104.26073 -77.070114 -2.3717251 -84.265198 122.64561 0.16243771 -120.32052
27515000000 -27.329006 -105.27535 -72.858025 34.844261 -80.167648 144.62973 0.15756808 -120.42621
27516000000 -27.817329 -105.49629 -87.391037 119.12375 -82.555244 99.901489 0.15651381 -120.51709
27517000000 -28.27026 -105.43776 -78.090424 -123.56802 -75.268394 53.900494 0.15774013 -120.54635
27518000000 -28.755033 -105.48793 -73.843109 -109.84779 -92.087387 -167.64273 0.15576653 -120.64395
27519000000 -29.297087 -105.52802 -71.147934 -110.9035 -88.214912 176.17654 0.15692559 -120.71913
27520000000 -29.703917 -105.81734 -76.691345 -74.364594 -71.792847 127.90065 0.14504424 -120.76501
27521000000 -30.436127 -106.07418 -73.094765 38.633846 -71.518242 -132.88972 0.15197167 -120.94736
27522000000 -31.185152 -105.75201 -79.978622 -115.55049 -91.304886 -47.897099 0.15997821 -121.01561
27523000000 -31.765741 -105.19792 -72.227547 148.4826 -77.49868 91.83242 0.15479104 -121.11295
27524000000 -32.484814 -105.17389 -85.90464 -11.868275 -79.325722 125.27989 0.15489514 -121.15679
27525000000 -33.341869 -103.85886 -78.933586 -148.073 -74.865776 127.15168 0.15479265 -121.20257
27526000000 -34.144222 -101.42701 -88.440323 72.980705 -71.557983 70.320351 0.15496232 -121.31949
27527000000 -34.94556 -99.042473 -75.30809 175.29234 -83.824295 155.89955 0.15024722 -121.40765
27528000000 -35.759155 -97.692268 -80.652122 -12.631262 -81.54248 -123.55894 0.15057042 -121.3867
27529000000 -36.883705 -92.184418 -74.935471 -105.49068 -77.431686 -131.48866 0.14575395 -121.52335
27530000000 -37.966686 -88.299446 -74.858841 102.97043 -77.289696 -34.082302 0.1523812 -121.62375
27531000000 -38.981567 -79.882889 -75.140053 -35.879997 -74.341476 -66.345482 0.15388623 -121.65765
27532000000 -40.086033 -72.208275 -73.356171 31.226501 -76.687927 -6.6867371 0.15115122 -121.77398
27533000000 -41.164555 -63.346256 -80.594147 127.0827 -77.297821 176.25578 0.14496803 -121.86299
27534000000 -41.512859 -49.243225 -76.077072 174.05168 -81.7024 64.265457 0.15619439 -121.93398
27535000000 -41.272446 -33.914455 -69.641136 49.099602 -79.285881 116.20753 0.15592693 -122.05531
27536000000 -40.302082 -23.258837 -82.281319 104.7234 -72.68721 92.874474 0.14872487 -122.13546
27537000000 -39.696827 -10.953039 -75.892349 3.7696795 -74.806633 80.777039 0.14736485 -122.14168
27538000000 -38.536846 -4.2898202 -79.413979 -67.00808 -84.872314 87.934494 0.1570085 -122.17363
27539000000 -37.254097 2.7326002 -76.442787 -73.284164 -84.506767 22.410618 0.15132108 -122.32544
27540000000 -36.066826 6.0621958 -76.396584 76.058426 -71.993851 -65.868027 0.14755604 -122.4065
27541000000 -35.260357 9.3273268 -72.340408 89.972397 -83.279877 -0.36937493 0.15152995 -122.45145
27542000000 -34.201599 12.015296 -91.385773 118.63853 -72.532883 0.10197823 0.15075201 -122.54223
27543000000 -33.283081 13.121752 -74.381874 -163.49413 -74.058571 -48.872932 0.1502097 -122.59016
27544000000 -32.416759 14.877875 -82.386375 146.88467 -85.891174 -155.56631 0.15222105 -122.64874
27545000000 -31.780729 15.436858 -82.516281 -120.20412 -76.24614 -19.810102 0.14625944 -122.70868
27546000000 -30.972954 15.478188 -81.098549 -46.015072 -74.620102 84.210243 0.15252027 -122.82531
27547000000 -30.404757 15.45324 -74.173355 -77.168938 -71.569839 58.432343 0.15787761 -122.91684
27548000000 -29.750002 16.23596 -75.057838 20.163094 -70.879761 56.112011 0.15956579 -122.98484
27549000000 -29.144421 16.17227 -73.252769 -32.754578 -79.989372 -94.639145 0.15518977 -123.05129
27550000000 -28.699732 16.239674 -76.996597 -124.29812 -73.778336 -12.552504 0.1590323 -123.15314
27551000000 -28.128038 15.887923 -75.94812 -72.937286 -79.67215 -154.07254 0.1615362 -123.19854
27552000000 -27.655716 14.431481 -79.885704 -134.06441 -77.39399 -29.322645 0.15956025 -123.23248
27553000000 -27.205904 14.411561 -71.716461 99.433662 -71.049606 127.62576 0.15926477 -123.33517
27554000000 -26.77729 13.996339 -78.384285 53.339008 -79.157623 -130.91837 0.15855964 -123.40313
27555000000 -26.365559 13.095972 -75.306679 115.24951 -75.93248 -7.411037 0.16183101 -123.44441
27556000000 -25.960112 12.55955 -85.129715 45.429001 -77.799736 45.270252 0.16204517 -123.5116
27557000000 -25.58423 11.898733 -90.577354 -88.279701 -82.146797 -67.236267 0.15564989 -123.61125
27558000000 -25.144396 10.866759 -79.395905 -156.93839 -79.219536 65.018578 0.15786527 -123.65598
27559000000 -24.808495 10.083691 -86.500763 -46.083172 -80.890778 62.663647 0.15306799 -123.73122
27560000000 -24.54641 9.348011 -85.315994 -73.180573 -73.691803 102.62497 0.16056436 -123.83345
27561000000 -24.147995 8.6810064 -91.976059 93.446541 -75.359734 100.69662 0.15872589 -123.90728
27562000000 -23.944969 7.2575655 -70.287155 -30.252028 -74.566956 -156.37006 0.16557913 -123.91045
27563000000 -23.560236 6.8615451 -81.160118 -46.93174 -74.922318 60.650852 0.16454513 -124.00963
27564000000 -23.308237 5.4661117 -72.704147 98.825539 -77.31398 127.3876 0.15924986 -124.10146
27565000000 -22.950403 4.2840319 -78.946526 -43.998058 -76.725578 -111.26424 0.15469557 -124.14362
27566000000 -22.677069 3.231127 -80.36232 42.266315 -82.856567 154.75493 0.15870875 -124.27408
27567000000 -22.514555 1.8114727 -76.880699 30.085106 -77.789948 -96.464661 0.16923846 -124.27567
27568000000 -22.263834 0.7722069 -79.399071 171.91151 -78.115158 -78.509796 0.16837186 -124.39478
27569000000 -22.026297 -0.053270098 -70.959503 -13.388659 -75.04026 -120.40423 0.16572826 -124.43282
27570000000 -21.72978 -1.1890594 -78.136978 101.4666 -84.789688 -47.615108 0.16397053 -124.50908
27571000000 -21.537567 -2.6123784 -79.913605 90.538383 -73.401573 -31.404558 0.16348453 -124.58302
27572000000 -21.30937 -3.9874935 -75.638023 46.541653 -78.86956 -50.236443 0.16390453 -124.645
27573000000 -21.088163 -5.3529835 -77.158615 158.82886 -75.253166 -155.35559 0.1612598 -124.74148
27574000000 -20.86079 -6.542398 -75.871758 -81.225845 -74.078308 22.696196 0.15348661 -124.82366
27575000000 -20.664532 -7.9162455 -83.917778 106.14288 -73.879822 47.562912 0.15943508 -124.88641
27576000000 -20.483997 -9.3736258 -71.459229 31.954901 -79.919075 141.61749 0.16107954 -124.96246
27577000000 -20.297533 -10.747446 -75.07 99.67363 -82.308479 -103.28358 0.16248892 -125.03556
27578000000 -20.122324 -11.943753 -81.733513 120.21823 -76.11895 135.85072 0.16132011 -125.14232
27579000000 -19.966328 -13.44783 -72.775505 69.574486 -78.284187 157.66602 0.15521245 -125.21269
27580000000 -19.797087 -15.177543 -70.66909 45.589985 -76.133957 -53.600372 0.15136997 -125.30013
27581000000 -19.634396 -16.619028 -75.568771 121.11559 -79.042595 -70.03299 0.15604128 -125.30312
27582000000 -19.510363 -18.195545 -71.793686 73.657578 -83.095955 -100.58479 0.15953624 -125.35435
27583000000 -19.386404 -19.799215 -74.722931 70.577065 -83.751511 171.7139 0.15837212 -125.51408
27584000000 -19.253208 -21.42523 -79.426331 -60.984505 -69.556427 133.44551 0.15485065 -125.55844
27585000000 -19.132805 -23.495138 -75.708389 -137.73497 -75.843269 -156.89188 0.15226075 -125.61215
27586000000 -19.061655 -25.320995 -73.44931 -95.974098 -74.770233 165.52258 0.15528332 -125.65432
27587000000 -18.952808 -27.125771 -79.207916 -73.743874 -72.881996 172.31339 0.16292985 -125.73209
27588000000 -18.886894 -28.877691 -79.348984 58.188801 -70.03569 141.4554 0.15405497 -125.83279
27589000000 -18.858976 -31.007198 -70.417847 37.62883 -74.423393 9.3138447 0.16084698 -125.88683
27590000000 -18.806786 -32.701481 -79.826439 -130.11134 -67.932274 -72.586021 0.15618652 -125.97131
27591000000 -18.795364 -34.79261 -72.17971 -116.74766 -71.800797 -9.8449945 0.15993127 -126.01082
27592000000 -18.823792 -36.827156 -75.703094 -93.745499 -75.630707 -92.007057 0.16238108 -126.10178
27593000000 -18.852137 -38.821705 -77.93528 -45.331375 -77.744537 100.32124 0.1531036 -126.1513
27594000000 -18.907417 -40.716022 -78.840019 22.432465 -74.854774 -177.14938 0.1609879 -126.26456
27595000000 -18.98665 -42.507275 -74.646645 -115.05016 -78.775017 -95.706917 0.16110703 -126.3435
27596000000 -19.055292 -44.268623 -79.606628 137.07573 -82.46508 11.454178 0.16176368 -126.38708
27597000000 -19.211767 -46.066704 -85.69075 -15.569452 -76.972954 143.29501 0.16393286 -126.45818
27598000000 -19.356422 -47.528751 -79.410294 88.472176 -76.063148 112.53426 0.16386589 -126.56391
27599000000 -19.535601 -49.056984 -75.246201 -12.821879 -71.696953 34.164398 0.16817205 -126.65937
27600000000 -19.710398 -49.919693 -71.382324 68.9879 -74.609261 -91.350067 0.17193732 -126.73411
27601000000 -19.91139 -50.587765 -70.826309 81.474388 -76.476547 -50.046276 0.17575438 -126.8238
27602000000 -20.029522 -51.224735 -76.927437 95.00972 -78.362846 41.32019 0.16287839 -126.88486
27603000000 -20.112104 -51.676727 -72.251663 63.747784 -76.874466 55.032211 0.16989002 -126.95621
27604000000 -20.261808 -51.780109 -73.035408 -147.80003 -76.774086 21.964573 0.17884223 -127.06868
27605000000 -20.320318 -52.287025 -69.200653 -178.39066 -74.246201 -146.28674 0.16969311 -127.20828
27606000000 -20.370186 -52.437557 -75.021996 125.02989 -77.732346 122.35767 0.16286395 -127.23726
27607000000 -20.454372 -53.094048 -70.112526 105.31992 -77.370506 153.34087 0.16741891 -127.35124
27608000000 -20.452854 -53.689541 -82.88002 161.49553 -73.948227 146.06572 0.16556035 -127.38639
27609000000 -20.456701 -54.311722 -78.427338 -102.46033 -80.290779 135.32423 0.16533087 -127.46153
27610000000 -20.512838 -55.037312 -74.607262 132.68816 -79.737206 176.8558 0.17129534 -127.5331
27611000000 -20.552347 -55.642368 -73.566124 61.833416 -88.265388 47.45105 0.16159764 -127.65184
27612000000 -20.58115 -56.436615 -83.538094 -61.917797 -71.940659 -25.795805 0.16561532 -127.70599
27613000000 -20.606144 -57.678558 -110.80904 114.19912 -73.443237 131.74631 0.17057531 -127.73999
27614000000 -20.701338 -58.549133 -85.795052 -63.987686 -75.587379 58.563641 0.16570733 -127.89089
27615000000 -20.745464 -59.288536 -76.380974 -85.825348 -84.557686 167.88805 0.17081112 -128.00061
27616000000 -20.859215 -60.358505 -74.894188 8.0477324 -76.323257 -88.22493 0.17632478 -128.06982
27617000000 -20.930986 -61.376564 -77.781548 -18.908323 -84.5121 149.4467 0.17021354 -128.11765
27618000000 -21.022516 -62.222313 -74.583008 125.75068 -71.030327 128.77733 0.16962768 -128.15082
27619000000 -21.12215 -63.25499 -73.03376 42.202389 -81.634644 124.06058 0.17857595 -128.21727
27620000000 -21.299534 -63.88047 -83.846817 -10.727181 -74.338387 -14.405258 0.16327496 -128.36948
27621000000 -21.401117 -64.450264 -73.48513 125.27633 -80.629539 48.130669 0.16299652 -128.41196
27622000000 -21.569862 -65.032784 -73.152168 75.161499 -81.33593 68.730209 0.16790988 -128.5213
27623000000 -21.728781 -65.758575 -78.632095 25.142385 -80.966103 -138.27405 0.16241176 -128.61784
27624000000 -21.895344 -66.350182 -78.850494 62.256668 -70.589645 -154.95064 0.16597056 -128.6869
27625000000 -22.022789 -66.912193 -71.363739 156.89908 -87.019066 -86.019112 0.15750249 -128.73734
27626000000 -22.227722 -66.802383 -85.88047 70.777954 -75.856522 111.815 0.16001999 -128.83421
27627000000 -22.377197 -67.486557 -83.942566 -92.199287 -77.300743 114.22094 0.1697678 -128.8764
27628000000 -22.57218 -67.254364 -78.994217 -115.35568 -83.105064 115.91506 0.15928771 -128.95529
27629000000 -22.726391 -67.196388 -76.883659 -126.17464 -78.878418 -105.117 0.16233864 -129.04898
27630000000 -22.853491 -67.713478 -71.641548 45.057838 -90.222786 65.124443 0.15780145 -129.12227
27631000000 -23.067373 -67.22242 -87.079254 -129.88023 -77.95327 -152.07623 0.16191173 -129.18736
27632000000 -23.245632 -66.944229 -83.971138 -18.517168 -83.832733 3.3317394 0.16361953 -129.2612
27633000000 -23.339754 -67.036118 -74.798805 82.275269 -74.15081 -102.3917 0.16235059 -129.35223
27634000000 -23.496273 -66.277458 -78.011009 5.1812758 -82.62571 -57.145901 0.16457416 -129.4059
27635000000 -23.608433 -65.753372 -93.086121 -64.488518 -76.106506 146.00119 0.15851097 -129.51761
27636000000 -23.73176 -65.549042 -80.797607 -95.423492 -75.182144 75.732552 0.15822893 -129.57057
27637000000 -23.833374 -65.153282 -72.739258 116.68674 -111.02591 -53.837219 0.15375285 -129.65706
27638000000 -23.821754 -64.38974 -73.381706 55.882694 -79.977898 136.05658 0.1505921 -129.68575
27639000000 -23.930086 -63.603405 -71.657829 71.576271 -74.830437 132.58347 0.15158698 -129.76617
27640000000 -23.994795 -63.15094 -80.417053 69.467957 -73.238625 101.34563 0.15594807 -129.86147
27641000000 -24.064211 -62.126621 -73.29747 -35.918282 -73.442993 136.72443 0.14839236 -129.97292
27642000000 -24.073147 -61.454464 -71.54303 -66.672943 -70.682121 151.00992 0.14614689 -129.99644
27643000000 -24.076435 -61.028275 -81.94957 -2.7931874 -75.288956 100.43283 0.15944266 -130.11589
27644000000 -24.047197 -60.565529 -83.53595 96.164719 -79.973915 42.732449 0.15549918 -130.15984
27645000000 -24.041859 -59.960201 -75.282593 43.653725 -72.815063 -63.331604 0.15742332 -130.24043
27646000000 -23.990923 -59.250725 -71.767723 80.407753 -79.301674 -92.559616 0.15696256 -130.29536
27647000000 -23.988939 -59.030437 -71.056244 92.56031 -80.794357 -42.111206 0.15432134 -130.38802
27648000000 -23.938023 -58.361671 -77.762894 65.251381 -76.793655 169.90364 0.15466966 -130.50815
27649000000 -23.895554 -57.768314 -75.923424 -27.204325 -90.89901 29.248428 0.15538251 -130.58525
27650000000 -23.835855 -57.573795 -78.738213 -88.518402 -79.459694 -161.51286 0.164404 -130.6716
27651000000 -23.747879 -57.13839 -81.95858 -16.049089 -87.664856 -99.968613 0.15713859 -130.74597
27652000000 -23.626411 -57.297386 -72.41272 -113.30447 -73.349785 40.837109 0.15719394 -130.78032
27653000000 -23.584229 -57.139393 -75.501755 -70.696251 -79.899109 -61.62431 0.16471764 -130.89377
27654000000 -23.502039 -56.972023 -78.748451 28.066778 -85.334732 -153.54866 0.16153933 -130.99052
27655000000 -23.453592 -56.764069 -83.67907 66.642174 -79.638016 -135.57483 0.15922724 -131.11171
27656000000 -23.29917 -57.056328 -81.770844 1.1908884 -79.829163 144.63982 0.15704271 -131.15016
27657000000 -23.230984 -57.162571 -78.890358 -103.36701 -75.57534 -153.10469 0.15285522 -131.19017
27658000000 -23.19042 -57.08205 -70.834602 -19.576387 -83.901207 -103.68423 0.15714177 -131.35817
27659000000 -23.106268 -57.196087 -85.297729 -12.269898 -86.495407 -45.67141 0.15486288 -131.37144
27660000000 -23.038328 -57.402229 -74.029877 15.40811 -81.022949 116.65833 0.15518644 -131.4539
27661000000 -22.954819 -57.91153 -78.009964 164.17485 -76.393333 -26.506456 0.15950932 -131.6147
27662000000 -22.837509 -58.212364 -77.563881 -6.5696344 -85.786072 49.370205 0.15378913 -131.59019
27663000000 -22.796324 -58.44162 -80.035049 2.7986767 -84.551201 -5.4897466 0.16086487 -131.71419
27664000000 -22.717056 -58.880268 -81.868355 -100.78223 -81.27504 175.81563 0.15882799 -131.76521
27665000000 -22.641756 -58.914089 -79.835754 -2.3577023 -79.246391 -58.051559 0.15270661 -131.84845
27666000000 -22.613613 -59.453472 -81.672691 -44.017014 -81.343315 5.5801182 0.15804932 -131.93161
27667000000 -22.490746 -59.858318 -80.596733 -147.01096 -74.17363 38.968124 0.16147777 -131.9888
27668000000 -22.442652 -60.042259 -72.394569 178.91861 -88.600311 -161.45854 0.15753196 -132.1234
27669000000 -22.377314 -60.272549 -80.188301 -132.13858 -83.200516 66.298065 0.15513253 -132.17366
27670000000 -22.297285 -60.882427 -73.978874 -155.53029 -77.889679 -170.04604 0.15632661 -132.23828
27671000000 -22.276533 -61.580685 -80.42421 -59.617954 -85.301323 -99.886581 0.1556749 -132.33537
27672000000 -22.158304 -61.874363 -80.248001 -105.68487 -80.818108 -99.187668 0.15944441 -132.38873
27673000000 -22.152948 -62.290016 -83.729942 147.37491 -76.349251 -64.624153 0.15440333 -132.43729
27674000000 -22.076424 -62.771412 -80.376549 -105.43806 -72.060204 -55.032402 0.15558366 -132.56174
27675000000 -22.00909 -63.181107 -70.859665 -68.472397 -71.559402 -118.9676 0.16060129 -132.59612
27676000000 -21.984077 -63.683914 -69.770744 -39.60358 -78.664536 -147.82953 0.1586699 -132.72836
27677000000 -21.961332 -64.067444 -74.860291 -17.230602 -83.317711 -135.73767 0.15524091 -132.80147
27678000000 -21.865784 -64.700974 -84.047119 82.410149 -80.909248 -176.30502 0.15244898 -132.88335
27679000000 -21.842737 -65.042206 -71.133484 -177.47626 -76.582359 -117.98833 0.1604446 -132.95644
27680000000 -21.718521 -65.634254 -80.338257 132.83253 -78.092171 -164.18625 0.15657975 -132.97972
27681000000 -21.711454 -65.983391 -72.104805 -96.452324 -73.48304 -164.43524 0.15067953 -133.0739
27682000000 -21.683514 -66.501205 -73.948425 -115.06589 -83.730827 152.55635 0.16386501 -133.16791
27683000000 -21.629694 -67.151787 -73.073402 -113.86442 -83.312599 -179.80251 0.16060002 -133.21313
27684000000 -21.558064 -67.691696 -76.156876 168.06024 -74.84684 -176.45027 0.15998006 -133.31714
27685000000 -21.5334 -68.006424 -104.98042 123.61909 -83.282883 177.21025 0.16548708 -133.37027
27686000000 -21.449568 -68.504219 -76.831963 35.613029 -85.361046 -88.350449 0.15514573 -133.47302
27687000000 -21.396654 -69.125969 -74.941292 -14.502179 -72.650673 148.56839 0.15671067 -133.49176
27688000000 -21.345272 -69.770966 -76.750526 -125.54569 -80.043777 103.91245 0.15889268 -133.61365
27689000000 -21.289715 -70.070999 -88.957413 9.6808062 -80.497284 -23.301027 0.15646093 -133.6635
27690000000 -21.263786 -70.362434 -71.428238 137.71196 -69.88533 46.815533 0.16100316 -133.75015
27691000000 -21.163563 -71.327835 -76.859756 27.892918 -76.382584 -71.090691 0.15687539 -133.81099
27692000000 -21.144476 -71.994583 -72.914917 -19.391953 -78.151726 32.378151 0.15114962 -133.85646
27693000000 -21.080297 -72.495262 -70.367134 33.933044 -85.87352 -75.532181 0.1570662 -133.93219
27694000000 -21.047306 -73.140747 -70.861336 55.842117 -78.584984 -44.944195 0.15618986 -134.07542
27695000000 -20.980297 -73.685486 -85.082817 16.420946 -77.762955 -149.8055 0.15337607 -134.13504
27696000000 -20.928106 -74.459892 -76.373871 -175.38837 -75.192039 17.255497 0.15174697 -134.12155
27697000000 -20.859041 -75.011986 -73.810616 45.346489 -78.853951 58.740856 0.16311912 -134.2672
27698000000 -20.758574 -75.505821 -74.281273 -60.225582 -72.315308 -149.21289 0.15101354 -134.37286
27699000000 -20.719345 -76.393723 -73.896797 80.235344 -75.99469 -84.541397 0.15566832 -134.41788
27700000000 -20.669235 -76.898575 -73.338745 107.51624 -82.559944 -70.546471 0.15325828 -134.46057
